!Generated from: C:\Users\nkfzm\OneDrive - University of Missouri\Desktop\Research\PowerSI\Board 1 - GPGG\test1.spd
! Port1_ic_port::PWR
! Port2_decap_port1_1::PWR
! Port3_decap_port2_1::PWR
!
!Layout Workbench Version: 24.1.0.10141.541387   000
!Computer Host Name: RS29JQCX3
!
!TouchstoneFormatFlag = 1
! GNDNET GRD
! NETSLIST 
!
#	Hz	Z	RI	R	1
0	554835142654.955	-0	554835142649.786	-0	554835142646.247	-0
			554835142649.786	-0	554835142644.621	-0	554835142641.08	-0
			554835142646.247	-0	554835142641.081	-0	554835142637.543	-0
0.1	37602698.5457457	-4292233729.49714	37602698.4536767	-4292233729.46468	37602698.3445368	-4292233729.43549
			37602698.4536767	-4292233729.46468	37602698.3645264	-4292233729.43221	37602698.2542861	-4292233729.40302
			37602698.3445368	-4292233729.43549	37602698.2542861	-4292233729.40303	37602698.1462078	-4292233729.37384
0.133352143216332	18683914.0897485	-3220369038.94527	18683914.0204482	-3220369038.9158	18683913.9386941	-3220369038.89565
			18683914.0204482	-3220369038.9158	18683913.9540666	-3220369038.88633	18683913.8712122	-3220369038.86618
			18683913.9386941	-3220369038.89565	18683913.8712122	-3220369038.86618	18683913.7905197	-3220369038.84603
0.177827941003892	10512761.689456	-2415826576.96378	10512761.6372241	-2415826576.94163	10512761.5759144	-2415826576.9264
			10512761.6372241	-2415826576.94163	10512761.587911	-2415826576.91947	10512761.5255009	-2415826576.90425
			10512761.5759144	-2415826576.9264	10512761.5255009	-2415826576.90425	10512761.4652529	-2415826576.88902
0.237137370566166	5913760.80052543	-1812110412.88363	5913760.7610872	-1812110412.867	5913760.71510922	-1812110412.85551
			5913760.76108719	-1812110412.867	5913760.72456767	-1812110412.85037	5913760.67748935	-1812110412.83888
			5913760.71510922	-1812110412.85551	5913760.67748935	-1812110412.83888	5913760.63257297	-1812110412.82739
0.316227766016838	3325999.45939545	-1359168049.36647	3325999.4295477	-1359168049.354	3325999.39506744	-1359168049.34534
			3325999.4295477	-1359168049.354	3325999.40261867	-1359168049.34154	3325999.36703805	-1359168049.33287
			3325999.39506744	-1359168049.34534	3325999.36703805	-1359168049.33287	3325999.33361938	-1359168049.3242
0.421696503428582	1870225.16827794	-1019387112.4966	1870225.14562013	-1019387112.48727	1870225.11976285	-1019387112.48073
			1870225.14562013	-1019387112.48727	1870225.12588104	-1019387112.47793	1870225.0989234	-1019387112.4714
			1870225.11976285	-1019387112.48073	1870225.0989234	-1019387112.4714	1870225.07412772	-1019387112.46486
0.562341325190349	1051409.02959963	-764519138.374335	1051409.01233244	-764519138.367357	1051408.99294431	-764519138.362427
			1051409.01233244	-764519138.367357	1051408.99798397	-764519138.360379	1051408.97749548	-764519138.355448
			1051408.99294431	-764519138.362427	1051408.97749548	-764519138.355449	1051408.95916894	-764519138.350518
0.749894209332456	590815.820163862	-573356894.49784	590815.806938481	-573356894.492631	590815.792408288	-573356894.488902
			590815.806938481	-573356894.492631	590815.796631812	-573356894.487421	590815.781001263	-573356894.483693
			590815.792408288	-573356894.488902	590815.781001263	-573356894.483693	590815.76753267	-573356894.479965
1	327128.425751895	-429984879.892207	327128.415557151	-429984879.888325	327128.404629431	-429984879.885225
			327128.415557151	-429984879.888325	327128.408281119	-429984879.884443	327128.396253043	-429984879.881343
			327128.404629431	-429984879.885225	327128.396253043	-429984879.881343	327128.386386924	-429984879.878243
1.33352143216332	186811.165223757	-322458674.26896	186811.157301442	-322458674.266074	186811.149085638	-322458674.263967
			186811.157301442	-322458674.266074	186811.152297839	-322458674.263188	186811.142981679	-322458674.261081
			186811.149085638	-322458674.263967	186811.142981679	-322458674.261081	186811.135827474	-322458674.258973
1.77827941003892	104910.648799283	-241818371.822771	104910.642581026	-241818371.820631	104910.636422567	-241818371.819035
			104910.642581026	-241818371.820631	104910.639281479	-241818371.818491	104910.632022665	-241818371.816895
			104910.636422567	-241818371.819035	104910.632022665	-241818371.816895	104910.626925807	-241818371.815299
2.37137370566166	58903.7924322064	-181343002.190566	58903.7874917926	-181343002.188984	58903.7828703122	-181343002.187776
			58903.7874917926	-181343002.188984	58903.7854700898	-181343002.187403	58903.7797482539	-181343002.186194
			58903.7828703122	-181343002.187776	58903.7797482539	-181343002.186194	58903.7761883737	-181343002.184986
3.16227766016838	33057.2518655016	-135990773.79468	33057.2478833426	-135990773.793516	33057.2444132632	-135990773.792601
			33057.2478833426	-135990773.793516	33057.2468198947	-135990773.792352	33057.2422494598	-135990773.791437
			33057.2444132632	-135990773.792601	33057.2422494598	-135990773.791437	33057.2398409805	-135990773.790521
4.21696503428582	18537.2718905042	-101980216.247914	18537.2686268399	-101980216.247063	18537.2660199112	-101980216.246369
			18537.2686268399	-101980216.247063	18537.2682818865	-101980216.246212	18537.2645746024	-101980216.245519
			18537.2660199112	-101980216.246369	18537.2645746024	-101980216.245519	18537.2630292739	-101980216.244825
5.62341325190349	10355.4492127173	-76475233.5234126	10355.4464901134	-76475233.5228089	10355.4445285661	-76475233.5222756
			10355.4464901134	-76475233.5228089	10355.4466862204	-76475233.5222052	10355.4436243177	-76475233.5216719
			10355.4445285661	-76475233.5222756	10355.4436243177	-76475233.5216719	10355.4427243704	-76475233.5211385
7.49894209332456	5789.78435839908	-57348814.0423167	5789.78203812605	-57348814.0418832	5789.7805630352	-57348814.0414841
			5789.78203812605	-57348814.0418832	5789.78263656409	-57348814.0414497	5789.78006111774	-57348814.0410506
			5789.7805630352	-57348814.0414842	5789.78006111774	-57348814.0410506	5789.77964762695	-57348814.0406515
10	3210.73999998266	-43005814.3517974	3210.73798268837	-43005814.3515017	3210.73687149736	-43005814.3512042
			3210.73798268837	-43005814.3515017	3210.73888410515	-43005814.351206	3210.73667255866	-43005814.3509085
			3210.73687149736	-43005814.3512042	3210.73667255866	-43005814.3509084	3210.73662296767	-43005814.3506108
13.3352143216332	1701.06908013013	-32249964.6167294	1701.06729127668	-32249964.6165882	1701.06645281834	-32249964.6163688
			1701.06729127668	-32249964.6165883	1701.06842113431	-32249964.616447	1701.0664823206	-32249964.6162276
			1701.06645281834	-32249964.6163688	1701.0664823206	-32249964.6162276	1701.06670546214	-32249964.616008
17.7827941003892	1285.937816789	-24184154.9958566	1285.93620914277	-24184154.9953931	1285.93557434198	-24184154.9952409
			1285.93620914277	-24184154.9953931	1285.93752020762	-24184154.9949295	1285.93578505071	-24184154.9947773
			1285.93557434198	-24184154.9952409	1285.93578505071	-24184154.9947773	1285.93621185049	-24184154.9946249
23.7137370566166	667.334927595614	-18135588.2948856	667.333450067409	-18135588.2947454	667.332955330634	-18135588.2945714
			667.333450067409	-18135588.2947454	667.334891250299	-18135588.294605	667.333296157963	-18135588.294431
			667.332955330634	-18135588.2945714	667.333296157963	-18135588.294431	667.333863021514	-18135588.2942568
31.6227766016838	357.090645337253	-13599807.6776877	357.089248278118	-13599807.6775779	357.088884606083	-13599807.677472
			357.089248278118	-13599807.6775779	357.090769930087	-13599807.6774678	357.089305902446	-13599807.6773621
			357.088884606083	-13599807.677472	357.089305902446	-13599807.6773621	357.09000383058	-13599807.677256
42.1696503428582	200.294648127663	-10198432.8445403	200.293323455319	-10198432.8444734	200.293044632429	-10198432.844393
			200.293323455319	-10198432.8444734	200.294917494089	-10198432.8444061	200.293538315577	-10198432.8443259
			200.293044632429	-10198432.844393	200.293538315577	-10198432.8443259	200.294321092805	-10198432.8442453
56.2341325190349	125.509467935192	-7647759.47786847	125.508162431069	-7647759.47790367	125.507947976343	-7647759.47784229
			125.508162431069	-7647759.47790367	125.509775637577	-7647759.47793827	125.508460827238	-7647759.47787716
			125.507947976343	-7647759.47784229	125.508460827238	-7647759.47787716	125.509307972601	-7647759.47781551
74.9894209332456	61.2348975757075	-5735011.53719736	61.2336652833317	-5735011.53714197	61.2334996752535	-5735011.53709856
			61.2336652833317	-5735011.53714197	61.2353517023541	-5735011.53708578	61.2340857386511	-5735011.53704274
			61.2334996752535	-5735011.53709856	61.2340857386511	-5735011.53704274	61.2349817306103	-5735011.53699898
100	35.1162889462628	-4300654.49059746	35.1150893160045	-4300654.49056408	35.1149597775318	-4300654.49053154
			35.1150893160045	-4300654.49056408	35.1168083971629	-4300654.49052963	35.1155785030493	-4300654.49049758
			35.1149597775318	-4300654.49053154	35.1155785030493	-4300654.49049758	35.1165105645737	-4300654.49046456
133.352143216332	20.0098468725726	-3225037.40270224	20.0086702111473	-3225037.40267972	20.0085679746892	-3225037.4026563
			20.0086702111473	-3225037.40267972	20.0104122612181	-3225037.40265578	20.009209669107	-3225037.40263301
			20.0085679746892	-3225037.4026563	20.0092096691069	-3225037.40263301	20.0101690326053	-3225037.40260895
177.827941003892	11.4555970283528	-2418437.73974598	11.4544371739695	-2418437.73973015	11.4543554048407	-2418437.73971403
			11.4544371739695	-2418437.73973015	11.4561960311862	-2418437.73971242	11.4550139063848	-2418437.73969717
			11.4543554048407	-2418437.73971403	11.4550139063848	-2418437.73969717	11.4559937371821	-2418437.73968019
237.137370566166	8.60389644831641	-1813573.27031135	8.60275393767846	-1813573.27027058	8.60268746450386	-1813573.2702614
			8.60275393767845	-1813573.27027058	8.60453013874746	-1813573.27022726	8.60336330914961	-1813573.27021925
			8.60268746450386	-1813573.2702614	8.60336330914962	-1813573.27021925	8.60435843664517	-1813573.27020893
316.227766016838	3.20991354063773	-1359988.14243777	3.20877634573903	-1359988.14244313	3.20872120816778	-1359988.14242595
			3.20877634573904	-1359988.14244314	3.21055786317271	-1359988.14244508	3.20940236965125	-1359988.14242946
			3.20872120816779	-1359988.14242595	3.20940236965124	-1359988.14242946	3.21040883184289	-1359988.14241077
421.696503428582	1.81224155727558	-1019847.35640186	1.81111148206995	-1019847.35640074	1.81106515427879	-1019847.35639316
			1.81111148206996	-1019847.35640074	1.81290011928357	-1019847.35639506	1.81175343570131	-1019847.35638956
			1.81106515427879	-1019847.35639316	1.8117534357013	-1019847.35638956	1.81276870765329	-1019847.35637996
562.341325190349	0.915507685479533	-764777.718722468	0.914382853260021	-764777.718720106	0.91434319918029	-764777.718715137
			0.914382853260032	-764777.718720106	0.916176733868235	-764777.71871167	0.915036723941359	-764777.718709474
			0.914343199180284	-764777.718715137	0.915036723941345	-764777.718709474	0.91605866958159	-764777.718701812
749.894209332456	0.502075130164598	-573502.395385288	0.500955960244878	-573502.395385247	0.500919681767228	-573502.395379469
			0.500955960244895	-573502.395385247	0.502755503811417	-573502.395377102	0.501618869427697	-573502.395375022
			0.500919681767231	-573502.395379469	0.501618869427681	-573502.395375022	0.502644190778229	-573502.395365655
1000	5.70900668874042	-430066.215369868	5.7078957749555	-430066.215372647	5.70787227010396	-430066.215372743
			5.7078957749555	-430066.215372647	5.7097035805687	-430066.21536461	5.70857971811664	-430066.215369638
			5.70787227010395	-430066.215372743	5.70857971811663	-430066.215369638	5.70961781153928	-430066.215364948
1333.52143216332	0.10602867788044	-322504.148176157	0.104913711999566	-322504.148178289	0.104885559355067	-322504.148176797
			0.10491371199956	-322504.148178289	0.106717462301897	-322504.148166004	0.105588952674704	-322504.148171088
			0.104885559355067	-322504.148176797	0.105588952674707	-322504.148171088	0.106622399472886	-322504.148163212
1778.27941003892	0.0531122410363377	-241843.998550644	0.0519993807695213	-241843.998554911	0.0519736520587899	-241843.998554304
			0.0519993807695268	-241843.998554911	0.0538052392312055	-241843.998539949	0.0526791526889142	-241843.998548111
			0.0519736520587899	-241843.998554304	0.0526791526889087	-241843.998548111	0.053715023370926	-241843.998538992
2371.37370566166	0.0235314323164759	-181357.41492006	0.0224205177274922	-181357.414926649	0.022397012822245	-181357.414926879
			0.0224205177274839	-181357.414926649	0.0242283260041193	-181357.414907593	0.0231044618672793	-181357.414919516
			0.0223970128222395	-181357.414926879	0.0231044618672793	-181357.414919516	0.0241425563754089	-181357.414908393
3162.27766016838	0.00505316520459931	-135998.869502302	0.00394466505494462	-135998.869511667	0.00392399390139464	-135998.86951287
			0.00394466505494462	-135998.869511667	0.00575489489433867	-135998.869486828	0.00463386213148675	-135998.869503626
			0.00392399390140297	-135998.86951287	0.00463386213149508	-135998.869503626	0.00567479052204223	-135998.869489691
4216.96503428582	-0.0241567697116224	-101984.730787157	-0.0252597624724626	-101984.73080055	-0.0252725816198091	-101984.730801819
			-0.0252597624724626	-101984.73080055	-0.0234440135298275	-101984.73076832	-0.0245571975683201	-101984.730790388
			-0.0252725816198035	-101984.730801819	-0.0245571975683145	-101984.730790388	-0.0235084160868537	-101984.730771473
5623.41325190349	-0.214722507060075	-76477.7734137337	-0.215833426295481	-76477.7734293639	-0.215856931562844	-76477.7734299066
			-0.215833426295486	-76477.7734293639	-0.214025603166765	-76477.7733841789	-0.215149476837587	-76477.7734124521
			-0.215856931562849	-76477.7734299066	-0.215149476837587	-76477.7734124521	-0.214111376285697	-76477.7733860751
7498.94209332456	-0.0188404354150434	-57350.220812633	-0.019954903615238	-57350.2208260929	-0.0199769907745895	-57350.2208277003
			-0.0199549036152324	-57350.2208260929	-0.0181506154549926	-57350.2207584702	-0.0192730762000382	-57350.2207970566
			-0.0199769907745867	-57350.2208277003	-0.0192730762000409	-57350.2207970566	-0.0182335489841201	-57350.2207627653
10000	-0.00275774945516227	-43006.6119883675	-0.00386886240426876	-43006.6120149532	-0.00389244330812888	-43006.6120160163
			-0.00386886240426043	-43006.6120149532	-0.00206118479973427	-43006.6119333989	-0.0031851570323177	-43006.6119837744
			-0.00389244330813721	-43006.6120160163	-0.00318515703233158	-43006.6119837744	-0.00214711421860636	-43006.6119369667
13335.2143216332	-0.000873271566029232	-32250.4125316752	-0.00198421683939576	-32250.4125687388	-0.00200772410734185	-32250.4125700255
			-0.00198421683940408	-32250.4125687388	-0.000176310120056367	-32250.4124615882	-0.00130023735857299	-32250.4125286337
			-0.00200772410734185	-32250.4125700255	-0.00130023735856744	-32250.4125286337	-0.000262102793027741	-32250.4124660843
17782.7941003892	-0.00038446290103189	-24184.3985853946	-0.0014953756048347	-24184.3986350673	-0.00151879034903379	-24184.3986367891
			-0.00149537560486523	-24184.3986350673	0.00031266963237131	-24184.3984924253	-0.000811214554174988	-24184.398581837
			-0.00151879034904767	-24184.3986367891	-0.00081121455416111	-24184.398581837	0.000227045969608541	-24184.3984984329
23713.7370566166	-8.91364297983532e-05	-18135.7407695042	-0.00120009577341817	-18135.7408356061	-0.00122351505454366	-18135.7408379064
			-0.00120009577342095	-18135.7408356061	0.000608087627265719	-18135.7406452567	-0.000515887929480874	-18135.7407644914
			-0.00122351505454366	-18135.7408379064	-0.000515887929480874	-18135.7407644914	0.000522428529453611	-18135.7406532761
31622.7766016838	0.000189401278807844	-13599.8870504806	-0.000921690224583993	-13599.8871383683	-0.000945208738653558	-13599.8871414197
			-0.000921690224572891	-13599.8871383683	0.000886686135090353	-13599.8868842874	-0.000237542012931913	-13599.8870432686
			-0.000945208738653558	-13599.8871414197	-0.000237542012943015	-13599.8870432686	0.000800783557816653	-13599.886894948
42169.6503428582	0.000482946270313755	-10198.4764997057	-0.000628365243932061	-10198.4766166511	-0.000652046948992901	-10198.4766206908
			-0.000628365243920959	-10198.4766166511	0.00118036656081566	-10198.4762776079	5.57034302017811e-05	-10198.4764895725
			-0.000652046948998453	-10198.4766206908	5.57034301823522e-05	-10198.4764895725	0.00109405866588475	-10198.4762917631
56234.1325190349	0.000796771304104049	-7647.77836076945	-0.000314851987320841	-7647.7785165851	-0.000338697123386522	-7647.77852194877
			-0.000314851987312514	-7647.7785165851	0.00149459125450557	-7647.77806439897	0.000369281946416278	-7647.77834700887
			-0.000338697123372644	-7647.77852194877	0.000369281946421829	-7647.77834700887	0.00140781503395748	-7647.77808322331
74989.4209332456	0.00112020686002245	-5735.0245487663	8.15898804351622e-06	-5735.02475667637	-1.57299912068032e-05	-5735.02476384292
			8.1589880518429e-06	-5735.02475667637	0.00181900229404008	-5735.02415393195	0.00069279090691432	-5735.02453075154
			-1.57299912012521e-05	-5735.02476384292	0.000692790906911545	-5735.02453075154	0.00173188047677686	-5735.02417905262
100000	0.00140288255345566	-4300.66149544534	0.000290206323536046	-4300.66177322902	0.000266564760920129	-4300.66178287625
			0.000290206323522169	-4300.66177322902	0.00210367278141443	-4300.66097019842	0.000976185278495079	-4300.66147264562
			0.000266564760914578	-4300.66178287625	0.000976185278503405	-4300.66147264562	0.00201657201086836	-4300.66100385954
133352.143216332	0.00149338244139485	-3225.04091430673	0.000379547646259248	-3225.0412856292	0.000356411052038208	-3225.0412986509
			0.000379547646267575	-3225.0412856292	0.00219759098254169	-3225.04021589673	0.00106792435620451	-3225.04088575452
			0.000356411052043759	-3225.0412986509	0.00106792435620451	-3225.04088575452	0.002110645300199	-3225.04026105877
177827.941003892	0.00105886415466272	-2418.43929873594	-5.74617888299267e-05	-2418.43979437969	-8.13981661351715e-05	-2418.43981152671
			-5.74617888299267e-05	-2418.43979437969	0.00176787813657708	-2418.43836818054	0.000632801546751605	-2418.43926046698
			-8.13981661434982e-05	-2418.43981152671	0.000632801546743278	-2418.43926046698	0.00167792771187392	-2418.43842783444
237137.370566166	-0.00017666263376348	-1813.57332523949	-0.00129640527699315	-1813.57398620916	-0.00132674005422773	-1813.57400436833
			-0.00129640527699315	-1813.57398620916	0.000541201861500862	-1813.57208242444	-0.000607554283374445	-1813.57326572604
			-0.0013267400542305	-1813.57400436833	-0.000607554283377221	-1813.57326572604	0.000436907231607386	-1813.57215204766
316227.766016838	-0.000339081373731953	-1359.98684234243	-0.00146586488784239	-1359.98773695124	-0.00149014044779072	-1359.98775100286
			-0.00146586488784795	-1359.98773695124	0.000390684932741192	-1359.98520680138	-0.000761734986515217	-1359.98677132258
			-0.0014901404478046	-1359.98775100286	-0.000761734986520768	-1359.98677132258	0.000298455948466447	-1359.9852796515
421696.503428582	0.00112066258787513	-1019.84646838989	-3.22673529118411e-05	-1019.84766391098	-5.65919769213163e-05	-1019.84770454766
			-3.22673529007389e-05	-1019.84766391098	0.0018407994471642	-1019.84430096131	0.000674051615912052	-1019.84640394815
			-5.65919769240919e-05	-1019.84770454766	0.000674051615903726	-1019.84640394815	0.00174789481626469	-1019.84444290832
562341.325190349	0.00101422155617814	-764.77651398744	-0.000158197487540312	-764.778097926758	-0.000185804514357679	-764.778148179427
			-0.000158197487556966	-764.778097926758	0.00174697873095431	-764.773633613349	0.000555960103862385	-764.776422692571
			-0.000185804514374333	-764.778148179427	0.00055596010385961	-764.776422692571	0.00164741580251648	-764.773815520414
749894.209332456	0.00115459739697954	-573.500487432332	-3.96485273029823e-05	-573.502575414062	-6.40809222240968e-05	-573.502647646781
			-3.96485272918801e-05	-573.502575414062	0.00190521301574598	-573.496647012846	0.000690278422679769	-573.500351615466
