!Generated from: C:\Users\nkfzm\OneDrive - University of Missouri\Desktop\Research\PowerSI\Board 3 - GPG\Board 3 - GPG - simple.spd
! Port1_ic_port::pwr
! Port2_decap_port1_1::pwr
! Port3_decap_port2_1::pwr
!
!Layout Workbench Version: 24.1.0.10141.541387   000
!Computer Host Name: RS29JQCX3
!
!TouchstoneFormatFlag = 1
! GNDNET grd
! NETSLIST 
!
#	Hz	Z	RI	R	1
10000	-0.0916684052794714	-43114.2764499063	-0.093121868560489	-43114.2764928177	-0.0931219839374609	-43114.2764928163
			-0.0931218685604779	-43114.2764928177	-0.091851009989169	-43114.2764362143	-0.092673284004402	-43114.2764728497
			-0.0931219839374581	-43114.2764928163	-0.0926732840044103	-43114.2764728497	-0.0918499408974871	-43114.2764361503
13335.2143216332	0.296568791947879	-32331.3867181951	0.295276644718268	-32331.3865973964	0.295277884690825	-32331.3866014327
			0.295276644718276	-32331.3865973964	0.296708171080656	-32331.3863425054	0.29588684632596	-32331.3863950637
			0.295277884690825	-32331.3866014327	0.295886846325955	-32331.3863950637	0.296711938161448	-32331.3863504988
17782.7941003892	0.0847661786169684	-24244.9892557185	0.0833542818214961	-24244.9892743026	0.0833546907365312	-24244.9892756565
			0.0833542818214988	-24244.9892743025	0.0846669011316886	-24244.989115261	0.0838447709190115	-24244.9891816365
			0.0833546907365285	-24244.9892756565	0.0838447709190115	-24244.9891816365	0.0846690122987298	-24244.9891178613
23713.7370566166	0.0103240112083763	-18181.1414551317	0.00886968767913887	-18181.1415567877	0.00886957240339159	-18181.1415567848
			0.0088696876791694	-18181.1415567877	0.0101410707383648	-18181.1414225758	0.00931828606791363	-18181.1415094384
			0.00886957240338881	-18181.1415567848	0.00931828606788032	-18181.1415094384	0.010142138006014	-18181.1414224247
31622.7766016838	-0.00558820298995066	-13633.9283211504	-0.00704986407570884	-13633.9284713265	-0.00705020467438033	-13633.9284709113
			-0.00704986407572827	-13633.9284713265	-0.00578414146726602	-13633.9283076711	-0.00660756330588819	-13633.9284231194
			-0.00705020467439421	-13633.9284709113	-0.00660756330588541	-13633.9284231194	-0.00578352370750046	-13633.9283066455
42169.6503428582	-0.00328763153601419	-10224.0057910104	-0.004747094375393	-10224.0059799627	-0.00474739674615199	-10224.0059796817
			-0.0047470943753819	-10224.0059799627	-0.00347682533519411	-10224.0057506817	-0.00430107571469385	-10224.0059048386
			-0.00474739674614921	-10224.0059796817	-0.0043010757146994	-10224.0059048386	-0.00347613475449038	-10224.0057498589
56234.1325190349	0.000601170268441087	-7666.92375717052	-0.000857512905103053	-7666.92399711661	-0.000857627515632453	-7666.92399710982
			-0.000857512905108604	-7666.92399711662	0.000416807403899599	-7666.92367903235	-0.000408836384471756	-7666.9238848302
			-0.00085762751564078	-7666.92399710983	-0.000408836384466205	-7666.9238848302	0.00041786486051909	-7666.92367867113
74989.4209332456	0.00177191968578072	-5749.38136732712	0.000311418589621359	-5749.3816855386	0.000311426974622386	-5749.38168562948
			0.000311418589626911	-5749.3816855386	0.00158851590593978	-5749.3812586775	0.000760265216706579	-5749.38153296503
			0.000311426974627937	-5749.38168562948	0.000760265216709355	-5749.38153296503	0.00158980717172297	-5749.3812583928
100000	0.00105818286492698	-4311.42722263816	-0.000404179748095257	-4311.42765275197	-0.000404291653494093	-4311.42765274141
			-0.000404179748103584	-4311.42765275197	0.000877813700475572	-4311.42708799375	4.4750543895522e-05	-4311.42745310387
			-0.000404291653494093	-4311.42765274141	4.47505439010731e-05	-4311.42745310387	0.00087884887435552	-4311.42708733804
133352.143216332	0.000764890809401564	-3233.11442361769	-0.000700018894617127	-3233.11499958308	-0.000700127983951915	-3233.11499957063
			-0.000700018894628229	-3233.11499958308	0.000590545963324862	-3233.11424776154	-0.000250791171138576	-3233.11473337322
			-0.000700127983957466	-3233.11499957063	-0.0002507911711358	-3233.11473337322	0.000591561426091514	-3233.11424686876
177827.941003892	0.00114533266530326	-2424.49358799369	-0.000324203695278857	-2424.49436127428	-0.000324308586335809	-2424.49436126002
			-0.000324203695287184	-2424.49436127428	0.000981166457866833	-2424.49336165513	0.000125545155166273	-2424.49400631187
			-0.000324308586344135	-2424.49436126002	0.000125545155160722	-2424.49400631187	0.000982159771578672	-2424.49336042637
237137.370566166	0.00127579781839804	-1818.11331244229	-0.000204921557891979	-1818.11435388723	-0.000205020307150749	-1818.11435387184
			-0.000204921557894755	-1818.11435388723	0.00112549850054267	-1818.11302746747	0.00024574118905607	-1818.11388058994
			-0.000205020307147974	-1818.11435387184	0.000245741189050519	-1818.11388058994	0.00112648583141806	-1818.11302575688
316227.766016838	0.00125573715442084	-1363.39218996866	-0.000238044450215358	-1363.39358229178	-0.000238142902078686	-1363.39358227074
			-0.000238044450223684	-1363.39358229178	0.00109476371364103	-1363.39180326024	0.000215295331104648	-1363.39295274705
			-0.000238142902078686	-1363.39358227074	0.000215295331112975	-1363.39295274705	0.00109580585358204	-1363.39180127799
421696.503428582	0.00126478008346254	-1022.39929470476	-0.00024639740738297	-1022.40114582349	-0.000246495647249212	-1022.40114579518
			-0.000246397407374643	-1022.40114582349	0.00109334404864159	-1022.39876612738	0.000210829161634285	-1022.40030869891
			-0.000246495647232559	-1022.40114579518	0.000210829161639836	-1022.40030869891	0.00109441397185273	-1022.39876372207
562341.325190349	0.0012928718306493	-766.690442613487	-0.000240175669760645	-766.692897426962	-0.000240232161677345	-766.692897333749
			-0.000240175669763421	-766.692897426962	0.00111124310880062	-766.689722500525	0.000220978355117141	-766.691784802977
			-0.00024023216167457	-766.692897333749	0.000220978355122692	-766.691784802977	0.0011124192970835	-766.689719365032
749894.209332456	0.00130139093840465	-574.935686723611	-0.000252671262795934	-574.938940123153	-0.000252769725961333	-574.938940073154
			-0.000252671262793158	-574.938940123153	0.00111977412995123	-574.934712960739	0.000217153971895923	-574.937461702838
			-0.000252769725955782	-574.938940073154	0.000217153971901474	-574.937461702838	0.00112086909699882	-574.934709049696
1000000	0.00131761018841714	-431.139545885438	-0.000260064165003016	-431.143859484205	-0.000260219556830199	-431.143859456363
			-0.000260064164994689	-431.143859484204	0.00113870221494505	-431.138237139168	0.000219759604061509	-431.141895303042
			-0.000260219556821872	-431.143859456363	0.000219759604061509	-431.141895303042	0.00113968586323565	-431.13823208561
1500000	0.00135403026719216	-287.423671414787	-0.00026610613848288	-287.430099340097	-0.000266247530378294	-287.430099257137
			-0.00026610613848288	-287.430099340097	0.00117870264972619	-287.421700720754	0.00022923629830196	-287.427167783414
			-0.00026624753038107	-287.430099257137	0.000229236298296409	-287.427167783414	0.0011797384267459	-287.421693173696
2000000	0.001389827829959	-215.564935005711	-0.000271078157126903	-215.573473779128	-0.000271181179856139	-215.5734736442
			-0.000271078157126903	-215.573473779128	0.0012179251588279	-215.562307260846	0.000238945087374653	-215.569577089428
			-0.000271181179850588	-215.5734736442	0.000238945087374653	-215.569577089428	0.00121906378892644	-215.562297224101
2500000	0.00142483541299976	-172.449060157496	-0.000278099854877922	-172.459706826649	-0.000278190470764939	-172.459706653566
			-0.0002780998548918	-172.459706826649	0.00125615819498992	-172.445777849046	0.000247249883456035	-172.45484656943
			-0.000278190470773265	-172.459706653566	0.000247249883461587	-172.45484656943	0.00125734679253808	-172.445765337701
3000000	0.00146107741330337	-143.704616099898	-0.000286505357899314	-143.717367549541	-0.000286600533008774	-143.717367342662
			-0.000286505357899314	-143.717367549541	0.00129478585473575	-143.700680635169	0.000254921700720834	-143.711545135644
			-0.000286600533008774	-143.717367342662	0.00025492170072916	-143.711545135644	0.00129599352817755	-143.700665647467
3500000	0.00149979500687625	-123.172418545757	-0.000295555585200225	-123.187271432848	-0.000295660540861054	-123.187271192441
			-0.000295555585211327	-123.187271432848	0.0013347588481788	-123.167830699512	0.000262665075898005	-123.180488193784
			-0.000295660540866605	-123.187271192441	0.000262665075900781	-123.180488193784	0.00133597982638067	-123.167813231792
4000000	0.00154144058681083	-107.77287589583	-0.000304895288152918	-107.789826682884	-0.00030500883282103	-107.789826408142
			-0.000304895288144591	-107.789826682884	0.00137648398261248	-107.767636043713	0.000270810458669057	-107.782083902105
			-0.000305008832812703	-107.789826408142	0.000270810458671833	-107.782083902105	0.00137772486435705	-107.76761609554
4500000	0.00158602638058447	-95.7951042234167	-0.000314418586619403	-95.814149218111	-0.000314537215381772	-95.8141489081238
			-0.000314418586616627	-95.814149218111	0.00142003947037339	-95.7892124783362	0.000279446371664882	-95.8054481515202
			-0.000314537215378996	-95.8141489081238	0.000279446371662107	-95.8054481515202	0.0014213102934979	-95.7891900522935
5000000	0.00163335596580216	-86.2125733013213	-0.000324134461379688	-86.2337086896407	-0.000324254637057431	-86.2337083436021
			-0.000324134461376913	-86.2337086896406	0.00146533636992963	-86.2060295967934	0.000288542543352976	-86.2240505788024
			-0.000324254637054655	-86.2337083436021	0.000288542543358528	-86.2240505788024	0.00146664618489445	-86.2060046969573
5500000	0.00168314656521784	-78.372036664628	-0.000334089497924794	-78.3952585390617	-0.000334208722632678	-78.3952581562778
			-0.000334089497919243	-78.3952585390617	0.00151220953105713	-78.3648408082625	0.000298021479502864	-78.3846446187496
			-0.00033420872263823	-78.3952581562778	0.000298021479494537	-78.3846446187496	0.00151356475394382	-78.3648134388401
6000000	0.0017350893532192	-71.837996671883	-0.000344329869236826	-71.8633010573047	-0.000344447066638609	-71.8633006371875
			-0.000344329869228499	-71.8633010573047	0.00156046476156302	-71.8301483817241	0.000307794966894481	-71.8517325587207
			-0.000344447066633058	-71.8633006371875	0.000307794966891706	-71.8517325587207	0.00156186894734178	-71.8301185462238
6500000	0.00178887818909068	-66.3089549381215	-0.000354884863024152	-66.3363378169993	-0.000355000387039506	-66.3363373590955
			-0.000354884863026927	-66.3363378169993	0.00160990224703228	-66.3004538687085	0.000317781142622486	-66.3238159676423
			-0.000355000387045057	-66.3363373590955	0.000317781142616935	-66.3238159676423	0.00161135648448218	-66.3004215696076
7000000	0.0018442228322868	-61.5695554473859	-0.000365761459075742	-61.5990127850024	-0.000365876902846951	-61.5990122890539
			-0.000365761459081293	-61.5990127850023	0.00166032765781532	-61.5604012091253	0.000327911494574229	-61.5855388058985
			-0.000365876902849727	-61.5990122890539	0.000327911494574229	-61.5855388058985	0.00166183117040752	-61.5603664479025
7500000	0.00190085464833734	-57.4618704244522	-0.000376944385141464	-57.4933981941643	-0.000377062276546436	-57.4933976601823
			-0.00037694438514424	-57.4933981941643	0.00171155706944759	-57.4520625980997	0.000338132858276885	-57.4789732950246
			-0.00037706227654366	-57.4933976601823	0.000338132858282436	-57.4789732950246	0.00171310783407819	-57.452025375496
8000000	0.00195852872511282	-53.8674540070163	-0.000388398771014598	-53.9010482152173	-0.000388522196709262	-53.9010476435448
			-0.000388398771014598	-53.9010482152173	0.00176341894757015	-53.8569921541555	0.000348407067940482	-53.8856735880506
			-0.000388522196709262	-53.9010476435448	0.000348407067940482	-53.8856735880506	0.00176501426417675	-53.8569524705599
8500000	0.00201702431509299	-50.6957299173172	-0.00040007389428276	-50.7313866275823	-0.000400206066339392	-50.7313860189175
			-0.00040007389428276	-50.7313866275823	0.00181575492588237	-50.6846135873263	0.000358709647180211	-50.7150634393121
			-0.000400206066339392	-50.7313860189175	0.000358709647180211	-50.7150634393121	0.00181739194008157	-50.684571443204
9000000	0.00207614456447791	-47.876249910652	-0.000411907176400828	-47.9139652665063	-0.000412050948198073	-47.913964621848
			-0.000411907176400828	-47.9139652665063	0.00186842028489509	-47.8644786445654	0.000369028253852099	-47.896694651185
			-0.000412050948206399	-47.9139646218479	0.000369028253849324	-47.896694651185	0.00187009649358638	-47.864434040875
9500000	0.00213571609780361	-45.3533969246453	-0.00042382787223405	-45.3931671704413	-0.000423985202133159	-45.3931664909139
			-0.00042382787223405	-45.3931671704412	0.00192128458890162	-45.3409702563866	0.00037936127685323	-45.3749502216628
			-0.000423985202130384	-45.3931664909139	0.000379361276856005	-45.3749502216628	0.00192299838281951	-45.3409231949384
10000000	0.00219558886487836	-43.0826772835745	-0.000435760012404418	-43.1244987830647	-0.000435931383113708	-43.1244980695658
			-0.000435760012401643	-43.1244987830647	0.00197423266483643	-43.0695947391394	0.00038971682715383	-43.1053365471261
			-0.000435931383110932	-43.1244980695658	0.000389716827159381	-43.1053365471261	0.00197598395882403	-43.069545222858
11000000	0.00231575878854862	-39.1601120065059	-0.00045933766275319	-39.2060256594315	-0.000459529512641943	-39.2060248764719
			-0.000459337662750414	-39.2060256594315	0.0020800038286195	-39.1457162441357	0.00041057481830753	-39.1849757718997
			-0.000459529512641943	-39.2060248764719	0.00041057481830753	-39.1849757718997	0.00208184009268808	-39.1456618319674
12000000	0.0024359724640044	-35.8908042654153	-0.000481951728698027	-35.9407973064291	-0.000482131527529406	-35.9407964330531
			-0.000481951728703578	-35.9407973064291	0.00218516873882191	-35.8750932286455	0.000431865421127164	-35.917863269494
			-0.000482131527532181	-35.9407964330531	0.000431865421124389	-35.9178632694939	0.00218713258517411	-35.8750339466868
13000000	0.00255611156308455	-33.1240036195158	-0.000502747276034943	-33.1780646224394	-0.000502836841681509	-33.1780635842049
			-0.000502747276034943	-33.1780646224394	0.0022894556999109	-33.1069751147797	0.000454047431930338	-33.1532494531957
			-0.000502836841675958	-33.1780635842049	0.000454047431930338	-33.1532494531957	0.00229165688925004	-33.1069109996883
14000000	0.00267685472732093	-30.7520301126552	-0.00052054629585685	-30.8101489171193	-0.000520330732903251	-30.8101475124893
			-0.000520546295859625	-30.8101489171193	0.00239268603459686	-30.7336819951024	0.000477624708020152	-30.7834553109792
			-0.000520330732906027	-30.8101475124893	0.000477624708020152	-30.7834553109792	0.00239540263426707	-30.7336131422347
15000000	0.00279993560695774	-28.6959170797697	-0.000534293358793458	-28.7580835586057	-0.000532740570362289	-28.758081403374
			-0.000534293358789295	-28.7580835586057	0.00249388456658034	-28.6762474347813	0.000501478309956893	-28.729515622374
			-0.000532740570356738	-28.758081403374	0.000501478309958281	-28.7295156223739	0.00249791096125079	-28.6761745668199
16000000	0.00292151841521787	-26.8964487889517	-0.000550161922382997	-26.9626475892332	-0.000543416095240279	-26.9626506274903
			-0.00055016192238716	-26.9626475892332	0.0025827216335636	-26.8754583282919	0.000518995449988457	-26.9322257548291
			-0.000543416095244442	-26.9626506274903	0.000518995449988457	-26.9322257548291	0.00258465911455175	-26.8753873311397
17000000	0.00299679609380848	-25.3083480935277	-0.000574605326834898	-25.3785829366496	-0.000579270152373246	-25.378583212673
			-0.000574605326836286	-25.3785829366496	0.00265609522093896	-25.2860363490427	0.000525459073660861	-25.3462762441727
			-0.000579270152373246	-25.378583212673	0.000525459073662249	-25.3462762441727	0.00265546188886606	-25.2859498223139
18000000	0.00308970637917794	-23.8963437358617	-0.000602791122072954	-23.9706122896922	-0.000603904396079269	-23.9706106708676
			-0.000602791122072954	-23.9706122896922	0.00274195011868289	-23.8727114591167	0.0005424141326274	-23.9364292523458
			-0.000603904396082044	-23.9706106708676	0.000542414132623237	-23.9364292523458	0.00274434856738504	-23.8726222574797
19000000	0.00318716895659904	-22.6326632089373	-0.000623598092212851	-22.7109548756962	-0.00062401256361172	-22.7109533612964
			-0.000623598092214239	-22.7109548756962	0.00282832312031023	-22.6077083769499	0.000560096951103539	-22.6749020920915
			-0.00062401256361172	-22.7109533612964	0.000560096951103539	-22.6749020920915	0.00283092626704728	-22.6076149649427
20000000	0.00328246440290669	-21.4950538540143	-0.000642579366590124	-21.5773637710088	-0.000642823016122618	-21.5773622499394
			-0.000642579366592899	-21.5773637710088	0.00291180396410351	-21.4687752283822	0.000576963448155332	-21.5394427785575
			-0.000642823016124006	-21.5773622499394	0.00057696344815672	-21.5394427785575	0.00291449136020361	-21.4686771422529
22000000	0.00346445063413442	-19.5292785256082	-0.000677809894519821	-19.6196146320336	-0.000678011357622965	-19.6196129632299
			-0.000677809894519821	-19.6196146320336	0.00307064087225473	-19.5003502241088	0.000608947020705464	-19.577959675425
			-0.000678011357622965	-19.6196129632299	0.000608947020702688	-19.577959675425	0.00307348458547102	-19.5002425219829
24000000	0.00363511793150528	-17.8901362582237	-0.000710575459657303	-17.9884883389816	-0.000710807670434299	-17.9884864940075
			-0.000710575459658691	-17.9884883389816	0.00321966744562252	-17.8585564912101	0.000638978368927567	-17.9431012361225
			-0.000710807670435687	-17.9884864940075	0.000638978368930343	-17.9431012361225	0.00322265580623288	-17.8584391232678
26000000	0.00379559720106726	-16.5022494557514	-0.000741432607079262	-16.6086103613687	-0.000741695833439415	-16.6086083432451
			-0.00074143260708065	-16.6086103613687	0.00336006220178209	-16.4680170047005	0.000667324233301347	-16.5594917767701
			-0.000741695833440803	-16.6086083432451	0.000667324233302735	-16.5594917767701	0.00336318462948459	-16.4678899806372
28000000	0.00394722439491929	-15.3117771879967	-0.000770678301378891	-15.4261420464713	-0.000770963940845137	-15.4261398581123
			-0.000770678301374728	-15.4261420464713	0.00349297487164946	-15.2748911608778	0.000694231862627404	-15.3732918189867
			-0.000770963940842362	-15.4261398581123	0.000694231862627404	-15.3732918189867	0.00349622379569453	-15.2747544931675
30000000	0.00409126534043763	-14.2792361645252	-0.000798538164681339	-14.4016017902688	-0.000798839648943894	-14.4015994326183
			-0.000798538164678564	-14.4016017902688	0.00361946016856907	-14.2396958762011	0.000719920502809113	-14.3450191351574
			-0.000798839648942506	-14.4015994326183	0.000719920502809113	-14.3450191351574	0.00362282952907078	-14.2395495735934
32000000	0.00422883336217844	-13.3750139604652	-0.000825206944034262	-13.5053784130907	-0.000825520587163786	-13.5053758861534
			-0.000825206944032875	-13.5053784130907	0.00374044053293304	-13.3328188583964	0.000744573935369808	-13.4450620554532
			-0.000825520587163786	-13.5053758861534	0.000744573935372583	-13.4450620554532	0.00374392507140053	-13.3326629266233
34000000	0.0043608726684824	-12.5764658164359	-0.000850854697539288	-12.7148280825987	-0.000851178719097484	-12.7148253860648
			-0.000850854697539982	-12.7148280825987	0.00385669888912088	-12.5316154316533	0.000768343959462597	-12.6507763477964
			-0.00085117871909679	-12.7148253860648	0.000768343959462597	-12.6507763477964	0.00386029397278984	-12.5314498747027
36000000	0.0044881680554644	-11.865979168099	-0.000875627051512284	-12.0123389385816	-0.000875960649610735	-12.0123360720579
			-0.000875627051512284	-12.0123389385816	0.00396888766786493	-11.8184730825297	0.000791356199131288	-11.9445498143741
			-0.000875960649610735	-12.0123360720579	0.000791356199131982	-11.9445498143741	0.00397258924224458	-11.8182979035014
38000000	0.00461136449586216	-11.2296493747492	-0.00089964611181409	-11.3840068917891	-0.000899988892330561	-11.384003854865
			-0.000899646111814784	-11.3840068917891	0.00407754479404485	-11.1794871995345	0.00081371502546751	-11.3124780711745
