!Generated from: C:\Users\nkfzm\OneDrive - University of Missouri\Desktop\Research\PowerSI\Board 6 - GGPG\b6.spd
! Port1_ic_port_1::pwr
! Port2_decap_port_1::pwr
!
!Layout Workbench Version: 24.1.0.10141.541387   000
!Computer Host Name: RS29JQCX3
!
!TouchstoneFormatFlag = 1
! GNDNET gnd
! NETSLIST 
!
#	Hz	Z	RI	R	1
10000	-0.0273087840694936	-103351.787130715	-0.0285986507413821	-103351.787177705	-0.0285986507413766	-103351.787177705	-0.0273236151868389	-103351.787129918
13335.2143216332	0.291955692470849	-77502.9202847436	0.290665774333287	-77502.9203475225	0.290665774333282	-77502.9203475225	0.2919408964623	-77502.92028389
17782.7941003892	0.135154728456094	-58118.9590691038	0.133864738200223	-58118.9591527083	0.133864738200221	-58118.9591527083	0.135139883298982	-58118.9590677653
23713.7370566166	0.0569869506153342	-43583.0549392995	0.0556968408687353	-43583.055050726	0.0556968408687325	-43583.055050726	0.0569720623922854	-43583.0549374126
31622.7766016838	0.0203522041397619	-32682.6736159585	0.0190618764362049	-32682.6737645222	0.0190618764361911	-32682.6737645222	0.0203372614766162	-32682.6736134103
42169.6503428582	0.00501610081728998	-24508.5457426771	0.00372536873524121	-24508.5459407846	0.00372536873525231	-24508.5459407846	0.00500106532383693	-24508.5457392927
56234.1325190349	6.986865479508e-05	-18378.8172009156	-0.00122160401016258	-18378.8174650892	-0.0012216040101487	-18378.8174650892	5.46592074268659e-05	-18378.8171964378
74989.4209332456	-0.000262861732747144	-13782.1704597997	-0.00155566037700061	-13782.1708120311	-0.00155566037700894	-13782.1708120311	-0.000278391923999588	-13782.1704538577
100000	0.00105417246437089	-10335.1719368513	-0.000240937622514314	-10335.1724063845	-0.00024093762251709	-10335.1724063845	0.00103808058008747	-10335.1719289158
133352.143216332	0.00258929393753826	-7750.28722284408	0.00129027715037033	-7750.28784851597	0.00129027715037033	-7750.28784851597	0.0025722794876698	-7750.28721216933
177827.941003892	0.00370641052323262	-5811.89601417085	0.00240103158934135	-5811.89684748873	0.00240103158932192	-5811.89684748873	0.00368798905371059	-5811.89599973974
237137.370566166	0.00402936243324992	-4358.30600821544	0.00271410169341846	-4358.30711745243	0.00271410169342123	-4358.30711745243	0.00400897823572555	-4358.30598874755
316227.766016838	0.00293490414160769	-3268.26574043643	0.0016053283679679	-3268.26721623143	0.0016053283679679	-3268.26721623143	0.00291215072938666	-3268.26571462886
421696.503428582	0.00087786966165293	-2450.85185984527	-0.000469565240743264	-2450.85382252725	-0.000469565240748815	-2450.85382252725	0.000853902939976225	-2450.85182674927
562341.325190349	0.00296901439607866	-1837.87710647985	0.00160248185400169	-1837.87970969596	0.00160248185399892	-1837.87970969596	0.00294617275337916	-1837.87706033206
749894.209332456	0.00198967783451576	-1378.20880264537	0.000595075499193465	-1378.21225038663	0.000595075499201791	-1378.21225038663	0.00196597458971548	-1378.20874065046
1000000	0.00218750383460531	-1033.50683821388	0.000757122399358545	-1033.5114067473	0.000757122399352994	-1033.5114067473	0.00216398052529099	-1033.50675561615
1500000	0.00302503112892538	-688.996244792488	0.00153119138662505	-689.003041573425	0.0015311913866195	-689.003041573425	0.00300180792690008	-688.996121337378
2000000	0.00328574872915377	-516.73824321572	0.00173383560030382	-516.747257415041	0.00173383560029272	-516.747257415041	0.00326248942711382	-516.73807878513
2500000	0.00339800287035841	-413.381409679912	0.00178957911715905	-413.392634024202	0.00178957911715627	-413.392634024202	0.00337446652099449	-413.381204150918
3000000	0.00349096978047858	-344.475173531249	0.00182589453362192	-344.488602392412	0.00182589453361637	-344.488602392412	0.00346702992408965	-344.474926840372
3500000	0.00359060239653319	-295.254995515222	0.00186795076552448	-295.270624076073	0.00186795076552448	-295.270624076073	0.0035661822473082	-295.254707620837
4000000	0.00369944976493508	-258.3386062878	0.00191793876316015	-258.356430148934	0.0019179387631546	-258.356430148934	0.00367448789950209	-258.338277150538
4500000	0.00381570235409856	-229.624745598078	0.00197391137448655	-229.644760578236	0.00197391137449487	-229.644760578236	0.00379014053252247	-229.62437517266
5000000	0.00393739636199986	-206.652657430832	0.00203389411526644	-206.674859462157	0.00203389411526089	-206.674859462157	0.00391117725731527	-206.652245663227
5500000	0.00406312451131097	-187.856406106479	0.00209654879560761	-187.880791181328	0.00209654879559928	-187.880791181328	0.00403619304604474	-187.855952933724
6000000	0.00419197939018068	-172.192034431293	0.00216109002943721	-172.218598579527	0.00216109002943998	-172.218598579527	0.00416428486263443	-172.191539782753
6500000	0.00432338245860975	-158.936802742846	0.00222709671934551	-158.965542028071	0.00222709671936494	-158.965542028071	0.00429488028776959	-158.936266542177
7000000	0.00445694150429943	-147.574468374458	0.00229435646802445	-147.605378902205	0.00229435646802723	-147.605378902205	0.0044275941953914	-147.573890541783
7500000	0.00459235501389654	-137.726453331081	0.00236275929509366	-137.75953126409	0.00236275929508811	-137.75953126409	0.00456213232442049	-137.725833785012
8000000	0.00472935512709771	-129.108824080481	0.00243223149941629	-129.144065657578	0.00243223149940519	-129.144065657578	0.00469823359341703	-129.108162739753
8500000	0.00486767793782816	-121.504454941863	0.00250269816184923	-121.541856497759	0.00250269816186033	-121.541856497759	0.00483563999206515	-121.503751726474
9000000	0.00500705205626895	-114.744470341269	0.00257406512580993	-114.784028325347	0.00257406512580716	-114.784028325347	0.00497408496324681	-114.743725173121
9500000	0.0051471989308105	-108.695547405919	0.00264621386758535	-108.737258398724	0.00264621386759367	-108.737258398724	0.0051132937308046	-108.694760209025
10000000	0.00528784065476073	-103.251027780654	0.00271900476278841	-103.294888507457	0.00271900476278841	-103.294888507457	0.00525299123463052	-103.250198481034
11000000	0.00556958312409872	-93.8455268898801	0.00286590707320733	-93.8936778903623	0.00286590707321843	-93.8936778903622	0.00553283473667676	-93.8446131694757
12000000	0.00585071724938935	-86.0059871248167	0.0030137056101498	-86.0584172763411	0.0030137056101498	-86.0584172763411	0.00581206363715336	-86.0049887054206
13000000	0.00613164486795159	-79.3710364538568	0.00316248582624412	-79.4277362455608	0.00316248582625245	-79.4277362455609	0.00609108274668702	-79.3699530751246
14000000	0.00642004263020357	-73.6825487725289	0.00331809931096994	-73.7435115334351	0.00331809931097826	-73.7435115334351	0.00637759595135678	-73.6813802509966
15000000	0.00668491990825359	-68.7512342474315	0.00345773253922488	-68.8164488983475	0.00345773253921378	-68.8164488983475	0.00664068562086784	-68.7499801890491
16000000	0.00688643844721226	-64.4351221999968	0.00357647801078054	-64.504582723013	0.00357647801077776	-64.504582723013	0.00684040077186254	-64.4337823397158
17000000	0.00713567358342215	-60.625651471015	0.00370793713269923	-60.6993502578008	0.00370793713269646	-60.6993502578008	0.00708797460214072	-60.6242255536326
18000000	0.00737681285511993	-57.2383806902481	0.00383511380803725	-57.3163121861355	0.00383511380804002	-57.3163121861355	0.00732752024953376	-57.2368684641039
19000000	0.00760937925385619	-54.2066471282013	0.00395792115626126	-54.28880695954	0.00395792115626403	-54.28880695954	0.00755854999882066	-54.2050483366019
20000000	0.00783403954157935	-51.4771199951566	0.00407652903314237	-51.5635040937619	0.0040765290331396	-51.5635040937619	0.00778173882894639	-51.4754343890102
22000000	0.00826162114859752	-46.7598446373301	0.00430189840633921	-46.8546665233669	0.00430189840633644	-46.8546665233669	0.00820658020681542	-46.7579846650099
24000000	0.00866310660222469	-42.8255572835005	0.00451299876987055	-42.9288049789791	0.00451299876987332	-42.9288049789791	0.0086055822841713	-42.8235219578869
26000000	0.00904171165880541	-39.4935672955293	0.00471173653724122	-39.605231260373	0.00471173653724122	-39.605231260373	0.00898193251747115	-39.4913556022726
28000000	0.00940037749657674	-36.6348098194202	0.00489987026830174	-36.7548824744463	0.00489987026829619	-36.7548824744463	0.00933854251223831	-36.632420698177
30000000	0.00974174377642301	-34.1546372499963	0.00507892046753555	-34.2831125342846	0.00507892046753555	-34.2831125342846	0.00967802657873273	-34.1520695820813
32000000	0.0100681435071998	-31.9820638759832	0.00525017016394236	-32.1189368555132	0.00525017016393958	-32.1189368555132	0.0100026978440221	-31.9793164769919
34000000	0.0103816135248957	-30.0628065179675	0.00541469847801512	-30.2080730522562	0.00541469847801512	-30.2080730522562	0.0103145782020725	-30.059878133667
36000000	0.0106839115999069	-28.354644942544	0.00557341989093352	-28.5083014138321	0.00557341989093074	-28.5083014138321	0.01061541432133	-28.3515342466117
38000000	0.0109765360840064	-26.8242473995638	0.0057271175004453	-26.9862905063727	0.0057271175004453	-26.9862905063727	0.010906696192331	-26.8209529921718
40000000	0.0112607467763565	-25.4449484904235	0.00587646618793458	-25.6153751040851	0.00587646618793458	-25.6153751040851	0.0111896771271686	-25.4414688970344
42000000	0.011537586696371	-24.1951619248491	0.00602204524624839	-24.3739690046285	0.00602204524624839	-24.3739690046285	0.0114653949598975	-24.1914955948641
44000000	0.0118079046504307	-23.0572261574423	0.00616434162385993	-23.2444107175547	0.00616434162385715	-23.2444107175547	0.0117346943175209	-23.0533714625289
46000000	0.0120723784130722	-22.0165511592208	0.00630374553758639	-22.2121102794987	0.00630374553758639	-22.2121102794987	0.0119982497342505	-22.0125063912662
48000000	0.0123315382441327	-21.0609784942726	0.00644054030804614	-21.2649093654196	0.00644054030804336	-21.2649093654196	0.0122565892766144	-21.0567418629758
50000000	0.0125857904336682	-20.1802949772169	0.00657488824511998	-20.3925949715483	0.00657488824512414	-20.3925949715483	0.0125101183314907	-20.1758646074009
52000000	0.0128355165967042	-19.3658586503665	0.00670702633861625	-19.5865251429623	0.00670702633861764	-19.5865251429623	0.0127592157409886	-19.3612325812707
54000000	0.0130810829223296	-18.6103078098642	0.00683715116785583	-18.839338234641	0.00683715116785721	-18.839338234641	0.0130042510456757	-18.6054840000712
56000000	0.013322748688753	-17.9073323257819	0.00696539973968346	-18.1447241716561	0.0069653997396793	-18.1447241716561	0.0132454823734474	-17.9023086467923
58000000	0.0135607404994895	-17.2514923648043	0.00709189236885038	-17.4972431736146	0.00709189236885038	-17.4972431736146	0.0134831360608531	-17.2462665997386
60000000	0.0137952586049539	-16.6380733410769	0.00721673565357434	-16.8921807053192	0.00721673565357572	-16.8921807053192	0.0137174127167183	-16.6326431834282
62000000	0.0140264818713015	-16.062968941225	0.00734002493203573	-16.3254305015534	0.00734002493203434	-16.3254305015534	0.0139484919925562	-16.0573319935812
64000000	0.0142545716936629	-15.5225860822614	0.00746184629725755	-15.7933995247725	0.00746184629725893	-15.7933995247725	0.0141765363524268	-15.5167398549536
66000000	0.014479675084958	-15.0137671499133	0.00758227823826896	-15.2929302032543	0.00758227823826896	-15.2929302032543	0.0144016940640618	-15.0077090595665
68000000	0.0147019271194523	-14.533725959606	0.00770139296769057	-14.821236391954	0.00770139296769057	-14.821236391954	0.0146241015799548	-14.5274533275841
70000000	0.0149214528696748	-14.0799946955503	0.00781925748882251	-14.3758503115098	0.0078192574888232	-14.3758503115098	0.0148438854381004	-14.0735047462949
72000000	0.0151383689452479	-13.6503796932906	0.00793593444837967	-13.9545783307437	0.00793593444838175	-13.9545783307437	0.0150611637822415	-13.6436695525563
74000000	0.0153527847176205	-13.2429243926141	0.00805148281457155	-13.5554639195559	0.00805148281457085	-13.5554639195559	0.0152760475800096	-13.2359910856042
76000000	0.0155648032971543	-12.8558781399582	0.00816595841427042	-13.1767564513391	0.00816595841427181	-13.1767564513391	0.0154886416005841	-12.8487185893662
78000000	0.0157745223144545	-12.4876697904026	0.00827941435743648	-12.8168848049944	0.00827941435743718	-12.8168848049944	0.0156990452006456	-12.480280814361
80000000	0.0159820345472926	-12.1368852693137	0.00839190137225179	-12.4744349266126	0.0083919013722511	-12.4744349266126	0.0159073529576288	-12.1292635792539
82000000	0.0161874284256257	-11.802248417602	0.00850346807007227	-12.1481306747766	0.00850346807007296	-12.1481306747766	0.0161136551817369	-11.7943906160245
84000000	0.0163907884406865	-11.4826045733228	0.00861416115571778	-11.8368174022135	0.00861416115571778	-11.8368174022135	0.0163180383316065	-11.4745071514783
86000000	0.0165921954788283	-11.1769064441681	0.0087240255955523	-11.5394478283421	0.0087240255955523	-11.5394478283421	0.0165205853542169	-11.1685657796479
88000000	0.0167917270964782	-10.8842019063907	0.00883310475330024	-11.2550698382544	0.00883310475330024	-11.2550698382544	0.0167213759650182	-10.8756142606237
90000000	0.0169894577492134	-10.6036234304938	0.0089414405013484	-10.9828159084639	0.00894144050134701	-10.9828159084639	0.01692048688147	-10.5947849461477
92000000	0.0171854589852201	-10.334378886136	0.00904907331369317	-10.7218939118692	0.00904907331369317	-10.7218939118692	0.0171179920204115	-10.3252855844188
94000000	0.0173797996115298	-10.0757435208375	0.00915604234520348	-10.4715790965186	0.00915604234520348	-10.4715790965186	0.0173139626675749	-10.0663912986962
96000000	0.0175725458389467	-9.82705294131108	0.00926238550084876	-10.2312070669959	0.00926238550084807	-10.2312070669959	0.0175084676257202	-9.81743756852187
98000000	0.0177637614111326	-9.58769695418485	0.00936813949759391	-10.0001676251981	0.00936813949759391	-10.0001676251981	0.0177015733465402	-9.5778140703323
100000000	0.0179535077213459	-9.35711414580607	0.00947333992105462	-9.77789935018862	0.00947333992105392	-9.77789935018862	0.0178933440503529	-9.3469592571447
102000000	0.0181418439199398	-9.13478709968313	0.00957802127837006	-9.5638848156869	0.00957802127837006	-9.5638848156869	0.018083841836565	-9.12435557587747
104000000	0.0183288270147235	-8.92023816573199	0.00968221704843314	-9.35764635935746	0.00968221704843245	-9.35764635935746	0.018273126787309	-8.90952523646968
106000000	0.0185145119659672	-8.71302570844841	0.00978595973022585	-9.15874233102058	0.00978595973022585	-9.15874233102058	0.018461257065782	-8.70202645992094
108000000	0.0186989517771581	-8.51274077192425	0.00988928088979345	-8.96676375770214	0.00988928088979379	-8.96676375770214	0.0186482890108784	-8.50145014316972
110000000	0.0188821975823674	-8.31900410865583	0.00999221120621951	-8.7813313724704	0.00999221120621986	-8.7813313724704	0.0188342772285553	-8.30741688775799
112000000	0.0190642987309576	-8.1314635266715	0.010094780516819	-8.60209296158662	0.0100947805168183	-8.60209296158662	0.0190192746810598	-8.1195743468089
114000000	0.0192453028697019	-7.94979151588721	0.0101970178616694	-8.42872099087803	0.0101970178616694	-8.42872099087803	0.0192033327739535	-7.93759485122617
116000000	0.0194252560230673	-7.7736831199909	0.0102989515275421	-8.26091047763399	0.0102989515275417	-8.260910477634	0.0193865014415984	-7.76117328141561
118000000	0.0196042026712483	-7.60285402472565	0.0104006090912392	-8.09837707889499	0.0104006090912396	-8.09837707889499	0.0195688292308829	-7.59002515539853
120000000	0.019782185826377	-7.4370388373255	0.0105020174623299	-7.94085537088834	0.0105020174623299	-7.94085537088834	0.0197503633835194	-7.42388490807037
122000000	0.0199592471068221	-7.27598953516864	0.0106032029252346	-7.78809729767537	0.0106032029252346	-7.78809729767537	0.0199311499168769	-7.2625043396692
124000000	0.0201354268095078	-7.11947406454301	0.0107041911806539	-7.63987076990482	0.0107041911806539	-7.63987076990482	0.0201112337031607	-7.10565121434838
126000000	0.020310763980182	-6.96727507284506	0.0108050073862397	-7.4959583969935	0.0108050073862394	-7.4959583969935	0.0202906585471712	-6.95310799217416
128000000	0.0204852964818075	-6.81918875961763	0.0109056761965435	-7.35615633813987	0.0109056761965431	-7.35615633813987	0.0204694672623608	-6.80467067995312
130000000	0.0206590610607044	-6.67502383362852	0.0110062218021508	-7.22027325937219	0.0110062218021501	-7.22027325937219	0.0206477017453938	-6.66014778809121
132000000	0.0208320934106138	-6.5346005647429	0.0111066679680211	-7.08812938538458	0.0111066679680211	-7.08812938538458	0.020825403048912	-6.51935938223644
134000000	0.0210044282347315	-6.39774992068549	0.0112070380709893	-6.95955563625648	0.01120703807099	-6.95955563625648	0.0210026114527324	-6.38213621980104
136000000	0.0211760993053783	-6.26431277995332	0.0113073551364577	-6.83439284031674	0.0113073551364577	-6.83439284031674	0.0211793665334623	-6.24831896262306
138000000	0.021347139521671	-6.13413921315339	0.0114076418742648	-6.71249101542627	0.0114076418742646	-6.71249101542627	0.0213557072323208	-6.11775745804114
140000000	0.0215175809649755	-6.00708782592214	0.0115079207137526	-6.59370871183639	0.0115079207137528	-6.59370871183639	0.0215316719215734	-5.9903100815389
142000000	0.021687454952176	-5.88302515735463	0.0116082138380873	-6.47791241055048	0.0116082138380869	-6.47791241055048	0.0217072984693079	-5.86584313488591
144000000	0.0218567920870437	-5.76182512854633	0.0117085432178114	-6.36497597179185	0.0117085432178112	-6.36497597179185	0.0218826243028856	-5.7442302943774
146000000	0.0220256223093528	-5.64336853644109	0.0118089306437519	-6.25478012877141	0.0118089306437521	-6.25478012877141	0.0220576864709396	-5.62535210436584
148000000	0.0221939749422147	-5.52754258869923	0.0119093977592676	-6.14721202246861	0.0119093977592676	-6.14721202246861	0.0222325217042456	-5.50909551179693
150000000	0.0223618787373567	-5.41424047575612	0.0120099660919439	-6.04216477359632	0.0120099660919439	-6.04216477359632	0.022407166475381	-5.39535343792001
152000000	0.0225293619187524	-5.30336097664523	0.0121106570847709	-5.93953708832295	0.0121106570847705	-5.93953708832295	0.0225816570575143	-5.2840243837455
154000000	0.022696452224415	-5.19480809551496	0.0122114921269033	-5.8392328946814	0.0122114921269028	-5.8392328946814	0.0227560295822431	-5.17501206617794
156000000	0.0228631769466515	-5.08849072608403	0.0123124925840551	-5.74116100690899	0.0123124925840551	-5.74116100690899	0.0229303200969025	-5.06822508206812
158000000	0.0230295629707037	-4.98432234155862	0.0124136798286443	-5.64523481524145	0.0124136798286443	-5.64523481524145	0.0231045646211818	-4.96357659770653
160000000	0.0231956368120767	-4.88222070778245	0.0125150752697324	-5.55137199893188	0.0125150752697326	-5.55137199893188	0.0232787992036482	-4.86098406152784
162000000	0.0233614246524936	-4.78210761761079	0.0126167003829072	-5.4594942604853	0.0126167003829074	-5.4594942604853	0.0234530599779315	-4.76036893801628
164000000	0.0235269523747049	-4.68390864469553	0.0127185767401479	-5.36952707929543	0.0127185767401479	-5.36952707929543	0.0236273832190426	-4.66165646099753
166000000	0.0236922455962053	-4.58755291504286	0.012820726039816	-5.28139948304505	0.012820726039816	-5.28139948304505	0.0238018053999815	-4.56477540467713
168000000	0.023857329701984	-4.49297289486135	0.0129231701368629	-5.19504383538701	0.012923170136863	-5.19504383538701	0.02397636324878	-4.46965787094159
170000000	0.024022229876443	-4.40010419335733	0.0130259310733611	-5.11039563856252	0.013025931073361	-5.11039563856252	0.0241510938062267	-4.37623909157749
172000000	0.0241869711345976	-4.30888537925961	0.0131290311094824	-5.02739334973808	0.0131290311094821	-5.02739334973808	0.0243260344845538	-4.2844572441884
174000000	0.0243515783527274	-4.21925780996726	0.013232492755026	-4.94597820995411	0.013232492755026	-4.94597820995411	0.0245012231272691	-4.19425328070172
176000000	0.0245160762983955	-4.13116547231468	0.0133363388016597	-4.86609408467912	0.0133363388016596	-4.86609408467912	0.02467669807041	-4.10557076745728
