! Created with skrf 1.8.0 (http://scikit-rf.org).
# MHz S RI R 50.0 
!freq ReS11 ImS11 ReS12 ImS12 ReS13 ImS13
! ReS21 ImS21 ReS22 ImS22 ReS23 ImS23
! ReS31 ImS31 ReS32 ImS32 ReS33 ImS33
!
0.01 -0.3332895189836336 -0.00020218704604987438 0.6666446662908944 -0.00020471443148066464 0.6666446663039336 -0.00020476784872070064
 0.6666446662908976 -0.0002047144312326566 -0.3332895196847509 -0.00020261206218857354 0.6666446659547515 -0.0002043428325074629
 0.6666446663039296 -0.00020476784893969395 0.6666446659547437 -0.0002043428322502405 -0.3332895196583334 -0.00020255864475082904
0.01050763915026853 -0.33328952542748264 -0.0002124507363587477 0.6666446598102652 -0.00021510642196863021 0.6666446598246615 -0.00021516255033486635
 0.6666446598102684 -0.000215106421443077 -0.33328952620158814 -0.00021289732796290513 0.6666446594391282 -0.00021471595888205937
 0.6666446598246574 -0.00021516255076090043 0.6666446594391205 -0.00021471595845335263 -0.3332895261724207 -0.00021284119908779206
0.011041048051225594 -0.33328953254202115 -0.0002232352408303847 0.6666446526551166 -0.00022602573928077994 0.6666446526710125 -0.00022608471810393397
 0.6666446526551205 -0.00022602573954177228 -0.3332895333967138 -0.0002237045036306454 0.6666446522453435 -0.00022561545460854916
 0.6666446526710079 -0.00022608471783109856 0.6666446522453348 -0.00022561545486578209 -0.33328953336451 -0.00022364552510033273
0.011601534876305412 -0.33328954039732855 -0.0002345673795357025 0.6666446447549735 -0.00023749953509763483 0.6666446447725238 -0.00023756150696653005
 0.6666446447549773 -0.00023749953479041452 -0.33328954134099664 -0.00023506046361083748 0.6666446443025416 -0.00023706842269495803
 0.6666446447725185 -0.00023756150721475342 0.6666446443025326 -0.00023706842235199536 -0.3332895413054393 -0.00023499849154830953
0.01219047420694725 -0.333289549070813 -0.000246475334830897 0.666644636031981 -0.00024955633768667594 0.666644636051359 -0.00024962145599355173
 0.6666446360319856 -0.00024955633752805044 -0.3332895501127259 -0.00024699344964194004 0.6666446355324476 -0.0002491033407568107
 0.6666446360513528 -0.00024962145602483156 0.6666446355324369 -0.0002491033406710762 -0.3332895500734668 -0.0002469283312527603
0.012809310403725764 -0.3332895586466819 -0.0002589870347438693 0.6666446264014547 -0.00026222444104002587 0.6666446264228494 -0.00026229286522184254
 0.66664462640146 -0.0002622244409951131 -0.3332895597970591 -0.00025953145137624386 0.6666446258499189 -0.00026174844795647927
 0.6666446264228435 -0.0002622928652188979 0.666644625849907 -0.0002617484479564884 -0.3332895597537139 -0.0002594630271778189
0.013459561148613082 -0.333289569219921 -0.0002721344769551109 0.6666446157678648 -0.0002755362272198783 0.6666446157914874 -0.0002756081247732263
 0.6666446157678707 -0.000275536227283015 -0.33328957049006036 -0.0002727065303131589 0.6666446151589103 -0.000275036070565569
 0.6666446157914799 -0.00027560812477703364 0.6666446151588971 -0.00027503607056557957 -0.33328957044220225 -0.0002726346328485612
0.014142821167060008 -0.3332895808935043 -0.0002859488797752042 0.6666446040276498 -0.0002895233155543181 0.666644604053732 -0.0002895988627642032
 0.6666446040276566 -0.00028952331546766954 -0.3332895822958702 -0.0002865499722176184 0.6666446033553015 -0.00028899776949601046
 0.6666446040537242 -0.0002895988628642734 0.6666446033552873 -0.0002889977693245377 -0.33328958224302907 -0.0002864744250266331
0.014860766139024621 -0.33328959378228423 -0.00030046447681524453 0.6666445910653028 -0.00030422036475209264 0.6666445910940992 -0.00030429974750645345
 0.6666445910653098 -0.00030422036500427036 -0.33328959533064006 -0.0003010960832006509 0.6666445903229604 -0.000303668139810317
 0.6666445910940911 -0.00030429974725331495 0.6666445903229449 -0.0003036681400675585 -0.3332895952722989 -0.0003010167007339788
0.015615156808540002 -0.3332896080134126 -0.0003157175504683423 0.6666445767529453 -0.0003196641020156641 0.6666445767847407 -0.00031974751451923294
 0.6666445767529531 -0.0003196641020293803 -0.3332896097229625 -0.00031638121965693833 0.6666445759333206 -0.000319083844088834
 0.6666445767847302 -0.0003197475144561294 0.6666445759333027 -0.00031908384408885096 -0.3332896096585477 -0.0003162978072761301
0.01640784330189971 -0.33328962372568627 -0.00033174452895792745 0.666644560950988 -0.00033589142319788326 0.6666445609860937 -0.0003359790698155781
 0.6666445609509964 -0.00033589142319373255 -0.33328962561320796 -0.0003324418886946719 0.6666445600460367 -0.00033528170865821565
 0.6666445609860825 -0.0003359790697841022 0.6666445600460175 -0.00033528170865823484 -0.3332896255420868 -0.0003323542421576023
0.017240769665051267 -0.3332896410735091 -0.0003485849371409597 0.6666445435041454 -0.0003529423443695124 0.6666445435429053 -0.00035303443992650653
 0.6666445435041554 -0.0003529423442187489 -0.33328964315752885 -0.00034931769761105153 0.6666445425049855 -0.00035230167795423053
 0.6666445435428937 -0.00035303444010593743 0.6666445425049641 -0.0003523016778685104 -0.33328964307900394 -0.00034922560187144124
0.018115978631325472 -0.3332896602279287 -0.0003662807895733087 0.6666445242403969 -0.0003708593954191383 0.6666445242831913 -0.00037095616622973194
 0.6666445242404067 -0.00037085939520030127 -0.3332896625289069 -0.0003670507473375629 0.6666445231372179 -0.00037018620676663837
 0.6666445242831778 -0.0003709561664934396 0.6666445231371942 -0.000370186206509437 -0.3332896624422071 -0.0003669539763733909
0.019035616631194404 -0.3332896813757996 -0.00038487440536301177 0.6666445029718158 -0.00038968543916759153 0.6666445030190656 -0.00038978712260640734
 0.6666445029718274 -0.0003896854391896888 -0.33328968391631886 -0.00038568344917601507 0.6666445017537919 -0.0003889780765465111
 0.666644503019051 -0.0003897871225881353 0.6666445017537657 -0.0003889780765894129 -0.3332896838205935 -0.00038558176581792467
0.020001939056344106 -0.33328970472567115 -0.0004044122494360896 0.6666444794886658 -0.00040946751021922505 0.6666444795408345 -0.00040957435555716087
 0.666644479488679 -0.00040946751012374777 -0.3332897075306731 -0.0004052623634848783 0.666644478143839 -0.00040872423902274237
 0.6666444795408186 -0.00040957435570389397 0.66664447814381 -0.0004087242389370352 -0.33328970742498215 -0.00040515551808703067
0.021017315790972647 -0.33328973050631944 -0.00042494185874773636 0.666644453560866 -0.00043025374385871574 0.6666444536184657 -0.00043036601286305405
 0.6666444535608798 -0.0004302537437672181 -0.3332897336033352 -0.0004258351274644023 0.6666444520760357 -0.000429472741243404
 0.6666444536184477 -0.00043036601301060145 0.666644452076004 -0.0004294727411148307 -0.33328973348664165 -0.0004257228584616539
0.022084237023878118 -0.33328975897084506 -0.0004465136184288025 0.6666444249338683 -0.0004520951552965793 0.6666444249974639 -0.0004522131238599892
 0.6666444249338844 -0.00045209515532539015 -0.3332897623902762 -0.0004474522327043497 0.6666444232944598 -0.0004512745060815719
 0.6666444249974446 -0.00045221312386267806 0.6666444232944244 -0.00045127450608161974 -0.33328976226143486 -0.0004473342642970209
0.02320531935559115 -0.33328979039852147 -0.00046918033843156427 0.6666443933268071 -0.0004750452161082469 0.6666443933970243 -0.00047516917302686747
 0.6666443933268246 -0.0004750452159850249 -0.3332897941739313 -0.00047016660029281616 0.6666443915167292 -0.00047418290725839625
 0.6666443933970028 -0.000475169173167578 0.6666443915166904 -0.00047418290708696595 -0.333289794031675 -0.0004700426434325238
0.024383312215529362 -0.3332898250980679 -0.0004929977770502483 0.6666443584292007 -0.0004991603788373031 0.6666443585067274 -0.0004992906282757
 0.66664435842922 -0.000499160378811286 -0.3332898292665162 -0.0004940341052600393 0.6666443564306843 -0.0004982542954159954
 0.6666443585067034 -0.0004992906283545056 0.6666443564306413 -0.0004982542953731882 -0.3332898291094513 -0.0004939038559346118
0.02562110460491172 -0.33328986340965217 -0.0005180240532571765 0.6666443198989382 -0.0005244994928805467 0.6666443199845367 -0.0005246363543287176
 0.6666443198989593 -0.0005244994927906976 -0.33328986801205357 -0.000519112989134129 0.6666443176923688 -0.0005235474131168209
 0.6666443199845097 -0.0005246363543606418 0.6666443176923209 -0.0005235474130311525 -0.33328986783863723 -0.0005189761278528636
0.02692173218196957 -0.3332899057100686 -0.0005443210207228254 0.6666442773570767 -0.0005511251785178074 0.6666442774515864 -0.0005512689876484214
 0.6666442773571001 -0.0005511251784522034 -0.3332899107916029 -0.0005454652348421714 0.6666442749207921 -0.0005501247673010847
 0.666644277451557 -0.0005512689877088553 0.6666442749207397 -0.0005501247672582992 -0.3332899106001325 -0.0005453214258638292
0.02828838470683077 -0.3332899524139732 -0.0005719528098292175 0.6666442303865933 -0.0005791023731430994 0.666644230490941 -0.0005792534825615706
 0.6666442303866188 -0.000579102373002207 -0.33328995802451794 -0.0005731551083258386 0.66664422769668 -0.0005780511769043089
 0.6666442304909085 -0.0005792534827145962 0.6666442276966218 -0.0005780511767757952 -0.33328995781311577 -0.0005730039990152056
0.029724413864335254 -0.33329000398002806 -0.0006009873238483468 0.6666441785262063 -0.0006084998264147398 0.6666441786414172 -0.0006086586066879031
 0.6666441785262349 -0.0006084998263061184 -0.3332900101746563 -0.0006022506549793803 0.666644175556261 -0.0006073952671945939
 0.6666441786413814 -0.0006086586067387319 0.6666441755561967 -0.0006073952671518391 -0.33329000994124636 -0.0006020918749065241
0.031233341483967378 -0.33329006091464375 -0.0006314958919060204 0.6666441212666159 -0.0006393897584789183 0.6666441213938208 -0.0006395565989064633
 0.6666441212666473 -0.0006393897582439159 -0.3332900677541652 -0.0006328233541337384 0.6666441179874835 -0.0006382291270862005
 0.6666441213937815 -0.0006395565991294104 0.6666441179874127 -0.0006382291268719779 -0.33329006749645596 -0.0006326565138302397
0.03281886817706418 -0.33329012377615397 -0.000663553047073678 0.6666440580463007 -0.0006718476370072568 0.6666440581867485 -0.000672022947164783
 0.6666440580463355 -0.0006718476369306987 -0.33329013132770174 -0.000664947895900846 0.6666440544257953 -0.0006706280870127108
 0.666644058186705 -0.0006720229472134062 0.6666440544257175 -0.0006706280869699953 -0.33329013104316335 -0.0006647725860875271
0.034484882412482154 -0.33329019318161535 -0.0006972374334822276 0.6666439882446821 -0.0007059530886987886 0.666643988399751 -0.0007061372982231199
 0.666643988244721 -0.0007059530885407726 -0.33329020151931266 -0.0006987030893266294 0.6666439842472666 -0.0007046716293092947
 0.6666439883997037 -0.00070613729839252 0.66664398424718 -0.0007046716291379902 -0.3332902012051532 -0.0006985188801411925
0.03623547005298042 -0.33329026981276827 -0.0007326318844178617 0.6666439111761292 -0.0007417899801859514 0.666643911347342 -0.0007419835410468904
 0.666643911176172 -0.0007417899800939385 -0.33329027901846003 -0.0007341719418516692 0.6666439067625637 -0.0007404434683592355
 0.6666439113472893 -0.0007419835411294136 0.6666439067624682 -0.0007404434682737032 -0.3332902786715936 -0.0007339783814760107
0.03807492437570799 -0.33329035442156635 -0.0007698230792706185 0.6666438260843955 -0.0007794460750353709 0.6666438262734321 -0.0007796494619425361
 0.6666438260844422 -0.0007794460750089111 -0.3332903645856149 -0.0007714413149834694 0.6666438212113562 -0.0007780312084525887
 0.666643826273374 -0.0007796494619802225 0.6666438212112513 -0.0007780312084099606 -0.33329036420263836 -0.0007712379287210455
0.04000775660137028 -0.33329044783832407 -0.0008089021456769267 0.6666437321344282 -0.0008190136416590941 0.6666437323431447 -0.000819227353304624
 0.6666437321344796 -0.0008190136415839907 -0.33329045906049515 -0.0008106025280413385 0.666643726754084 -0.0008175269503604661
 0.6666437323430798 -0.0008192273533466262 0.6666437267539679 -0.0008175269502964413 -0.3332904586376489 -0.0008103888171156899
0.04203870695789726 -0.3332905509804154 -0.0008499650934788544 0.6666436284036156 -0.0008605898880411839 0.6666436286340599 -0.0008608144483209591
 0.6666436284036729 -0.0008605898878804154 -0.33329056337086815 -0.0008517517923238649 0.6666436224631516 -0.0008590277256739226
 0.666643628633989 -0.000860814448488022 0.6666436224630233 -0.0008590277255027654 -0.3332905629040021 -0.0008515272327841673
0.04417275630574673 -0.33329066485988246 -0.0008931124689824436 0.6666435138741403 -0.0009042766187484557 0.6666435141285746 -0.0009045125787012875
 0.6666435138742034 -0.0009042766186272126 -0.33329067854023736 -0.0008949898659758075 0.6666435073152469 -0.000902635154028655
 0.6666435141284964 -0.0009045125788124817 0.6666435073151056 -0.0009026351539218565 -0.3332906780247689 -0.0008947539069377075
0.04641513835335354 -0.3332907905945601 -0.0009384500999510225 0.6666433874217859 -0.0009501809847142349 0.6666433877027083 -0.0009504289230247705
 0.6666433874218556 -0.0009501809846095884 -0.33329080569910086 -0.0009404227989690669 0.6666433801800824 -0.0009484561918585245
 0.6666433877026217 -0.0009504289231153511 0.6666433801799263 -0.0009484561917517866 -0.3332908051299697 -0.0009401748617770307
0.0487713524926828 -0.33329092941916727 -0.0009860893568261404 0.6666432478047873 -0.0009984157459630026 0.6666432481149551 -0.0009986762706863013
 0.6666432478048642 -0.0009984157458532085 -0.3332909460961614 -0.0009881621953913167 0.6666432398091887 -0.0009966033948126654
 0.6666432481148593 -0.0009986762708282123 0.6666432398090161 -0.000996603394684563 -0.3332909454677809 -0.000987901671944707
0.051247177286366054 -0.33329108269593494 -0.001036146907067658 0.666643093653136 -0.0010490990306188475 0.6666430939955942 -0.001049372780572585
 0.6666430936532213 -0.0010490990304757157 -0.3332911011090818 -0.0010383249682524123 0.6666430848251592 -0.0010471946761200501
 0.6666430939954885 -0.0010493727807207149 0.6666430848249687 -0.0010471946759705946 -0.33329110041528337 -0.0010380512197814226
0.0538486846394972 -0.33329125192932735 -0.0010887454911271913 0.6666429234537832 -0.0011023551136647553 0.6666429238318918 -0.001102642760239219
 0.666642923453877 -0.0011023551135303903 -0.3332912722593648 -0.0010910341161802885 0.6666429137067736 -0.0011003540849571821
 0.6666429238317757 -0.0011026427603663294 0.6666429137065637 -0.0011003540848292558 -0.3332912714933402 -0.0010907464713570073
0.05658225469084444 -0.3332914387803184 -0.0011440140511921875 0.666642735536272 -0.0011583145494586233 0.6666427359537433 -0.0011586167982442774
 0.6666427355363751 -0.001158314549329481 -0.3332914612268017 -0.00114641885207199 0.6666427247745562 -0.0011562119390644812
 0.6666427359536147 -0.0011586167983804931 0.6666427247743241 -0.0011562119389366666 -0.333291460381029 -0.001146116605335369
0.05945459145999823 -0.33329164508378534 -0.0012020883542273402 0.6666425280552529 -0.001217114799806676 0.6666425285161859 -0.0012174323920393314
 0.6666425280553672 -0.0012171147997070782 -0.33329166986704867 -0.0012046152280241243 0.6666425161731948 -0.001214905450555394
 0.6666425285160437 -0.001217432392126716 0.6666425161729385 -0.001214905450470578 -0.3332916689332274 -0.001204297638226069
0.062472739288829834 -0.3332918728643337 -0.001263110686847931 0.6666422989745652 -0.001278899931194329 0.6666422994834829 -0.0012792336456822788
 0.6666422989746912 -0.0012788999310587457 -0.33329190022764593 -0.001265765829726274 0.6666422858555309 -0.0012765784242965022
 0.6666422994833263 -0.001279233645828749 0.6666422858552483 -0.0012765784241475261 -0.3332918991966096 -0.0012654321180482855
0.06564410011758287 -0.33329212435762806 -0.001327230649377487 0.6666420460457805 -0.0013438214147587031 0.6666420466076791 -0.0013441720699810472
 0.6666420460459199 -0.0013438214145893236 -0.3332921545695831 -0.0013300205719213852 0.6666420315609969 -0.0013413820563685872
 0.6666420466075063 -0.0013441720701546757 0.6666420315606848 -0.0013413820561983477 -0.33329215343121105 -0.0013296699199406474
0.06897645163796594 -0.3332924020321776 -0.0013946054663249968 0.6666417667863034 -0.00141203844056218 0.6666417674066971 -0.0014124068966060066
 0.6666417667864573 -0.0014120384404314418 -0.3332924353893262 -0.0013975370095859689 0.6666417507935907 -0.0014094752476258095
 0.6666417674065055 -0.0014124068967436517 0.6666417507932455 -0.0014094752474986445 -0.33329243413244675 -0.0013971685573621112
0.07247796636776961 -0.3332927086137419 -0.0014654004070375319 0.6666414584548124 -0.0014837183433986153 0.6666414591397926 -0.001484105503820677
 0.6666414584549828 -0.0014837183432277153 -0.3332927454435134 -0.0014684807592266812 0.6666414407971906 -0.0014810250290002813
 0.6666414591395821 -0.0014841055040036666 0.6666414407968098 -0.0014810250288090376 -0.3332927440557858 -0.0014680936032375645
0.07615723169378218 -0.33329304711166957 -0.0015397890848447538 0.666641118024785 -0.0015590369069807927 0.6666411187810741 -0.0015594437213707459
 0.6666411180249728 -0.0015590369068099502 -0.33329308777557604 -0.001543025798858038 0.66664109852893 -0.0015562068650590392
 0.6666411187808415 -0.0015594437215238842 0.66664109852851 -0.0015562068648894989 -0.3332930862433807 -0.001542618989645231
0.08002327093216569 -0.3332934208487572 -0.0016179539587324538 0.6666407421544572 -0.0016381788705469344 0.6666407429894797 -0.001638606336543324
 0.6666407421546646 -0.0016381788703186176 -0.3332934657459498 -0.0016213549706294134 0.6666407206290009 -0.0016352051595885388
 0.6666407429892228 -0.001638606336785304 0.6666407206285367 -0.0016352051593550032 -0.3332934640542456 -0.0016209275105817224
0.08408556545793698 -0.33329383349260683 -0.0017000865255556391 0.666640327155293 -0.0017213381270669687 0.6666403280772443 -0.0017217872932139154
 0.6666403271555212 -0.001721338126888395 -0.33329388306377955 -0.0017036601741263926 0.6666403033889491 -0.0017182134530645756
 0.6666403280769607 -0.0017217872933870022 0.6666403033884364 -0.0017182134528849916 -0.33329388119596187 -0.001703211014983449
0.08835407795782858 -0.3332942890943132 -0.0017863883414629873 0.6666398689530739 -0.0018087187504662388 0.6666398699710043 -0.0018091907182976174
 0.6666398689533268 -0.0018087187502487246 -0.3332943438260446 -0.0017901433884284987 0.6666398427125578 -0.0018054354490820398
 0.666639869970691 -0.0018091907185276595 0.6666398427119921 -0.001805435448860003 -0.33329434176378037 -0.0017896714286969404
0.09283927686355573 -0.33329479212586294 -0.001877071021709669 0.6666393630502893 -0.0019005350016452968 0.6666393641741896 -0.0019010309287861885
 0.6666393630505676 -0.001900535001454509 -0.3332948525553866 -0.0018810166734096504 0.66663933407803 -0.0018970850191806334
 0.6666393641738435 -0.0019010309289775977 0.6666393340774059 -0.0018970850189805179 -0.333294850278433 -0.001880520755745343
0.09755216202541175 -0.3332953475243367 -0.0019723568471879576 0.6666388044816763 -0.0019970119412805443 0.66663880572258 -0.001997533043877764
 0.6666388044819839 -0.0019970119410598315 -0.33329541424480924 -0.0019765027768079237 0.6666387724932932 -0.0019933868150473627
 0.6666388057221972 -0.0019975330440911497 0.6666387724926035 -0.0019933868148370956 -0.33329541173081506 -0.0019759816851924006
0.10250429168915555 -0.33329596074126816 -0.0020724794708075946 0.6666381877645856 -0.0020983861431947775 0.6666381891346718 -0.00209893369941256
 0.6666381877649258 -0.0020983861429452765 -0.3332960344075932 -0.0020768358422320675 0.6666381524460915 -0.002094576980851826
 0.6666381891342507 -0.0020989336996585957 0.6666381524453304 -0.002094576980599338 -0.33329603163188265 -0.0020762882987713613
0.10770781084235159 -0.3332966377957983 -0.0021776844170805446 0.6666375068455206 -0.0022049062010480137 0.6666375083582372 -0.0022054815538120214
 0.6666375068458958 -0.002204906200794277 -0.33329671913105885 -0.0021822619096955715 0.666637467850241 -0.00220090365843034
 0.666637508357772 -0.0022054815540645503 0.6666374678494006 -0.0022009036581786133 -0.33329671606638694 -0.002181686571759145
