! Created with skrf 1.8.0 (http://scikit-rf.org).
# MHz S RI R 50.0 
!freq ReS11 ImS11 ReS21 ImS21 ReS12 ImS12 ReS22 ImS22
0.01 -4.9467545320662177e-08 -0.0002201221174294265 0.9999999505218482 -0.00022472772620113138 0.9999999505218493 -0.00022472772641666947 -4.946754540946951e-08 -0.00022012211764496433
0.01050763915026853 -5.461724256424401e-08 -0.0002312961381237758 0.9999999453710479 -0.00023613554621754 0.9999999453710465 -0.00023613554616570994 -5.461724314107393e-08 -0.00023129613807194586
0.011041048051225594 -6.030321840713487e-08 -0.00024303775161489224 0.999999939683853 -0.0002481228273777708 0.9999999396838537 -0.0002481228272740918 -6.030321709046468e-08 -0.00024303775151121346
0.011601534876305412 -6.658102955555561e-08 -0.0002553752149044309 0.9999999334046957 -0.00026071842902204413 0.9999999334046957 -0.00026071842891765867 -6.658102875650636e-08 -0.00025537521480004555
0.01219047420694725 -7.351237477614661e-08 -0.0002683389528969442 0.9999999264718624 -0.00027395340797683126 0.9999999264718633 -0.00027395340792928953 -7.351237722526943e-08 -0.00026833895284940156
0.012809310403725764 -8.116543646559746e-08 -0.0002819610088852487 0.9999999188171604 -0.00028786047701483635 0.9999999188171619 -0.0002878604769177453 -8.116543775935536e-08 -0.0002819610087881568
0.013459561148613082 -8.961512584372048e-08 -0.0002962744146191457 0.9999999103656599 -0.000302473360903961 0.9999999103656614 -0.0003024733609040448 -8.961512615600153e-08 -0.00029627441461922894
0.014142821167060008 -9.894436992658071e-08 -0.0003113142697645573 0.9999999010344158 -0.0003178279006905605 0.9999999010344154 -0.0003178279006460734 -9.894437110716835e-08 -0.00031131426972006994
0.014860766139024621 -1.092451647953274e-07 -0.00032711811719398953 0.999999890731413 -0.00033396240493767187 0.9999998907314125 -0.0003339624049399992 -1.092451652623172e-07 -0.000327118117196317
0.015615156808540002 -1.2061793518603462e-07 -0.0003437236579668096 0.9999998793562039 -0.0003509153881145578 0.9999998793562042 -0.00035091538816379644 -1.206179353667806e-07 -0.000343723658016048
0.01640784330189971 -1.3317509176884735e-07 -0.0003611727567787465 0.9999998667963554 -0.0003687295684576487 0.9999998667963542 -0.00036872956837375316 -1.3317509290854802e-07 -0.00036117275669485076
0.017240769665051267 -1.470392300296325e-07 -0.0003795072591912166 0.9999998529292453 -0.00038744768275612124 0.9999998529292448 -0.00038744768272120115 -1.4703922966443774e-07 -0.00037950725915629696
0.018115978631325472 -1.623464282707965e-07 -0.00039877216709003 0.9999998376187649 -0.0004071156784030068 0.9999998376187654 -0.000407115678448073 -1.6234642724061345e-07 -0.00039877216713509654
0.019035616631194404 -1.7924756341151404e-07 -0.000419015509231157 0.9999998207140063 -0.00042778256953545637 0.9999998207140058 -0.00042778256948499966 -1.792475632745674e-07 -0.00041901550918070065
0.020001939056344106 -1.9790830284013107e-07 -0.00044028660565515354 0.9999998020492659 -0.000449498715919294 0.9999998020492649 -0.00044949871595000767 -1.9790830321869865e-07 -0.00044028660568586753
0.021017315790972647 -2.1851144664377047e-07 -0.00046263720585748124 0.9999997814417051 -0.00047231695964040655 0.9999997814417048 -0.0004723169597040291 -2.1851144600285026e-07 -0.00046263720592110434
0.022084237023878118 -2.412594167386763e-07 -0.00048612235245678204 0.9999997586888574 -0.0004962934888375842 0.9999997586888577 -0.0004962934887097765 -2.4125941628030864e-07 -0.00048612235232897445
0.02320531935559115 -2.6637574091607284e-07 -0.0005107998779060902 0.999999733567149 -0.0005214873398804483 0.9999997335671481 -0.0005214873398632251 -2.6637574001161233e-07 -0.000510799877888868
0.024383312215529362 -2.941065501317495e-07 -0.0005367299013927538 0.9999997058303934 -0.0005479599016654417 0.9999997058303925 -0.0005479599016347038 -2.9410655070583526e-07 -0.0005367299013620158
0.02562110460491172 -3.2472468515753475e-07 -0.0005639766053978693 0.999999675205693 -0.0005757766845226835 0.9999996752056942 -0.0005757766845177174 -3.247246857925629e-07 -0.000563976605392902
0.02692173218196957 -3.585301078079462e-07 -0.0005926062744120606 0.9999996413930236 -0.0006050053714727841 0.9999996413930232 -0.00060500537146814 -3.585301075885321e-07 -0.0005926062744074167
0.02828838470683077 -3.9585478041130307e-07 -0.0006226892501242672 0.999999604060349 -0.0006357177734804869 0.9999996040603476 -0.0006357177735146934 -3.9585478034137346e-07 -0.0006226892501584745
0.029724413864335254 -4.370650494918725e-07 -0.0006542992928743083 0.999999562841245 -0.0006679891950237314 0.9999995628412436 -0.0006679891949863813 -4.3706504846318304e-07 -0.0006542992928369595
0.031233341483967378 -4.825655069943546e-07 -0.0006875139891016951 0.9999995173310315 -0.0007018988446300802 0.9999995173310295 -0.0007018988445749829 -4.825655081614111e-07 -0.0006875139890465986
0.03281886817706418 -5.328027496265501e-07 -0.000722414772479089 0.9999994670830171 -0.0007375298596123974 0.9999994670830176 -0.0007375298596379456 -5.328027496593899e-07 -0.0007224147725046369
0.034484882412482154 -5.882703197797417e-07 -0.0007590875120990681 0.9999994116035551 -0.000774969900301793 0.9999994116035553 -0.000774969900308474 -5.882703198620457e-07 -0.000759087512105749
0.03623547005298042 -6.495119342181499e-07 -0.000797621646594331 0.9999993503488106 -0.0008143102872557845 0.9999993503488104 -0.0008143102872868046 -6.495119338929161e-07 -0.0007976216466253513
0.03807492437570799 -7.171293778425914e-07 -0.000838112092333905 0.9999992827168696 -0.0008556479134431173 0.9999992827168707 -0.0008556479134553726 -7.171293771534901e-07 -0.00083811209234616
0.04000775660137028 -7.917859299063475e-07 -0.0008806578754372019 0.999999208044312 -0.0008990838833334186 0.9999992080443115 -0.0008990838833160954 -7.917859294812034e-07 -0.0008806578754198797
0.04203870695789726 -8.742146795246482e-07 -0.0009253634943672451 0.9999991255978894 -0.0009447248787398586 0.9999991255978885 -0.0009447248787953593 -8.7421467943823e-07 -0.0009253634944227468
0.04417275630574673 -9.652244639591077e-07 -0.0009723384401193122 0.9999990345685911 -0.000992682684025973 0.9999990345685921 -0.0009926826839945263 -9.652244648022938e-07 -0.0009723384400878636
0.04641513835335354 -1.0657089375965625e-06 -0.001021698078649574 0.999998934062575 -0.0010430750761574903 0.9999989340625745 -0.0010430750761631093 -1.0657089368965575e-06 -0.0010216980786551947
0.0487713524926828 -1.1766539834317737e-06 -0.001073563240235083 0.999998823093742 -0.0010960254176662642 0.9999988230937414 -0.0010960254176701563 -1.176653983922402e-06 -0.0010735632402389759
0.051247177286366054 -1.2991492119758318e-06 -0.0011280613972708502 0.999998700572251 -0.0011516638427466622 0.9999987005722502 -0.0011516638427400885 -1.2991492116264947e-06 -0.0011280613972642775
0.0538486846394972 -1.4343966924178014e-06 -0.0011853260479253033 0.999998565295773 -0.0012101266458342359 0.9999985652957725 -0.001210126645814118 -1.4343966924705597e-06 -0.0011853260479051855
0.05658225469084444 -1.583724143388241e-06 -0.0012454976896917507 0.9999984159363076 -0.0012715572632324248 0.9999984159363065 -0.0012715572632091084 -1.5837241413386304e-06 -0.0012454976896684384
0.05945459145999823 -1.7485971030040925e-06 -0.0013087237936981937 0.9999982510279982 -0.0013361062530864217 0.9999982510279973 -0.001336106253105284 -1.7485971022107904e-06 -0.0013087237937170581
0.062472739288829834 -1.930633979163894e-06 -0.001375159436401032 0.9999980689520914 -0.0014039319368899321 0.9999980689520934 -0.0014039319368750961 -1.9306339792087207e-06 -0.0013751594363861927
0.06564410011758287 -2.1316219103384796e-06 -0.001444967649087392 0.9999978679210694 -0.0014752007541066411 0.9999978679210688 -0.0014752007541285945 -2.131621910309345e-06 -0.0014449676491093463
0.06897645163796594 -2.3535336181519355e-06 -0.0015183195714075371 0.9999976459617831 -0.0015500874271573508 0.9999976459617838 -0.0015500874271467903 -2.353533618570979e-06 -0.001518319571396975
0.07247796636776961 -2.5985469384407383e-06 -0.0015953949592470325 0.9999974008959326 -0.0016287754757641298 0.9999974008959334 -0.0016287754757727635 -2.598546937196522e-06 -0.001595394959255668
0.07615723169378218 -2.8690674327364776e-06 -0.0016763830095346145 0.9999971303174371 -0.0017114580519293648 0.9999971303174382 -0.0017114580519408341 -2.8690674336134235e-06 -0.001676383009546081
0.08002327093216569 -3.167750351385272e-06 -0.001761482286981691 0.9999968315704809 -0.0017983378759637283 0.9999968315704824 -0.0017983378759579398 -3.1677503514181213e-06 -0.0017614822869759005
0.08408556545793698 -3.4975272058596913e-06 -0.0018509014007131867 0.9999965017229223 -0.0018896279234684936 0.9999965017229229 -0.0018896279234601706 -3.4975272056968047e-06 -0.0018509014007048637
0.08835407795782858 -3.86163525177782e-06 -0.0019448597030356071 0.999996137536811 -0.0019855521355827857 0.9999961375368104 -0.0019855521356005076 -3.8616352526479954e-06 -0.0019448597030533282
0.09283927686355573 -4.263648381558228e-06 -0.0020435875793764504 0.9999957354374898 -0.002086345719391658 0.9999957354374897 -0.0020863457194072537 -4.2636483806101745e-06 -0.0020435875793920494
0.09755216202541175 -4.707512484196891e-06 -0.002147327101645069 0.9999952914782209 -0.002192255812160495 0.9999952914782207 -0.0021922558121700796 -4.707512484868231e-06 -0.002147327101654652
0.10250429168915555 -5.1975845521820425e-06 -0.0022563327024444184 0.9999948013010825 -0.0023035421702985717 0.9999948013010816 -0.002303542170285688 -5.197584549787241e-06 -0.002256332702431542
0.10770781084235159 -5.738675046775507e-06 -0.0023708717032240936 0.9999942600945759 -0.002420477708392789 0.9999942600945754 -0.002420477708391709 -5.738675046363655e-06 -0.002370871703223015
0.11317548099968108 -6.336095149416013e-06 -0.0024912249767152545 0.9999936625463849 -0.0025433491768530915 0.9999936625463857 -0.002543349176845137 -6.336095147912108e-06 -0.002491224976707302
0.11892071150027211 -6.9957084219455655e-06 -0.0026176875529464543 0.9999930027916887 -0.0026724577816806395 0.9999930027916908 -0.0026724577816819753 -6.995708420638576e-06 -0.0026176875529477887
0.12495759239380483 -7.723989420011134e-06 -0.0027505695544902415 0.9999922743545455 -0.0028081201344379012 0.999992274354546 -0.0028081201344226535 -7.723989420116982e-06 -0.0027505695544749933
0.13130092899604406 -8.528087212212794e-06 -0.0028901969257195096 0.9999914700843524 -0.0029506689982611843 0.9999914700843533 -0.00295066899825903 -8.52808721078003e-06 -0.0028901969257173594
0.1379662781985461 -9.415893810845345e-06 -0.0030369119290188117 0.9999905820874038 -0.003100453800804027 0.9999905820874045 -0.003100453800787954 -9.415893811043923e-06 -0.0030369119290027343
0.14496998662158825 -1.0396123546687483e-05 -0.0031910743285023875 0.9999896016475043 -0.003257841834359701 0.999989601647503 -0.003257841834356832 -1.0396123546288253e-05 -0.003191074328499523
0.15232923070389057 -1.1478397738663327e-05 -0.0033530621171509725 0.9999885191412656 -0.0034232190029823365 0.9999885191412666 -0.0034232190029828908 -1.1478397740286796e-05 -0.0033530621171515185
0.16006205882744876 -1.2673338813737612e-05 -0.003523272403372676 0.9999873239439903 -0.0035969907275501165 0.9999873239439915 -0.003596990727546803 -1.2673338813464945e-05 -0.003523272403369361
0.1681874355807885 -1.3992676290586596e-05 -0.0037021226318646 0.9999860043236395 -0.0037795831866874476 0.99998600432364 -0.003779583186695243 -1.3992676292237526e-05 -0.0037021226318723864
0.17672528826919598 -1.544935861574554e-05 -0.003890051143411059 0.999984547328995 -0.003971443899261452 0.9999845473289939 -0.003971443899256468 -1.5449358614479967e-05 -0.0038900511434060837
0.1856965557859895 -1.7057683863641967e-05 -0.004087518752237032 0.9999829386589097 -0.004173043323055515 0.9999829386589105 -0.004173043323050755 -1.7057683864131047e-05 -0.004087518752232269
0.19512323996468875 -1.883343759604279e-05 -0.0042950095371604765 0.9999811625244429 -0.004384875669965667 0.9999811625244427 -0.0043848756699643434 -1.883343759625265e-05 -0.004295009537159153
0.20502845953802087 -2.0794048560526437e-05 -0.004513032137391505 0.9999792014931074 -0.004607460226843512 0.9999792014931068 -0.004607460226848147 -2.079404856047138e-05 -0.0045130321373961415
0.2154365068360951 -2.2958759727755633e-05 -0.00474212099597917 0.999977036317806 -0.004841342624950798 0.9999770363178063 -0.0048413426249442676 -2.295875972871297e-05 -0.004742120995972635
0.22637290736280513 -2.5348816933938877e-05 -0.004982837647231497 0.9999746457481475 -0.005087096154540891 0.9999746457481477 -0.005087096154534158 -2.5348816934586227e-05 -0.004982837647224762
0.23786448239655172 -2.798767748330488e-05 -0.005235772104497681 0.999972006321798 -0.005345323181814006 0.9999720063217975 -0.005345323181817941 -2.798767748257661e-05 -0.0052357721045016205
0.24993941476883716 -3.090123976369472e-05 -0.005501544251947104 0.9999690921348128 -0.00561665657081042 0.9999690921348139 -0.005616656570811119 -3.090123976366929e-05 -0.005501544251947798
0.2626273179820232 -3.411809866758996e-05 -0.0057808054813254265 0.9999658745861714 -0.005901761352026153 0.9999658745861709 -0.005901761352028288 -3.411809866739837e-05 -0.005780805481327563
0.2759593088357935 -3.76698238994405e-05 -0.006074240081833266 0.9999623220993962 -0.006201336146064855 0.9999623220993957 -0.006201336146066037 -3.766982389904014e-05 -0.006074240081834453
0.28996808374040284 -4.159127222759754e-05 -0.006382567133612023 0.9999583998102443 -0.006516115091617604 0.9999583998102441 -0.006516115091618767 -4.159127222728457e-05 -0.006382567133613188
0.3046879989039 -4.592092625223475e-05 -0.006706542002651084 0.9999540692278613 -0.006846869377772707 0.9999540692278619 -0.006846869377767139 -4.592092625248274e-05 -0.0067065420026455125
0.32015515458995947 -5.070127517589487e-05 -0.007046958446361584 0.9999492878539337 -0.0071944093883303225 0.9999492878539337 -0.0071944093883294 -5.0701275176397796e-05 -0.007046958446360658
0.3364074836529731 -5.5979228781511e-05 -0.007404650334492987 0.999944008768616 -0.007559586463514636 0.9999440087686164 -0.007559586463518187 -5.597922878176793e-05 -0.007404650334496533
0.3534848445675301 -6.180657843704093e-05 -0.007780493757975619 0.9999381801694326 -0.007943295051354805 0.9999381801694323 -0.007943295051353143 -6.180657843708826e-05 -0.007780493757973957
0.37142911918043653 -6.824050528372283e-05 -0.008175409177874463 0.9999317448629753 -0.00834647490216677 0.9999317448629764 -0.008346474902163345 -6.82405052826902e-05 -0.00817540917787104
0.3902843154250111 -7.53441393969832e-05 -0.008590363569222444 0.999924639705628 -0.00877011325925315 0.9999246397056271 -0.008770113259255034 -7.534413939643107e-05 -0.008590363569224335
0.4100966752495598 -8.318717967031904e-05 -0.009026372833699534 0.9999167949835428 -0.009215247321615163 0.9999167949835441 -0.009215247321618983 -8.318717967047406e-05 -0.009026372833703344
0.43091478802472344 -9.184657660228682e-05 -0.009484504236628498 0.999908133729716 -0.009682966732774002 0.9999081337297162 -0.009682966732771211 -9.184657660263853e-05 -0.00948450423662569
0.4527897097078248 -0.00010140728553394687 -0.009965878943151816 0.9998985709705774 -0.010174416172386312 0.9998985709705784 -0.010174416172388448 -0.00010140728553361718 -0.009965878943153943
0.47577508805646623 -0.00011196309996125493 -0.010471674775629025 0.9998880128925078 -0.010690798170815176 0.9998880128925087 -0.010690798170812237 -0.0001119630999597028 -0.010471674775626098
0.4999272941984582 -0.00012361756900676948 -0.01100312898531353 0.999876355924164 -0.011233375941596135 0.9998763559241624 -0.011233375941598766 -0.00012361756900530538 -0.0110031289853162
0.5253055608807532 -0.00013648501101948062 -0.011561541210591645 0.9998634857226614 -0.01180347640347281 0.9998634857226608 -0.011803476403472664 -0.00013648501101971454 -0.0115615412105915
0.5519721277364371 -0.00015069163471168823 -0.012148276676751711 0.9998492760522046 -0.012402493446834013 0.9998492760522046 -0.012402493446833503 -0.00015069163471195687 -0.012148276676751196
0.5799923939260409 -0.00016637677146580775 -0.012764769329542328 0.9998335875515032 -0.013031891137669699 0.9998335875515031 -0.013031891137672912 -0.00016637677146605278 -0.012764769329545539
0.6094350785275234 -0.00018369423959484527 -0.013412525300763114 0.9998162663692234 -0.013693207257141597 0.9998162663692252 -0.013693207257143255 -0.0001836942395945241 -0.013412525300764755
0.6403723890682781 -0.0002028138491367434 -0.014093126495814607 0.9997971426588705 -0.01438805696657461 0.9997971426588709 -0.01438805696657332 -0.00020281384913733427 -0.014093126495813298
0.672880198612483 -0.00022392306022958107 -0.014808234268475254 0.9997760289200516 -0.01511813656387385 0.9997760289200529 -0.015118136563872422 -0.00022392306023102801 -0.01480823426847379
0.7070382318380991 -0.0002472288154218928 -0.015559593352537196 0.999752718165778 -0.01588522750091811 0.9997527181657773 -0.01588522750091646 -0.0002472288154216021 -0.015559593352535553
0.7429302605598647 -0.0002729595611008059 -0.01634903595509567 0.999726981900587 -0.0166912005667923 0.9997269819005867 -0.016691200566791773 -0.0002729595611007903 -0.016349035955095143
0.7806443091778051 -0.00030136747642886384 -0.017178485990731622 0.9996985678911381 -0.017538020216574666 0.9996985678911391 -0.017538020216574413 -0.00030136747643020294 -0.01717848599073132
0.8202728705551018 -0.00033273093394815947 -0.01804996355148459 0.9996671977050725 -0.018427749140967887 0.9996671977050735 -0.0184277491409643 -0.00033273093394927506 -0.01804996355148096
0.8619131328547955 -0.000367357212634454 -0.018965589531024035 0.9996325639973671 -0.019362552994591314 0.9996325639973678 -0.019362552994593163 -0.00036735721263359683 -0.018965589531025895
0.9056672178915632 -0.0004055854924893165 -0.01992759049828721 0.9995943275150951 -0.020344705379670133 0.9995943275150952 -0.020344705379667816 -0.00040558549248858125 -0.0199275904982849
0.9516424315832187 -0.00044779015433131313 -0.020938303694134203 0.9995521137969251 -0.021376592957941077 0.9995521137969245 -0.02137659295794065 -0.0004477901543311903 -0.020938303694133794
0.999951527116057 -0.0004943844221983262 -0.022000182316503757 0.9995055095299227 -0.022460720856951298 0.9995055095299218 -0.022460720856952984 -0.0004943844221983253 -0.022000182316505457
1.0507129814695484 -0.0005458243769992763 -0.023115800946240897 0.9994540585350291 -0.023599718223354674 0.9994540585350293 -0.02359971822335602 -0.0005458243769978121 -0.02311580094624228
1.1040512859784777 -0.0006026133836838049 -0.024287861226878565 0.9993972573389233 -0.024796344036407316 0.9993972573389228 -0.024796344036406764 -0.0006026133836853909 -0.024287861226877986
1.1600972516451793 -0.0006653069710364493 -0.025519197737211872 0.9993345502931743 -0.0260534931212985 0.9993345502931754 -0.02605349312129788 -0.0006653069710361962 -0.025519197737211227
1.2189883299505808 -0.0007345182082224009 -0.02681278403471027 0.9992653241965086 -0.027374202340098693 0.9992653241965085 -0.027374202340099477 -0.0007345182082223286 -0.026812784034711067
1.2808689499509174 -0.0008109236332687407 -0.028171738968961402 0.9991889023650379 -0.028761657060663085 0.9991889023650393 -0.02876165706066374 -0.0008109236332691648 -0.028171738968962023
1.3458908724867602 -0.0008952697818764203 -0.029599333134058263 0.9991045381020209 -0.03021919777202262 0.9991045381020204 -0.030219197772023088 -0.0008952697818757888 -0.029599333134058756
1.4142135623730951 -0.0009883803794539364 -0.031098995516495857 0.999011407504236 -0.031750326903756024 0.9990114075042367 -0.03175032690375461 -0.0009883803794526755 -0.031098995516494473
1.486004579483226 -0.001091164262925879 -0.032674320341286055 0.9989086015384385 -0.03335871585218572 0.998908601538439 -0.033358715852184515 -0.0010911642629263944 -0.03267432034128483
