! Created with skrf (http://scikit-rf.org).
# MHz S RI R 50.0 
!freq ReS11 ImS11 ReS12 ImS12 ReS13 ImS13
! ReS21 ImS21 ReS22 ImS22 ReS23 ImS23
! ReS31 ImS31 ReS32 ImS32 ReS33 ImS33
!
0.01 -0.33329611347914045 -0.00020258974711974333 0.6666479634915056 -0.00020454897298049813 0.6666479635102124 -0.00020452878753415805
 0.6666479634915092 -0.00020454897314149678 -0.33329611409436705 -0.00020267883063897972 0.6666479632028481 -0.00020443970357085538
 0.6666479635102089 -0.00020452878742515762 0.666647963202841 -0.0002044397036676343 -0.3332961140570726 -0.0002026990162757213
0.01050763915026853 -0.3332961199292724 -0.0002128738297102646 0.6666479570091591 -0.00021493251418488145 0.6666479570298127 -0.0002149113036780512
 0.666647957009163 -0.00021493251408698862 -0.33329612060854596 -0.00021296743574448232 0.6666479566904507 -0.00021481769741332518
 0.6666479570298085 -0.00021491130379989158 0.6666479566904429 -0.0002148176973014702 -0.3332961205673701 -0.0002129886461633663
0.011041048051225594 -0.33329612705132106 -0.00022368061549207465 0.6666479498515401 -0.0002258438060753493 0.6666479498743442 -0.00022582151968028027
 0.6666479498515443 -0.00022584380627431688 -0.3332961278013126 -0.00022377897361837063 0.6666479494996521 -0.00022572316097401913
 0.6666479498743402 -0.00022582151942769613 0.6666479494996437 -0.00022572316120390064 -0.33329612775584894 -0.00022380126025823514
0.011601534876305412 -0.33329613491448956 -0.00023503552095099217 0.6666479419490989 -0.00023730852326156888 0.6666479419742775 -0.00023728510556376053
 0.6666479419491043 -0.00023730852350980027 -0.333296135742559 -0.00023513887175221203 0.666647941560578 -0.0002371817540722937
 0.666647941974273 -0.00023728510526490167 0.6666479415605681 -0.00023718175435250466 -0.33329613569236244 -0.00023516228974372827
0.01219047420694725 -0.33329614359626675 -0.0002469668644189803 0.6666479332239614 -0.0002493552538672938 0.6666479332517614 -0.00024933064710113285
 0.6666479332239673 -0.00024935525413787756 -0.3332961445105418 -0.0002470754616320516 0.6666479327949937 -0.00024922204910467167
 0.6666479332517563 -0.0002493306468670394 0.666647932794983 -0.0002492220492978767 -0.3332961444551198 -0.00024710006874081
0.012809310403725764 -0.33329615318179373 -0.000259503805482099 0.6666479235905605 -0.0002620134388776514 0.6666479236212547 -0.00026198758249156105
 0.6666479235905667 -0.00026201343886061025 -0.3332961541912488 -0.0002596179152153549 0.6666479231169358 -0.00026187347218041313
 0.6666479236212489 -0.00026198758255098053 0.6666479231169236 -0.00026187347206997624 -0.3332961541300565 -0.000259643771671532
0.013459561148613082 -0.3332961637651003 -0.00027267702858988705 0.6666479129543957 -0.00027531406066481955 0.6666479129882846 -0.0002752868917394077
 0.666647912954402 -0.00027531406049993257 -0.3332961648796442 -0.0002727969313338143 0.6666479124314638 -0.0002751669884701541
 0.6666479129882782 -0.00027528689188543434 0.6666479124314512 -0.00027516698833809287 -0.3332961648120818 -0.0002728241001222672
0.014142821167060008 -0.33329617545049584 -0.00028651935081480884 0.666647901210638 -0.00028929024940453494 0.666647901248056 -0.00028926170145864493
 0.6666479012106453 -0.0002892902494754287 -0.33329617668107 -0.0002866453401899485 0.6666479006332668 -0.00028913571121185703
 0.6666479012480484 -0.0002892617013958463 0.6666479006332522 -0.0002891357112213139 -0.33329617660647337 -0.0002866738883086771
0.014860766139024621 -0.3332961883522077 -0.00030106414598850994 0.6666478882444898 -0.0003039757054978373 0.6666478882858023 -0.00030394570893556186
 0.6666478882444977 -0.0003039757058345317 -0.33329618971089015 -0.0003011965311431884 0.6666478876070112 -0.0003038133225151917
 0.6666478882857948 -0.00030394570857648505 0.6666478876069956 -0.0003038133228251465 -0.33329618962852753 -0.0003012265281476675
0.015615156808540002 -0.33329620259703746 -0.0003163472808877827 0.6666478739285149 -0.0003194066430532031 0.6666478739741284 -0.00031937512321296706
 0.6666478739285235 -0.00031940664318515417 -0.3332962040971652 -0.00031648638647312417 0.6666478732246717 -0.000319236016417895
 0.6666478739741196 -0.0003193751230771445 0.6666478732246544 -0.0003192360165769337 -0.3332962040062286 -0.00031651790648751276
0.01640784330189971 -0.33329621832492295 -0.0003324063504389138 0.6666478581220769 -0.0003356210179321171 0.6666478581724394 -0.00033558789777555787
 0.666647858122087 -0.00033562101801582573 -0.3332962199812214 -0.00033255251736711856 0.6666478573449607 -0.0003354417295132545
 0.6666478581724293 -0.00033558789763629964 0.6666478573449409 -0.00033544172968188763 -0.33329621988081887 -0.00033258563765390514
0.017240769665051267 -0.3332962356901961 -0.0003492806749059718 0.666647840670075 -0.0003526585313692351 0.6666478407256796 -0.00035262372972703004
 0.6666478406700856 -0.00035265853127833344 -0.33329623751892273 -0.0003494342615168642 0.6666478398120564 -0.00035247014175639484
 0.6666478407256694 -0.0003526237298352756 0.6666478398120352 -0.0003524701416628389 -0.33329623740806746 -0.0003494690631415274
0.018115978631325472 -0.33329625486312203 -0.0003670114611187236 0.6666478214013905 -0.0003705607907795714 0.6666478214627846 -0.00037052422280176077
 0.6666478214014024 -0.00037056079070788136 -0.3332962568822283 -0.0003671728444623979 0.6666478204540486 -0.0003703628378468064
 0.6666478214627727 -0.00037052422279266215 0.6666478204540247 -0.000370362837679744 -0.3332962567598319 -0.0003672094126468299
0.019035616631194404 -0.33329627603198897 -0.00038564228815796326 0.6666478001267969 -0.00038937179562335573 0.6666478001945816 -0.0003893333709853313
 0.66664780012681 -0.0003893717954119437 -0.3332962782612929 -0.0003858118637237177 0.6666477990808323 -0.00038916379367848663
 0.6666478001945689 -0.0003893333711996312 0.6666477990808065 -0.00038916379346464803 -0.3332962781261549 -0.0003858502882683785
0.020001939056344106 -0.33329629940462435 -0.00040521888241209635 0.6666477766374284 -0.00040913771439540856 0.6666477767122696 -0.00040909733948352357
 0.6666477766374429 -0.0004091377143823369 -0.3332963018660081 -0.0004053970664074537 0.6666477754825743 -0.00040891915323603746
 0.6666477767122557 -0.0004090973395272175 0.6666477754825455 -0.0004089191532666397 -0.3332963017168023 -0.00040543744136946
0.021017315790972647 -0.3332963252108704 -0.0004257895841130989 0.6666477507022943 -0.00042990735083316774 0.6666477507849279 -0.0004298649265089751
 0.6666477507023106 -0.00042990735087110354 -0.3332963279284981 -0.00042597681307317124 0.6666477494272139 -0.00042967769488298335
 0.6666477507849123 -0.0004298649264763495 0.6666477494271821 -0.0004296776949498087 -0.33329632776375817 -0.0004260192375606095
0.022084237023878118 -0.3332963537032789 -0.00044740423193182833 0.6666477220675823 -0.0004517310329758981 0.6666477221588177 -0.000451686454786257
 0.6666477220675996 -0.0004517310328695963 -0.3332963567038241 -0.0004476009653674261 0.6666477206597597 -0.00045148971840809724
 0.6666477221588004 -0.0004516864548762911 0.6666477206597247 -0.00045148971833280894 -0.33329635652193434 -0.00044764554362107495
0.02320531935559115 -0.3332963851621115 -0.00047011628761485513 0.6666476904516305 -0.00047466273382591067 0.6666476905523642 -0.0004746158926736626
 0.6666476904516504 -0.0004746627337145503 -0.33329638847502824 -0.00047032300758579525 0.6666476888972469 -0.00047440916927693315
 0.6666476905523449 -0.0004746158927425901 0.666647688897208 -0.0004744091691319432 -0.33329638827420316 -0.00047036984891743645
0.024383312215529362 -0.3332964198957282 -0.0004939811347866284 0.666647655544539 -0.000498758376298633 0.6666476556557593 -0.0004987091572058837
 0.6666476555445605 -0.0004987583762393929 -0.3332964235535352 -0.000494198348331483 0.6666476538283369 -0.0004984919396166338
 0.6666476556557381 -0.0004987091572427789 0.6666476538282938 -0.0004984919395338325 -0.3332964233318026 -0.0004942475676599737
0.02562110460491172 -0.3332964582453078 -0.0005190574739451241 0.6666476170034243 -0.0005240772266838967 0.6666476171262237 -0.0005240255092592218
 0.6666476170034483 -0.0005240772266379668 -0.33329646228390925 -0.0005192857139078128 0.666647615108558 -0.0005237972645816169
 0.6666476171262005 -0.0005240255092968003 0.6666476151085106 -0.0005237972645110515 -0.3332964620390932 -0.0005193374316085115
0.02692173218196957 -0.33329650058741006 -0.0005454068765679296 0.6666475744498475 -0.0005506814514783431 0.6666475745854303 -0.0005506271086338213
 0.6666475744498737 -0.0005506814513979886 -0.3332965050464486 -0.0005456467026230553 0.6666475723577158 -0.0005503872771357376
 0.6666475745854046 -0.0005506271087006187 0.6666475723576637 -0.0005503872770179774 -0.33329650477614725 -0.0005457010457734304
0.02828838470683077 -0.3332965473371299 -0.0005730936427882183 0.6666475274666376 -0.0005786359753999875 0.6666475276163362 -0.0005785788738694119
 0.666647527466667 -0.0005786359753131582 -0.3332965522603747 -0.0005733456428543537 0.6666475251567066 -0.0005783268674822198
 0.6666475276163077 -0.0005785788739146422 0.6666475251566487 -0.0005783268674451264 -0.33329655196193236 -0.0005734027446788995
0.029724413864335254 -0.33329659895431935 -0.0006021862347264261 0.6666474755916499 -0.0006080099177073063 0.666647475756932 -0.0006079499174525233
 0.6666474755916822 -0.0006080099176644642 -0.3332966043900985 -0.0006024510267739651 0.6666474730412427 -0.0006076851180136918
 0.6666474757569009 -0.0006079499174392205 0.6666474730411793 -0.0006076851179543424 -0.3332966040605878 -0.0006025110275097826
0.031233341483967378 -0.3332966559447787 -0.0006327554979164372 0.6666474183165553 -0.0006388748133676523 0.6666474184990441 -0.0006388117674448653
 0.666647418316591 -0.0006388748132942581 -0.333296661946448 -0.0006330337313548652 0.666647415500639 -0.0006385335254550958
 0.6666474184990099 -0.000638811767516085 0.6666474155005688 -0.0006385335253978149 -0.3332966615826332 -0.0006330967777138092
0.03281886817706418 -0.3332967188684297 -0.0006648766798996771 0.6666473550786354 -0.0006713066358333547 0.6666473552801223 -0.0006712403892969732
 0.6666473550786751 -0.000671306635699366 -0.3332967254949031 -0.0006651690370330628 0.6666473519695686 -0.0006709480222915558
 0.6666473552800845 -0.0006712403893776302 0.6666473519694911 -0.0006709480221236124 -0.3332967250932133 -0.0006652352841300707
0.034484882412482154 -0.3332967883422895 -0.0006986282381359339 0.6666472852577924 -0.0007053846034421143 0.6666472854802553 -0.0007053149940838294
 0.6666472852578362 -0.0007053846033132204 -0.33329679565860776 -0.0006989354357360651 0.666647281825058 -0.0007050077850040777
 0.6666472854802131 -0.0007053149941836998 0.666647281824972 -0.0007050077848580884 -0.3332967952151003 -0.0006990050457161694
0.03623547005298042 -0.33329686504896217 -0.0007340932724592603 0.6666472081680135 -0.0007411926166785746 0.6666472084136353 -0.0007411194735814256
 0.6666472081680617 -0.0007411926164836134 -0.3332968731269424 -0.0007344160636217788 0.6666472043779149 -0.0007407966691462123
 0.6666472084135889 -0.0007411194738217621 0.6666472043778205 -0.0007407966689969604 -0.3332968726372648 -0.0007344892072503191
0.03807492437570799 -0.33329694974118923 -0.0007713586545342425 0.6666471230527964 -0.0007788183888609861 0.6666471233239883 -0.0007787415327567944
 0.6666471230528492 -0.000778818388695838 -0.3332969586601259 -0.0007716978309192057 0.6666471188681301 -0.0007784023409124302
 0.6666471233239369 -0.0007787415329266114 0.6666471188680261 -0.0007784023407215424 -0.33329695811946997 -0.0007717746878276723
0.04000775660137028 -0.3332970432502821 -0.0008105157654120661 0.6666470290766775 -0.000818354184328278 0.6666470293761028 -0.0008182734269399492
 0.6666470290767365 -0.0008183541842973052 -0.33329705309772234 -0.0008108721585525548 0.666647024456369 -0.000817917015703559
 0.6666470293760463 -0.0008182734269744389 0.6666470244562535 -0.0008179170156641948 -0.33329705250078095 -0.0008109529170150212
0.04203870695789726 -0.33329714649383113 -0.0008516605230598415 0.6666469253174849 -0.0008598968502568042 0.6666469256480811 -0.0008598119932161745
 0.6666469253175498 -0.0008598968501364393 -0.33329715736643445 -0.0008520350067904095 0.6666469202161804 -0.0008594374885760234
 0.6666469256480188 -0.0008598119933546301 0.6666469202160537 -0.0008594374884693342 -0.3332971567073488 -0.0008521198649553488
0.04417275630574673 -0.333297260485725 -0.0008948940181960664 0.6666468107562651 -0.0009035484527921494 0.666646811121278 -0.0009034592881442232
 0.6666468107563365 -0.0009035484526528266 -0.33329727249021746 -0.0008952875106359001 0.666646805123891 -0.0009030657714457434
 0.6666468111212093 -0.0009034592883021613 0.6666468051237507 -0.0009030657713053835 -0.3332972717625179 -0.0008953766766077945
0.04641513835335354 -0.3332973863442779 -0.0009403220472773077 0.6666466842691191 -0.0009494158140670897 0.6666466846721313 -0.0009493221229163323
 0.6666466842691974 -0.0009494158138182217 -0.3332973995984907 -0.0009407355130956358 0.6666466780503902 -0.0009489086290414986
 0.6666466846720551 -0.000949322123161544 0.6666466780502355 -0.0009489086288069215 -0.33329739879503395 -0.0009408292057049259
0.0487713524926828 -0.3332975253059265 -0.0009880563842439413 0.6666465446134348 -0.0009976117852196886 0.6666465450584019 -0.0009975133381222088
 0.6666465446135216 -0.0009976117850748006 -0.33329753993996597 -0.0009884908372037402 0.6666465377473061 -0.000997078852468717
 0.666646545058318 -0.0009975133382879825 0.6666465377471352 -0.00099707885231219 -0.33329753905286663 -0.000988589286140267
0.051247177286366054 -0.3332976787336261 -0.0010382137176395386 0.6666463904194493 -0.0010482541869525704 0.6666463909107404 -0.0010481507424758767
 0.6666463904195458 -0.0010482541868304979 -0.333297694891135 -0.0010386702227883234 0.6666463828385267 -0.001047694199351384
 0.6666463909106476 -0.0010481507426175173 0.6666463828383375 -0.0010476941992121059 -0.33329769391168407 -0.0010387736694529779
0.0538486846394972 -0.33329784813386176 -0.0010909172147536984 0.6666462201731542 -0.0011014673761625927 0.6666462207155907 -0.0011013586806270961
 0.6666462201732601 -0.0011014673760910351 -0.33329786597344035 -0.0010913968911741515 0.6666462118030226 -0.001100878960078939
 0.666646220715488 -0.0011013586807002125 0.6666462118028141 -0.0011008789600119935 -0.3332978648920246 -0.0010915055893146533
0.05658225469084444 -0.3332980351694851 -0.0011462961356328394 0.6666460322033925 -0.0011573818629658913 0.666646032802299 -0.0011572676495909043
 0.6666460322035093 -0.001157381862771607 -0.33329805486624386 -0.0011468001590036125 0.6666460229618925 -0.0011567635751365
 0.6666460328021856 -0.0011572676497655678 0.6666460229616624 -0.001156763574963774 -0.3332980536722479 -0.001146914375294761
0.05945459145999823 -0.3332982416761846 -0.0012044862248989535 0.6666458246653069 -0.0012161347052316374 0.6666458253265622 -0.0012160146941338234
 0.6666458246654365 -0.0012161347051365778 -0.33329826342346364 -0.0012050158307538353 0.6666458144617259 -0.00121548502888377
 0.6666458253264377 -0.0012160146942281898 0.6666458144614719 -0.001215485028799797 -0.3332982621051677 -0.0012051358453570365
0.062472739288829834 -0.33329846968120286 -0.001265630244999245 0.6666455955215318 -0.0012778700456973797 0.6666455962516269 -0.001277743942476826
 0.6666455955216746 -0.0012778700455253205 -0.33329849369246944 -0.0012661867313996994 0.666645584255713 -0.0012771873872306535
 0.6666455962514889 -0.001277743942647833 0.6666455842554325 -0.0012771873870732454 -0.33329849223693275 -0.0012663128386237233
0.06564410011758287 -0.3332987214224595 -0.0013298781052242161 0.6666453425229685 -0.0013427392435594473 0.6666453433290692 -0.0013426067389944653
 0.6666453425231263 -0.0013427392433984554 -0.33329874793340536 -0.001330462836007995 0.6666453300843279 -0.0013420219283004926
 0.6666453433289172 -0.00134260673917187 0.6666453300840184 -0.001342021928135186 -0.33329874632634077 -0.0013305953452599146
0.06897645163796594 -0.33329899937095736 -0.0013973873538356842 0.6666450631862729 -0.0014109013709905117 0.6666450640762931 -0.0014107621401309744
 0.6666450631864469 -0.0014109013707953345 -0.3332990286418086 -0.0013980017619555248 0.6666450494527163 -0.0014101476393114784
 0.6666450640761249 -0.0014107621403122526 0.6666450494523739 -0.0014101476391151775 -0.33329902686744095 -0.0013981409982732878
0.07247796636776961 -0.33329930625490456 -0.0014683235292362877 0.6666447547696125 -0.0014825235674524196 0.6666447557522869 -0.0014823772689021501
 0.6666447547698042 -0.0014825235672767173 -0.3332993385729769 -0.001468969120384392 0.6666447396063331 -0.0014817315701575345
 0.6666447557521014 -0.0014823772690826355 0.6666447396059556 -0.0014817315699787266 -0.33329933661389055 -0.0014691154252986652
0.07615723169378218 -0.33329964508660564 -0.0015428605913806559 0.6666444142456368 -0.0015577814752570965 0.6666444153306124 -0.0015576277502621092
 0.6666444142458492 -0.0015577814750448488 -0.3332996807691254 -0.0015435389474358582 0.6666443975037964 -0.001556949269386916
 0.6666444153304072 -0.0015576277504725376 0.6666443975033791 -0.0015569492691657628 -0.3332996786060897 -0.0015436926798183235
0.08002327093216569 -0.33330001919194807 -0.0016211813278695143 0.6666440382718472 -0.0016368596496527006 0.6666440394697722 -0.0016366981212690992
 0.6666440382720813 -0.001636859649448806 -0.3333000585891679 -0.0016218941108279896 0.6666440197871104 -0.0016359851934580074
 0.666644039469546 -0.0016366981214704516 0.66664401978665 -0.001635985193254275 -0.3333000562009524 -0.0016220556478144744
0.08408556545793698 -0.333300432242811 -0.0017034777545518586 0.6666436231580263 -0.0017199519640719732 0.6666436244806608 -0.0017197822361890987
 0.6666436231582843 -0.0017199519638696065 -0.333300475741443 -0.0017042267105971225 0.6666436027489528 -0.0017190331120584927
 0.6666436244804107 -0.0017197822363887775 0.6666436027484444 -0.0017190331118703524 -0.3333004731046033 -0.001704396448480544
0.08835407795782858 -0.33330088829385723 -0.0017899517386078295 0.66664316482926 -0.0018072622373753564 0.6666431662895864 -0.0018070838938018397
 0.6666431648295456 -0.0018072622371765944 -0.33330093632087343 -0.0017907387022991906 0.6666431422955199 -0.0018062967350698006
 0.6666431662893105 -0.0018070838940147725 0.6666431422949582 -0.0018062967348594244 -0.3333009334095273 -0.001790917057521714
0.09283927686355573 -0.333301391821279 -0.0018808152824018659 0.6666426587870006 -0.001899004522865453 0.6666426603993523 -0.0018988171262658883
 0.6666426587873157 -0.0018990045226200854 -0.33330144484809815 -0.0018816421812826016 0.666642633907408 -0.0018979900011229728
 0.6666426603990477 -0.001898817126518148 0.6666426339067882 -0.0018979900008812209 -0.33330144163367004 -0.0018818295913744735
0.09755216202541175 -0.3333019477675001 -0.0019762911967002236 0.6666421000641385 -0.001995403785878083 0.6666421018443425 -0.001995206876838812
 0.6666421000644864 -0.00199540378564039 -0.33330200631461826 -0.0019771600556619724 0.6666420725944838 -0.001994337755331441
 0.6666421018440064 -0.001995206877080059 0.6666420725937995 -0.0019943377550892716 -0.3333020027655557 -0.0019773569804144644
0.10250429168915555 -0.33330256158899735 -0.0020766135249806303 0.6666414831769459 -0.0020966963344916222 0.6666414851424761 -0.002096489430223349
 0.6666414831773303 -0.002096696334269458 -0.3333026262310904 -0.0020775264715075905 0.6666414528475972 -0.0020955761790498713
 0.6666414851421048 -0.0020964894304370584 0.6666414528468413 -0.002095576178833736 -0.333302622312557 -0.0020777333940605438
0.10770781084235159 -0.33330323931098493 -0.0021820283073038164 0.6666408020701159 -0.0022031305877814682 0.6666408042402646 -0.0022029131808893607
 0.66664080207054 -0.0022031305875417732 -0.3333033106825557 -0.002182987576347186 0.666640768583371 -0.002201953558391591
 0.6666408042398545 -0.002202913181126036 0.6666407685825364 -0.0022019535581396473 -0.33330330635608924 -0.0021832050044828066
