! Created with skrf 1.8.0 (http://scikit-rf.org).
# MHz S RI R 50.0 
!freq ReS11 ImS11 ReS12 ImS12 ReS13 ImS13
! ReS21 ImS21 ReS22 ImS22 ReS23 ImS23
! ReS31 ImS31 ReS32 ImS32 ReS33 ImS33
!
0.01 -0.3332877745553149 -0.00011691476243937697 0.6666438555315645 -0.00011910371766675996 0.666643855590098 -0.00011986169232105182
 0.6666438555316712 -0.00011910371439840354 -0.3332877745099659 -0.00011684487235890562 0.6666438556125095 -0.00011993158568202423
 0.6666438555902767 -0.00011986169553963394 0.6666438556125815 -0.00011993158259528182 -0.33328777438596674 -0.00011608689433730125
0.01050763915026853 -0.3332877767598837 -0.0001228495194120608 0.6666438533290929 -0.00012514959426466102 0.6666438533937203 -0.0001259460470522575
 0.6666438533292106 -0.00012514959158668442 -0.3332877767098144 -0.0001227760810616641 0.6666438534184649 -0.0001260194880947203
 0.6666438533939171 -0.00012594604953955357 0.6666438534185444 -0.000126019485693911 -0.33328777657290515 -0.00012197962554775409
0.011041048051225594 -0.3332877791940446 -0.0001290857774229044 0.6666438508972481 -0.00013150261433468932 0.6666438509686042 -0.00013233949777275973
 0.6666438508973779 -0.00013150261078103987 -0.333287779138761 -0.0001290086119500215 0.666643850995925 -0.00013241666681563813
 0.6666438509688214 -0.0001323395013289418 0.6666438509960124 -0.00013241666321443408 -0.33328777898759915 -0.00012817172504758374
0.011601534876305412 -0.3332877818817039 -0.00013563883597469793 0.6666438482121472 -0.00013817836096498336 0.66664384829093 -0.00013905772797430597
 0.6666438482122901 -0.00013817835736156078 -0.33328778182066376 -0.00013555775302408367 0.6666438483210961 -0.0001391388145473074
 0.6666438482911701 -0.00013905773163402677 0.6666438483211929 -0.00013913881077461357 -0.33328778165376655 -0.0001346783825756593
0.01219047420694725 -0.3332877848491432 -0.00014252450644243296 0.6666438452475302 -0.00014519294794647686 0.6666438453345153 -0.0001461169550238636
 0.6666438452476878 -0.00014519294472235684 -0.33328778478174975 -0.00014243930784213463 0.6666438453678206 -0.00014620215687028318
 0.6666438453347807 -0.00014611695845535375 0.6666438453679284 -0.00014620215344055113 -0.33328778459747704 -0.0001415152975984419
0.012809310403725764 -0.33328778812536297 -0.00014975939845791465 0.666643841974427 -0.00015256329929600704 0.666643842070468 -0.00015353421311638336
 0.6666438419746014 -0.00015256329574126452 -0.33328778805095377 -0.00014966987492892687 0.6666438421072407 -0.00015362374022563863
 0.6666438420707604 -0.00015353421665117677 0.666643842107359 -0.00015362373662441514 -0.3332877878474971 -0.0001486989576893505
0.013459561148613082 -0.33328779174272594 -0.0001573617236400062 0.6666438383605049 -0.00016030796120744976 0.6666438384665447 -0.0001613281629108771
 0.6666438383606977 -0.00016030795876554254 -0.3332877916605706 -0.00015726765449937692 0.6666438385071458 -0.00016142223452302618
 0.6666438384668679 -0.00016132816534898426 0.6666438385072759 -0.0001614222319506999 -0.33328779143593296 -0.00015624745056844262
0.014142821167060008 -0.3332877957367508 -0.00016535012733469667 0.6666438343702802 -0.00016844592743889977 0.6666438344873592 -0.00016951791768923734
 0.6666438343704926 -0.00016844592290635808 -0.3332877956460421 -0.00016525128374049764 0.6666438345321869 -0.0001696167658503334
 0.6666438344877151 -0.00016951792227475887 0.6666438345323309 -0.0001696167612201854 -0.3332877953980189 -0.000164179289095267
0.014860766139024621 -0.3332878001464649 -0.00017374384529917372 0.6666438299647609 -0.00017699680084362962 0.6666438300940278 -0.0001781232102032459
 0.6666438299649955 -0.00017699679704902068 -0.33328780004631436 -0.00017363998383535922 0.6666438301435222 -0.00017822707550152646
 0.6666438300944221 -0.00017812321395389012 0.6666438301436814 -0.00017822707172878823 -0.33328779977247047 -0.00017251357081114844
0.015615156808540002 -0.3332878050154158 -0.00018256396091640274 0.6666438251004423 -0.0001859820491424651 0.6666438252431661 -0.00018716563892952782
 0.6666438251007017 -0.0001859820456319035 -0.3332878049048382 -0.00018245482581021781 0.6666438252978135 -0.0001872747775925154
 0.666643825243601 -0.00018716564252879508 0.6666438252979895 -0.0001872747739912479 -0.3332878046024871 -0.000181271232639797
0.01640784330189971 -0.3332878103910185 -0.0001918314184311459 0.6666438197299529 -0.00019542302169449114 0.6666438198875361 -0.00019666669602956435
 0.6666438197302392 -0.0001954230179816683 -0.3332878102689303 -0.00019171674420721344 0.6666438199478718 -0.00019678137401996548
 0.6666438198880161 -0.00019666669983209187 0.6666438199480657 -0.00019678137024719793 -0.33328780993510115 -0.00019047306627481341
0.017240769665051267 -0.33328781632646615 -0.000201569693724158 0.6666438138001523 -0.00020534362113601445 0.6666438139741401 -0.00020665042848525727
 0.6666438138004686 -0.00020534361676243317 -0.33328781619166714 -0.000201449197731926 0.6666438140407576 -0.00020677092891330855
 0.66664381397467 -0.00020665043292058516 0.6666438140409715 -0.0002067709245403277 -0.3332878158230855 -0.0002001423861152736
0.018115978631325472 -0.333287822879804 -0.00021180228576744115 0.6666438072530486 -0.00021576779281275266 0.6666438074451494 -0.00021714093872042626
 0.6666438072533979 -0.00021576778810252628 -0.3332878227309714 -0.000211675673561562 0.6666438075187019 -0.0002172675557087376
 0.6666438074457349 -0.0002171409433765013 0.6666438075189388 -0.0002172675509927665 -0.3332878223240191 -0.00021030252319906615
0.019035616631194404 -0.33328783011522206 -0.0002225540911055105 0.6666438000245136 -0.00022672090298088155 0.6666438002366136 -0.00022816375495639683
 0.6666438000248993 -0.00022672089802978028 -0.3332878299508958 -0.00022242105125751745 0.666643800317823 -0.00022829679983926045
 0.6666438002372602 -0.00022816375997019564 0.6666438003180845 -0.0002282967947802961 -0.3332878295015768 -0.00022097819460288633
0.020001939056344106 -0.33328783810395424 -0.00023385180585171628 0.6666437920433824 -0.0002382301416925628 0.666643792277562 -0.0002397462389848074
 0.6666437920438077 -0.0002382301366087988 -0.33328783792251987 -0.00023371201268307493 0.6666437923672264 -0.00023988603733439873
 0.6666437922782755 -0.00023974624408364817 0.666643792367515 -0.00023988603227540628 -0.33328783742642565 -0.00023219591053036292
0.021017315790972647 -0.33328784692441144 -0.00024572311818913176 0.6666437832313158 -0.000250323715534234 0.6666437834898745 -0.0002519167756048191
 0.6666437832317855 -0.00025032371023327675 -0.33328784672408973 -0.0002455762286082541 0.6666437835888731 -0.00025206367059940404
 0.6666437834906629 -0.00025191678105972203 0.666643783589192 -0.0002520636651974094 -0.33328784617634993 -0.00024398316348909246
0.022084237023878118 -0.333287856662874 -0.000258196745649564 0.6666437735021178 -0.00026303088734506796 0.6666437737875947 -0.00026470481688578053
 0.6666437735026366 -0.00026303088148586464 -0.33328785644169845 -0.00025804239893839837 0.6666437738968995 -0.0002648591695869569
 0.6666437737884651 -0.00026470482272013924 0.6666437738972514 -0.00026485916375621317 -0.33328785583693427 -0.00025636846388905
0.02320531935559115 -0.3332878674154016 -0.000271303890217178 0.6666437627598202 -0.0002763834317052355 0.6666437630750159 -0.00027814233714105205
 0.6666437627603926 -0.00027638342574090146 -0.3332878671711989 -0.0002711417088676673 0.6666437631957003 -0.00027830452460665407
 0.6666437630759758 -0.00027814234311094644 0.666643763196088 -0.00027830451860438204 -0.3332878665034782 -0.0002693827979107988
0.024383312215529362 -0.33328787928738657 -0.00028507647972438304 0.6666437508991292 -0.0002904138785868179 0.6666437512471376 -0.0002922620728061446
 0.6666437508997609 -0.0002904138722857039 -0.3332878790177619 -0.00028490606520765847 0.6666437513803856 -0.00029243249380004444
 0.6666437512481991 -0.0002922620791095105 0.666643751380815 -0.00029243248745475085 -0.3332878782805279 -0.0002830578652058593
0.02562110460491172 -0.33328789239514023 -0.0002995480344327212 0.6666437378038451 -0.00030515638062346764 0.6666437381880834 -0.0003070983957960268
 0.6666437378045438 -0.00030515637365234095 -0.33328789209744564 -0.00029936896884092334 0.6666437383352033 -0.00030727746856321026
 0.6666437381892547 -0.0003070984027574217 0.6666437383356769 -0.00030727746153191957 -0.3332878912834631 -0.00029742694732019304
0.02692173218196957 -0.33328790686730825 -0.00031475405028651675 0.666643723345445 -0.00032064709791991336 0.6666437237696852 -0.00032268769745708796
 0.6666437233462159 -0.0003206470906653208 -0.3332879065386235 -0.0003145658946464338 0.6666437239321206 -0.0003228758605887341
 0.6666437237709784 -0.0003226877046793441 0.6666437239326433 -0.00032287585338588976 -0.33328790563989885 -0.00031252528847689035
0.02828838470683077 -0.33328792284651054 -0.00033073240206843804 0.6666437073814445 -0.00033692460346168443 0.6666437078498492 -0.00033906879264779087
 0.6666437073822957 -0.00033692459598069644 -0.3332879224836074 -0.00033053469498128693 0.6666437080291954 -0.00033926650749085323
 0.666643707851277 -0.0003390688001088576 0.6666437080297724 -0.0003392665000307018 -0.33328792149132314 -0.0003283904990576716
0.029724413864335254 -0.3332879404888821 -0.00034752154321815806 0.6666436897558564 -0.00035402808520438537 0.6666436902730248 -0.0003562811214848143
 0.6666436897567961 -0.0003540280773946291 -0.33328794008820023 -0.00034731379963916546 0.6666436904710412 -0.0003564888731925152
 0.6666436902746016 -0.00035628112928208066 0.6666436904716785 -0.0003564888653893011 -0.3332879389926128 -0.00034506075641854136
0.031233341483967378 -0.3332879599682664 -0.00036516329321116645 0.6666436702950042 -0.00037200013306894686 0.6666436708660108 -0.0003743675422972552
 0.6666436702960413 -0.00037200012523778357 -0.3332879595258705 -0.0003649450039310423 0.666643671084642 -0.00037458583977857636
 0.6666436708677513 -0.0003743675501484255 0.6666436710853456 -0.0003745858318895117 -0.3332879583162296 -0.0003625775879113873
0.03281886817706418 -0.33328798147514277 -0.00038370025007599404 0.6666436488085873 -0.0003908841543520786 0.66664364943904 -0.0003933717426640637
 0.6666436488097326 -0.00039088414594875317 -0.3332879809866927 -0.00038347087932329036 0.666643649680431 -0.0003936011222493879
 0.6666436494409625 -0.00039337175100124296 0.6666436496812082 -0.00039360111388861413 -0.3332879796511196 -0.0003809832837939609
0.034484882412482154 -0.3332880052211756 -0.000403178373802446 0.666643625085146 -0.0004107269614035704 0.6666436257812309 -0.00041334082932046175
 0.6666436250864102 -0.0004107269521445459 -0.33328800468187453 -0.00040293735945586326 0.6666436260477526 -0.00041358185342411794
 0.6666436257833532 -0.0004133408385766804 0.6666436260486106 -0.0004135818441629044 -0.3332880032072627 -0.0004003234836334879
0.03623547005298042 -0.3332880314392669 -0.0004236452689962455 0.6666435988919962 -0.0004315770524648424 0.6666435996605478 -0.00043432361083969547
 0.6666435988933925 -0.0004315770429088381 -0.3332880308438222 -0.00042339201978468396 0.6666435999548151 -0.0004345768701850741
 0.6666435996628907 -0.0004343236204002866 0.6666435999557621 -0.00043457686062359306 -0.3332880292156968 -0.00042064545341923584
0.03807492437570799 -0.33328806038682735 -0.0004451511722707773 0.6666435699719745 -0.0004534856043326069 0.6666435708205359 -0.0004563715885601806
 0.6666435699735161 -0.0004534855941532935 -0.33328805972939407 -0.00044488506750657456 0.6666435711454379 -0.0004566377041740479
 0.6666435708231225 -0.00045637159870722975 0.6666435711464833 -0.00045663769401217447 -0.333288057931773 -0.00044199907492959394
0.04000775660137028 -0.33328809234792844 -0.000467748768989841 0.6666435380412795 -0.00047650628903178735 0.6666435389781801 -0.0004795387774380428
 0.6666435380429816 -0.0004765062786040156 -0.33328809162205275 -0.00046746915542066666 0.6666435393369061 -0.0004798184022127002
 0.6666435389810363 -0.0004795387878571835 0.6666435393380605 -0.0004798183917933715 -0.3332880896372908 -0.0004644366586926018
0.04203870695789726 -0.33328812763634397 -0.0004914935136477458 0.6666435027864351 -0.0005006956001901706 0.6666435038208709 -0.0005038820293775724
 0.6666435027883146 -0.0005006955891648526 -0.33328812683490167 -0.0004911997061040959 0.666643504216942 -0.0005041758488488052
 0.6666435038240247 -0.0005038820403993327 0.6666435042182168 -0.0005041758378290149 -0.33328812464351676 -0.0004880132683324259
0.04417275630574673 -0.3332881665984171 -0.0005164436101641181 0.6666434638614274 -0.000526112829957138 0.666643465003553 -0.0005294610153369438
 0.6666434638635028 -0.0005261128186525944 -0.33328816571354125 -0.0005161348876315119 0.6666434654408572 -0.0005297697502208588
 0.6666434650070349 -0.0005294610265941631 0.6666434654422645 -0.0005297697389435356 -0.33328816329402317 -0.0005127866938015439
0.04641513835335354 -0.33328820961662975 -0.0005426602689467903 0.6666434208841403 -0.000552820336669862 0.666643422145167 -0.0005563384887711497
 0.6666434208864311 -0.0005528203242683433 -0.3332882086396336 -0.0005423358747397287 0.6666434226279967 -0.0005566628965941379
 0.6666434221490112 -0.0005563385011581062 0.6666434226295503 -0.0005566628842446778 -0.3332882059682313 -0.0005388177134876243
0.0487713524926828 -0.333288257113108 -0.0005702077082473627 0.6666433734328465 -0.000580883540660375 0.6666433748251526 -0.0005845802884050763
 0.666643373435376 -0.000580883528033863 -0.333288256034403 -0.0005698668464127214 0.6666433753582465 -0.0005849211642751268
 0.6666433748293972 -0.0005845803010431223 0.6666433753599619 -0.0005849211516251549 -0.3332882530848943 -0.0005661700898682498
0.051247177286366054 -0.33328830955454636 -0.0005991537557023542 0.6666433210412976 -0.0006103715353200776 0.6666433225785485 -0.000614255944538645
 0.666643321044091 -0.0006103715220184145 -0.3332883083635421 -0.0005987955903446295 0.6666433231671408 -0.0006146141248325728
 0.6666433225832346 -0.000614255957824543 0.6666433231690337 -0.0006146141115390551 -0.33328830510697743 -0.0005949111722577863
0.0538486846394972 -0.333288367455025 -0.000629569018331399 0.6666432631959025 -0.0006413562563621708 0.6666432648931887 -0.000645437853753212
 0.666643263198986 -0.0006413562425859123 -0.3332883661400316 -0.0006291926715568209 0.6666432655430553 -0.0006458142162003646
 0.6666432648983631 -0.000645437867534178 0.6666432655451472 -0.0006458142023918335 -0.33328836254444194 -0.0006251110655516593
0.05658225469084444 -0.33328843138347525 -0.000661528405584951 0.6666431993282698 -0.0006739140100807012 0.6666432012022508 -0.0006782028052833472
 0.6666431993316743 -0.000673913995303225 -0.3332884299315838 -0.0006611329541320078 0.6666432019197723 -0.0006785982737137848
 0.666643201207963 -0.0006782028200720798 0.6666432019220814 -0.000678598258961441 -0.3332884259616787 -0.0006568441500723845
0.05945459145999823 -0.3332885019669214 -0.0006951100451846298 0.6666431288119725 -0.0007081243915367043 0.6666431308810441 -0.0007126309030175852
 0.6666431288157317 -0.000708124376007672 -0.33328850036388125 -0.000694694519166231 0.6666431316732632 -0.0007130464471173756
 0.6666431308873514 -0.0007126309185615261 0.666643131675812 -0.0007130464315926011 -0.33328849598068916 -0.0006901879990480562
0.062472739288829834 -0.33328857989865285 -0.000730396513696164 0.6666430509543798 -0.0007440715190626556 0.6666430532388512 -0.00074880679888702
 0.6666430509585303 -0.0007440715027959203 -0.33328857812872914 -0.0007299598939996183 0.6666430541135439 -0.0007492434378114278
 0.6666430532458152 -0.0007488068151561139 0.6666430541163583 -0.0007492434215569716 -0.33328857328922695 -0.0007252246059115904
0.06564410011758287 -0.3332886659432933 -0.000767474185536022 0.6666429649915976 -0.000781843388120465 0.6666429675138927 -0.0007868190495943661
 0.6666429649961799 -0.0007818433709487779 -0.3332886639891119 -0.000767015401636346 0.6666429684796453 -0.0007872778541010918
 0.6666429675215819 -0.0007868190668250695 0.6666429684827528 -0.0007872778369238943 -0.3332886586457949 -0.0007620397322390251
0.06897645163796594 -0.3332887609454694 -0.0008064340099327206 0.6666428700798 -0.0008215326496436457 0.6666428728646783 -0.0008267608954904528
 0.6666428700848591 -0.0008215326315813003 -0.3332887587878498 -0.000805951936731284 0.6666428739309694 -0.0008272429907397784
 0.666642872873168 -0.0008267609135782785 0.6666428739344011 -0.0008272429726825487 -0.3332887528882669 -0.000800723683583021
0.07247796636776961 -0.33328886583801914 -0.0008473716572715552 0.6666427652870383 -0.0008632367631519196 0.6666427683618358 -0.0008687304156483816
 0.6666427652926247 -0.000863236744146821 -0.3332888634557808 -0.0008468651123293632 0.666642769539133 -0.0008692369842195167
 0.6666427683712086 -0.0008687304346613992 0.666642769542921 -0.0008692369652177611 -0.3332888569420247 -0.0008413714533363149
0.07615723169378218 -0.3332889816502373 -0.0008903873951848557 0.6666426495849966 -0.0009070578761561293 0.6666426529798953 -0.0009128304083274271
 0.6666426495911645 -0.0009070578562308711 -0.3332889790199968 -0.0008898551363737797 0.6666426542797546 -0.0009133626924281299
 0.6666426529902438 -0.000912830428268908 0.6666426542839365 -0.0009133626725245012 -0.333288971828128 -0.0008840825987642312
0.08002327093216569 -0.33328910951909196 -0.0009355867820397836 0.6666425218377883 -0.0009531035220031236 0.6666425255861111 -0.0009591690911841241
 0.6666425218445979 -0.0009531035011482416 -0.33328910661503197 -0.0009350275040720904 0.6666425270212916 -0.0009597283962301872
 0.6666425255975371 -0.000959169112083465 0.6666425270259093 -0.0009597283753601237 -0.33328909867445644 -0.0009289619308579954
0.08408556545793698 -0.3332892506997007 -0.000983080652785614 0.6666423807914896 -0.0010014866114265622 0.6666423849300298 -0.0010078600932275457
 0.6666423807990088 -0.0010014865895243833 -0.3332892474933136 -0.0009824929841364706 0.6666423865146194 -0.00100844779099907
 0.6666423849426449 -0.0010078601151853562 0.6666423865197173 -0.0010084477690765394 -0.33328923872608995 -0.0009761194999478417
0.08835407795782858 -0.3332894065775848 -0.0010329853881112093 0.6666422250618983 -0.001052325705473558 0.6666422296312787 -0.001059022730893717
 0.6666422250701992 -0.0010523256823179237 -0.33328940303739907 -0.001032367887752365 0.6666422313808311 -0.0010596402627847334
 0.6666422296452076 -0.0010590227540836412 0.6666422313864615 -0.0010596402396379032 -0.3332893933574655 -0.0010256708618142606
0.09283927686355573 -0.3332895786831183 -0.001085423475325623 0.666642053120095 -0.0011057455832662506 0.6666420581651693 -0.0011127825766715665
 0.6666420531292606 -0.0011057455589409476 -0.3332895747743831 -0.0010847746287173995 0.6666420600968577 -0.0011134314573231618
 0.6666420581805481 -0.0011127826010594848 0.6666420601030733 -0.0011134314329730775 -0.333289564086725 -0.0010777376372621277
0.09755216202541175 -0.333289768705646 -0.0011405235044157614 0.6666418632783428 -0.0011618772423937552 0.6666418688486314 -0.0011692714621377523
 0.6666418632884625 -0.0011618772168414209 -0.33328976438999397 -0.0011398417205438912 0.6666418709814177 -0.0011699532828364052
 0.6666418688656117 -0.0011692714877459195 0.6666418709882802 -0.0011699532572826067 -0.33328975258970267 -0.0011324475057205123
0.10250429168915555 -0.33328997851026587 -0.0011984205620237385 0.6666416536733178 -0.0012208582996608968 0.6666416598234982 -0.0012286278801258287
 0.6666416536844912 -0.0012208582728205197 -0.33328997374533476 -0.0011977041688596393 0.6666416621783171 -0.0012293443132103939
 0.6666416598422457 -0.0012286279070356661 0.6666416621858939 -0.001229344286366609 -0.33328996071658074 -0.0011899345969046413
0.10770781084235159 -0.3332902101564063 -0.0012592566407239334 0.6666414222475503 -0.001282833406366857 0.6666414290379918 -0.001290997402442631
 0.6666414222598868 -0.0012828333782310252 -0.3332902048954259 -0.0012585038816684318 0.6666414316379575 -0.001291750204808866
