! Created with skrf 1.8.0 (http://scikit-rf.org).
# MHz S RI R 50.0 
!freq ReS11 ImS11
0.01 0.9999999010543033 -0.00044484984383557025
0.01050763915026853 0.9999998907542295 -0.0004674307747827216
0.011041048051225594 0.9999998793806356 -0.0004911605788748173
0.011601534876305412 0.9999998668237605 -0.0005160934619067496
0.01219047420694725 0.9999998529594869 -0.0005422923608071654
0.012809310403725764 0.9999998376518276 -0.0005698213038819757
0.013459561148613082 0.9999998207504257 -0.0005987479573964172
0.014142821167060008 0.9999998020898162 -0.0006291425341786282
0.014860766139024621 0.9999997814863679 -0.0006610803402005641
0.015615156808540002 0.9999997587383951 -0.0006946388641916554
0.01640784330189971 0.9999997336213953 -0.0007299021432071367
0.017240769665051267 0.9999997058902944 -0.0007669545780607566
0.018115978631325472 0.9999996752717512 -0.0008058885730709316
0.019035616631194404 0.9999996414662117 -0.0008467983514918191
0.020001939056344106 0.9999996041412051 -0.0008897850486726826
0.021017315790972647 0.9999995629302586 -0.0009349541654637915
0.022084237023878118 0.9999995174293519 -0.000982415932002594
0.02320531935559115 0.9999994671916899 -0.0010322869447895967
0.024383312215529362 0.9999994117236455 -0.0010846899847736476
0.02562110460491172 0.9999993504812157 -0.0011397531078397958
0.02692173218196957 0.999999282862916 -0.0011976116456748215
0.02828838470683077 0.9999992082056828 -0.001258406932451327
0.029724413864335254 0.9999991257761957 -0.0013222884875842586
0.031233341483967378 0.9999990347653971 -0.0013894129243053142
0.03281886817706418 0.9999989342796707 -0.0014599450410169325
0.034484882412482154 0.9999988233334454 -0.0015340572755519254
0.03623547005298042 0.9999987008366573 -0.0016119320698042932
0.03807492437570799 0.9999985655877247 -0.001693759868784381
0.04000775660137028 0.9999984162585451 -0.0017797416671300132
0.04203870695789726 0.999998251383551 -0.001870088190482161
0.04417275630574673 0.9999980693442184 -0.0019650210777320187
0.04641513835335354 0.9999978683538276 -0.0020647730628109953
0.0487713524926828 0.9999976464398594 -0.0021695886112095947
0.051247177286366054 0.9999974014231456 -0.0022797251931197518
0.0538486846394972 0.9999971308994109 -0.002395452555672296
0.05658225469084444 0.9999968322122839 -0.002517054905519622
0.05945459145999823 0.9999965024312619 -0.0026448299081679007
0.062472739288829834 0.9999961383182467 -0.0027790913252352975
0.06564410011758287 0.9999957362989683 -0.0029201684684502867
0.06897645163796594 0.9999952924283849 -0.0030684069268885044
0.07247796636776961 0.9999948023485683 -0.003224170567435541
0.07615723169378218 0.9999942612499432 -0.0033878410795634274
0.08002327093216569 0.9999936638198256 -0.003559820248494462
0.08408556545793698 0.9999930041954 -0.0037405294088642756
0.08835407795782858 0.9999922759018551 -0.003930411763165033
0.09283927686355573 0.999991471789519 -0.00412993319941296
0.09755216202541175 0.9999905839658773 -0.004339582881306795
0.10250429168915555 0.9999896037164792 -0.004559874884130923
0.10770781084235159 0.9999885214194831 -0.004791349421201071
0.11317548099968108 0.999987326451657 -0.005034574070091614
0.11892071150027211 0.999986007083362 -0.005290145316926874
0.12495759239380483 0.9999845503648606 -0.005558689736586945
0.13130092899604406 0.9999829419975461 -0.005840865854679562
0.1379662781985461 0.9999811661935535 -0.006137365736270796
0.14496998662158825 0.9999792055242372 -0.00644891611942312
0.15232923070389057 0.9999770407437019 -0.006776281094298735
0.16006205882744876 0.9999746506052419 -0.007120263121862721
0.1681874355807885 0.9999720116476378 -0.007481705779854254
0.17672528826919598 0.9999690979704785 -0.00786149503004713
0.1856965557859895 0.9999658809750396 -0.008260562076099898
0.19512323996468875 0.9999623290871307 -0.008679885174407114
0.20502845953802087 0.9999584074446481 -0.009120492353103757
0.2154365068360951 0.999954077558215 -0.009583463606627806
0.22637290736280513 0.9999492969315271 -0.010069933770615882
0.23786448239655172 0.9999440186446108 -0.010581095258348194
0.24993941476883716 0.9999381908956129 -0.011118200772106342
0.2626273179820232 0.9999317564880708 -0.01168256678480365
0.2759593088357935 0.9999246522752814 -0.012275576245440673
0.28996808374040284 0.9999168085390537 -0.012898682144830602
0.3046879989039 0.9999081483020235 -0.013553411349862333
0.32015515458995947 0.9998985865797907 -0.014241367762144684
0.3364074836529731 0.9998880295409824 -0.014964236721307858
0.3534848445675301 0.9998763735924061 -0.015723788719610988
0.37142911918043653 0.9998635043594662 -0.016521883972713276
0.3902843154250111 0.9998492955683108 -0.017360476708674664
0.4100966752495598 0.999833607806435 -0.018241620014890585
0.43091478802472344 0.9998162871561818 -0.019167470809351186
0.4527897097078248 0.9997971636886951 -0.020140294934306156
0.47577508805646623 0.9997760497968085 -0.02116247274515834
0.4999272941984582 0.9997527383606372 -0.022236504680530098
0.5253055608807532 0.9997270007182034 -0.023365017333297648
0.5519721277364371 0.9996985844248044 -0.02455076982585726
0.5799923939260409 0.9996672107898269 -0.02579666008784732
0.6094350785275234 0.9996325721408185 -0.027105732145271712
0.6403723890682781 0.9995943288236955 -0.028481182972372725
0.672880198612483 0.9995521058768518 -0.029926370263542
0.7070382318380991 0.999505489370992 -0.031444820197510194
0.7429302605598647 0.9994540223648897 -0.03304023575343829
0.7806443091778051 0.9993972004457615 -0.034716505313388026
0.8202728705551018 0.9993344668088459 -0.036477711659035815
0.8619131328547955 0.9992652068305032 -0.038328141332337605
0.9056672178915632 0.9991887420782213 -0.0402722944980992
0.9516424315832187 0.9991043237105953 -0.04231489504647218
0.999951527116057 0.9990111251908113 -0.044460901306535267
1.0507129814695484 0.9989082342589316 -0.046715517012052885
1.1040512859784777 0.9987946440786072 -0.0490842027529046
1.1600972516451793 0.9986692434727273 -0.05157268794246259
1.2189883299505808 0.9985308061718926 -0.05418698299140063
1.2808689499509174 0.9983779789546304 -0.056933392121562724
1.3458908724867602 0.998209268592477 -0.05981852636158856
1.4142135623730951 0.9980230274560332 -0.06284931716012518
1.486004579483226 0.9978174376799489 -0.0660330300820819
1.561439989685627 0.9975904937130206 -0.06937727908625349
1.6407047966415582 0.9973399831304515 -0.07289004081046085
1.7239933955224203 0.9970634655028007 -0.07657966936168799
1.8115100497595764 0.9967582491772751 -0.08045491095671575
1.9034693919958616 0.9964213657317057 -0.0845249188900088
2.000096950467355 0.996049541920786 -0.08879926823680742
2.1016297021063477 0.9956391688520271 -0.09328797054092601
2.208316653721989 0.9951862681551652 -0.09800148812847453
2.3204194526839115 0.9946864548760199 -0.10295074786603339
2.438213028606619 0.994134896790597 -0.10814715429982026
2.561986267608167 0.9935262698448898 -0.11360260176641697
2.692042720796997 0.992854709392073 -0.11932948519951932
2.8287013487241883 0.9921137568656921 -0.12534070941973496
2.9722973036271734 0.9912963015499242 -0.1316496962907308
3.123182751383041 0.9903945170526027 -0.1382703894264489
3.281727735187589 0.9893997920997852 -0.14521725583725176
3.4483210830779116 0.9883026552640265 -0.15250528383657636
3.6233713615245917 0.9870926932233257 -0.1601499765379979
3.807307877431751 0.9857584621714303 -0.16816734004383
4.0005817310027725 0.984287392007442 -0.17657386537986947
4.203666922053378 0.9826656829790665 -0.1853865030019298
4.417061512485688 0.980878194482822 -0.19462262866408758
4.641288847773894 0.9789083258059412 -0.2042999991870024
4.876898840457368 0.9767378886923556 -0.21443669646960975
5.124469318788904 0.9743469717339374 -0.22505105792443114
5.38460744384562 0.9717137967500483 -0.23616159130054565
5.657951198577958 0.9688145675415673 -0.24778687156353932
5.945170952448651 0.9656233116445283 -0.25994541736421195
6.246971105498869 0.96211171605926 -0.2726555442706162
6.564091815873619 0.9582489583107227 -0.2859351917767645
6.897310815043088 0.954001534683561 -0.29980172084464485
7.2474453151717295 0.9493330880604972 -0.3142716785100438
7.615354013312872 0.9442042384596329 -0.3293605259815823
8.00193919734409 0.9385724201963671 -0.34508232647693504
8.408148958808125 0.9323917304943418 -0.3614493891345877
8.834979518086167 0.925612795454855 -0.3784718653879687
9.283477667606299 0.9181826604791699 -0.3961572945124116
9.754743339078331 0.9100447135595798 -0.41451009556132906
10.249932301052084 0.9011386512989528 -0.43353100366075853
10.770258993413666 0.8914004990225138 -0.45321644977032005
11.316999505772541 0.880762697917649 -0.4735578844838551
11.891494707042488 0.8691542736537804 -0.4945410484372044
12.495153533893092 0.8565011023315375 -0.5161451944025646
13.129456446135096 0.8427262907892451 -0.5383422692048254
13.795959057515493 0.8277506890319715 -0.5610960673602129
14.496295950825123 0.8114935527244068 -0.584361372685362
15.232184686676954 0.7938733730432522 -0.6080831091001702
16.005430015784754 0.7748088894619914 -0.6321955273573799
16.817928305074293 0.7542202979846034 -0.6566214602859215
17.67167218848079 0.7320306626983661 -0.6812716850635955
18.568755453839227 0.7081675319935475 -0.7060444367248906
19.511378177852336 0.6825647522982982 -0.7308251219819711
20.501852121729627 0.6551644615524069 -0.7554862859898548
21.542606400730214 0.6259192320940443 -0.7798878861059464
22.63619344151382 0.5947943183655023 -0.8038779253345109
23.785295241910237 0.5617699495543248 -0.8272934931315075
24.99272994845918 0.526843591765884 -0.8499622519943004
26.261458767851845 0.49003208981080437 -0.871704394250514
27.594593229224277 0.45137358661511123 -0.8923350745690829
28.995402815113252 0.4109291102623278 -0.9116673002466478
30.46732297978897 0.3687837163877311 -0.9295152341555535
32.01396357463073 0.3250470785993257 -0.9456978358302633
33.639117701205976 0.279853432849882 -0.9600427366123534
35.346771013768375 0.23336080370503476 -0.9723902176051238
37.14111149398487 0.1857494708150561 -0.9825971372296618
39.02653972186847 0.1372196712478387 -0.9905406411766431
41.007679668101424 0.08798857528054949 -0.9961214838663501
43.08939003422142 0.03828661659370439 -0.9992667987028323
45.27677616847746 -0.011646701185893444 -0.9999321748756195
47.57520258658399 -0.06156736482646779 -0.9981029303575482
49.99030612807456 -0.11123159677875728 -0.9937945118977303
52.52800978052661 -0.1604005905545584 -0.9870519999218625
55.194537205554965 -0.20884504203149223 -0.9779487452923411
57.99642800220423 -0.2563492967514277 -0.9665842115693015
60.940553745169126 -0.30271495955580585 -0.9530811367670261
64.03413483717826 -0.3477638485025167 -0.9375821594264251
67.28475821687081 -0.3913402164251711 -0.9202460730740989
70.7003959655944 -0.4333122068611881 -0.9012438800819048
74.28942485875669 -0.47357255268936144 -0.8807548111360401
78.0606469096804 -0.5120385625507524 -0.8589624616134045
82.02331095634457 -0.5486514697031561 -0.8360511735489441
86.1871353439536 -0.5833752390986497 -0.8122027643431124
90.56233175896193 -0.6161949408607799 -0.787593673703376
95.15963027300754 -0.6471148024989777 -0.7623925710463798
99.99030565817345 -0.6761560492727262 -0.7367584387245923
105.06620503811381 -0.7033546336265372 -0.7108391233999997
110.39977694286274 -0.7287589422246524 -0.6847703294737627
116.00410183857353 -0.7524275544353929 -0.658675014955307
121.89292420707302 -0.7744271105762671 -0.6326631413354932
128.08068625389578 -0.7948303329879515 -0.6068317244197622
134.5825633274698 -0.8137142289089605 -0.5812651319932202
141.41450113632183 -0.8311584917292532 -0.5560355758639486
148.5932548555706 -0.8472441068041164 -0.5312037495026699
156.13643021862197 -0.8620521596919921 -0.5068195674698953
164.06252669483658 -0.8756628383654503 -0.48292296850094374
172.39098285906442 -0.8881546164517391 -0.45954475002491746
181.14222406431725 -0.8996036016442809 -0.4367074076640307
190.33771253449305 -0.9100830318201693 -0.41442595863798026
200.0 -0.919662900831943 -0.39270873282036367
