! Created with skrf 1.8.0 (http://scikit-rf.org).
# MHz S RI R 50.0 
!freq ReS11 ImS11
0.01 0.9999999990105333 -4.4485204831548124e-05
0.01050763915026853 0.9999999989075491 -4.674293447577564e-05
0.011041048051225594 0.999999998793792 -4.9116351845513765e-05
0.011601534876305412 0.9999999986682507 -5.160909491948469e-05
0.01219047420694725 0.9999999985295988 -5.4229167250957785e-05
0.012809310403725764 0.9999999983765036 -5.698238960590612e-05
0.013459561148613082 0.9999999982075607 -5.9873855154525576e-05
0.014142821167060008 0.9999999980209071 -6.291411403518723e-05
0.014860766139024621 0.999999997814873 -6.610789562016128e-05
0.015615156808540002 0.9999999975874064 -6.94635672604868e-05
0.01640784330189971 0.9999999973361605 -7.299095149868617e-05
0.017240769665051267 0.9999999970588999 -7.669550530269168e-05
0.018115978631325472 0.9999999967526584 -8.058959780009654e-05
0.019035616631194404 0.9999999964146676 -8.467977735237612e-05
0.020001939056344106 0.9999999960414211 -8.89784130870091e-05
0.021017315790972647 0.9999999956293117 -9.349532754625132e-05
0.022084237023878118 0.9999999951742745 -9.824179846379202e-05
0.02320531935559115 0.9999999946718761 -0.00010322910357322646
0.024383312215529362 0.9999999941172505 -0.00010846888440592015
0.02562110460491172 0.9999999935048121 -0.00011397532907825539
0.02692173218196957 0.9999999928285873 -0.00011976153431283297
0.02828838470683077 0.9999999920820034 -0.00012584114252890084
0.029724413864335254 0.9999999912577606 -0.00013222888753914076
0.031233341483967378 0.9999999903476797 -0.00013894114024644766
0.03281886817706418 0.99999998934273 -0.0001459949991491982
0.034484882412482154 0.9999999882333388 -0.00015340574375608668
0.03623547005298042 0.999999987008288 -0.00016119374674569665
0.03807492437570799 0.999999985655898 -0.00016937592471638982
0.04000775660137028 0.9999999841626087 -0.00017797410553734098
0.04203870695789726 0.999999982513812 -0.00018700902568354033
0.04417275630574673 0.9999999806934168 -0.0001965023311240121
0.04641513835335354 0.999999978683561 -0.00020647730491744987
0.0487713524926828 0.9999999764643852 -0.00021695904911102015
0.051247177286366054 0.9999999740141899 -0.00022797284764980815
0.0538486846394972 0.9999999713089471 -0.00023954562156813057
0.05658225469084444 0.9999999683220621 -0.0002517059289893378
0.05945459145999823 0.9999999650242598 -0.000264483419428791
0.062472739288829834 0.9999999613831118 -0.0002779096523387965
0.06564410011758287 0.9999999573629005 -0.0002920174604620423
0.06897645163796594 0.999999952924203 -0.00030684131362911364
0.07247796636776961 0.999999948023359 -0.00032241786445486893
0.07615723169378218 0.9999999426123471 -0.0003387850388433292
0.08002327093216569 0.999999936638037 -0.00035598303643123274
0.08408556545793698 0.9999999300417445 -0.00037405414868846835
0.08835407795782858 0.9999999227587634 -0.00039304257701841793
0.09283927686355573 0.9999999147175327 -0.00041299506940332785
0.09755216202541175 0.9999999058392317 -0.00043396028375710153
0.10250429168915555 0.9999998960366095 -0.00045598987931765673
0.10770781084235159 0.9999998852135701 -0.0004791376071510126
0.11317548099968108 0.9999998732637583 -0.0005034604924926783
0.11892071150027211 0.9999998600698633 -0.0005290181980996574
0.12495759239380483 0.9999998455024268 -0.0005558732970967422
0.13130092899604406 0.9999998294185717 -0.0005840914548730119
0.1379662781985461 0.999999811660237 -0.0006137422021493329
0.14496998662158825 0.9999997920531295 -0.0006448982073795094
0.15232923070389057 0.9999997704048198 -0.0006776358224432101
0.16006205882744876 0.9999997465028914 -0.0007120352190657587
0.1681874355807885 0.9999997201126395 -0.0007481808890349641
0.17672528826919598 0.9999996909750298 -0.0007861614622963428
0.1856965557859895 0.9999996588040234 -0.0008260701162187428
0.19512323996468875 0.9999996232839179 -0.000868004621061135
0.20502845953802087 0.9999995840659581 -0.0009120679311346739
0.2154365068360951 0.9999995407652364 -0.0009583680483678796
0.22637290736280513 0.9999994929567191 -0.0010070185225160594
0.23786448239655172 0.9999994401710638 -0.001058138723995151
0.24993941476883716 0.9999993818902227 -0.00111185393481447
0.2626273179820232 0.9999993175420392 -0.0011682959624658023
0.2759593088357935 0.9999992464948977 -0.0012276032081129902
0.28996808374040284 0.9999991680514337 -0.0012899210985754896
0.3046879989039 0.9999990814416155 -0.0013554024955703286
0.32015515458995947 0.9999989858153492 -0.0014242079457878244
0.3364074836529731 0.9999988802338959 -0.0014965062492843667
0.3534848445675301 0.9999987636609154 -0.0015724746868086047
0.37142911918043653 0.9999986349521789 -0.0016522995427053762
0.3902843154250111 0.9999984928442621 -0.001736176605073427
0.4100966752495598 0.9999983359422127 -0.0018243115977008833
0.43091478802472344 0.9999981627059523 -0.0019169206347262255
0.4527897097078248 0.9999979714349924 -0.0020142308458152964
0.47577508805646623 0.999997760251842 -0.00211648087626707
0.4999272941984582 0.999997527083572 -0.002223921478050106
0.5253055608807532 0.9999972696414484 -0.0023368161349233956
0.5519721277364371 0.999996985398404 -0.0024554417330067543
0.5799923939260409 0.9999966715643867 -0.0025800891744790517
0.6094350785275234 0.9999963250588644 -0.002711064139035095
0.6403723890682781 0.999995942480613 -0.0028486878225661887
0.672880198612483 0.999995520074205 -0.0029932977667443553
0.7070382318380991 0.9999950536935039 -0.0031452485634993243
0.7429302605598647 0.9999945387605977 -0.003304912855018557
0.7806443091778051 0.9999939702209993 -0.0034726821972530983
0.8202728705551018 0.9999933424940541 -0.0036489680142903188
0.8619131328547955 0.9999926494181156 -0.003834202620842985
0.9056672178915632 0.9999918841902085 -0.0040288402446280154
0.9516424315832187 0.9999910392990433 -0.004233358196408467
0.999951527116057 0.9999901064514412 -0.00444825800009693
1.0507129814695484 0.9999890764909044 -0.00467406663068779
1.1040512859784777 0.9999879393077058 -0.004911337814516326
1.1600972516451793 0.9999866837397114 -0.0051606533747598285
1.2189883299505808 0.9999852974628056 -0.00542262466193327
1.2808689499509174 0.9999837668699596 -0.005697894046599288
1.3458908724867602 0.9999820769376652 -0.005987136496979255
1.4142135623730951 0.9999802110784636 -0.006291061235722979
1.486004579483226 0.9999781509782626 -0.0066104134587170495
1.561439989685627 0.9999758764164517 -0.006945976184063744
1.6407047966415582 0.9999733650676058 -0.007298572145876906
1.7239933955224203 0.9999705922823322 -0.007669065818052093
1.8115100497595764 0.9999675308452931 -0.008058365539467498
1.9034693919958616 0.9999641507083917 -0.008467425703527652
2.000096950467355 0.9999604186958613 -0.008897249102830945
2.1016297021063477 0.9999562981783262 -0.009348889425926807
2.208316653721989 0.9999517487140931 -0.00982345375247318
2.3204194526839115 0.9999467256518391 -0.010322105316528218
2.438213028606619 0.9999411796928511 -0.010846066313159682
2.561986267608167 0.9999350564070816 -0.01139662091001946
2.692042720796997 0.999928295699739 -0.011975118329910793
2.8287013487241883 0.9999208312212349 -0.01258297619144976
2.9722973036271734 0.9999125897168096 -0.013221683925398783
3.123182751383041 0.9999034903079137 -0.013892806413825063
3.281727735187589 0.9998934436991774 -0.014597987785994188
3.4483210830779116 0.9998823513027272 -0.015338955418467498
3.6233713615245917 0.9998701042717628 -0.016117524114271246
3.807307877431751 0.9998565824333159 -0.0169356005139963
4.0005817310027725 0.9998416531104314 -0.01779518770341324
4.203666922053378 0.9998251698218639 -0.018698390055861144
4.417061512485688 0.9998069708467953 -0.01964741830764092
4.641288847773894 0.9997868776404037 -0.020644594887093314
4.876898840457368 0.9997646930848822 -0.0216923595049261
5.124469318788904 0.9997401995595722 -0.022793274985984404
5.38460744384562 0.9997131568096005 -0.023950033440126407
5.657951198577958 0.9996832995951821 -0.025165462652003878
5.945170952448651 0.9996503350955723 -0.026442532845966118
6.246971105498869 0.9996139400451864 -0.027784363720235565
6.564091815873619 0.9995737575726306 -0.02919423182979704
6.897310815043088 0.9995293937125824 -0.030675578308444067
7.2474453151717295 0.9994804135569783 -0.03223201693924452
7.615354013312872 0.9994263370077554 -0.03386734260700551
8.00193919734409 0.9993666340919773 -0.035585540092458255
8.408148958808125 0.9993007197919643 -0.037390793295436896
8.834979518086167 0.9992279483432908 -0.039287494825424464
9.283477667606299 0.9991476069448594 -0.041280256011330604
9.754743339078331 0.9990589088216654 -0.043373917324394745
10.249932301052084 0.99896098557491 -0.04557355921150608
10.770258993413666 0.9988528787458859 -0.04788451337391226
11.316999505772541 0.9987335305162016 -0.050312374448472745
11.891494707042488 0.9986017734556216 -0.05286301212840165
12.495153533893092 0.9984563192228091 -0.05554258369971418
13.129456446135096 0.9982957461144788 -0.05835754698182495
13.795959057515493 0.9981184853480779 -0.06131467366347843
14.496295950825123 0.9979228059519437 -0.06442106302289063
15.232184686676954 0.9977067981276899 -0.06768415597311356
16.005430015784754 0.9974683549334423 -0.07111174942562189
16.817928305074293 0.997205152126117 -0.07471201090271694
17.67167218848079 0.9969146259842533 -0.07849349335248296
18.568755453839227 0.9965939489195684 -0.08246515007505122
19.511378177852336 0.9962400026667111 -0.0866363496843656
20.501852121729627 0.995849348826177 -0.09101689097348474
21.542606400730214 0.9954181965139098 -0.09561701757007025
22.63619344151382 0.9949423668558777 -0.10044743219826067
23.785295241910237 0.9944172540435062 -0.10551931036816334
24.99272994845918 0.9938377826479876 -0.11084431325661799
26.261458767851845 0.9931983608714621 -0.11643459950650858
27.594593229224277 0.9924928293925483 -0.1223028356350497
28.995402815113252 0.9917144054474891 -0.12846220466710498
30.46732297978897 0.9908556217695643 -0.13492641256496088
32.01396357463073 0.9899082599970098 -0.1417096919398689
33.639117701205976 0.9888632781468932 -0.1488268024670964
35.346771013768375 0.9877107317499625 -0.15629302731073305
37.14111149398487 0.9864396882399761 -0.164124164780872
39.02653972186847 0.9850381342026577 -0.17233651431587815
41.007679668101424 0.9834928751106662 -0.18094685575205635
43.08939003422142 0.9817894272052149 -0.18997242070378542
45.27677616847746 0.9799119012412549 -0.19943085469843727
47.57520258658399 0.9778428778865736 -0.2093401685451301
49.99030612807456 0.9755632746693891 -0.21971867721324473
52.52800978052661 0.9730522045067991 -0.2305849242783634
55.194537205554965 0.9702868260207953 -0.24195758977657797
57.99642800220423 0.9672421860761736 -0.2538553790538713
60.940553745169126 0.9638910552540092 -0.2662968899580176
64.03413483717826 0.9602037573238275 -0.2793004554618632
67.28475821687081 0.9561479942047383 -0.2928839585539907
70.7003959655944 0.9516886684184239 -0.3070646160077178
74.28942485875669 0.9467877056545866 -0.3218587274276155
78.0606469096804 0.941403880797271 -0.3372813858187814
82.02331095634457 0.9354926516118176 -0.35334614584043567
86.1871353439536 0.929006005276475 -0.3700646459204745
90.56233175896193 0.9218923240636065 -0.3874461805626716
95.15963027300754 0.9140962777343806 -0.40549721951223056
99.99030565817345 0.9055587515996507 -0.42422087101094175
105.06620503811381 0.8962168207000031 -0.44361628722847696
110.39977694286274 0.8860037821367069 -0.46367801116663987
116.00410183857353 0.8748492591936731 -0.4843952659639453
121.89292420707302 0.8626793924528144 -0.5057511896547976
128.08068625389578 0.8494171345191691 -0.5277220211297267
134.5825633274698 0.834982666111169 -0.550276246347127
141.41450113632183 0.8192939519625236 -0.5733737178120654
148.5932548555706 0.8022674550225748 -0.5969647649665772
156.13643021862197 0.7838190265996716 -0.62098931837862
164.06252669483658 0.7638649880951863 -0.6453760763789907
172.39098285906442 0.7423234165494198 -0.67004174888017
181.14222406431725 0.7191156410902088 -0.6948904192312758
190.33771253449305 0.6941679503009526 -0.7198130707169567
200.0 0.667413501344937 -0.744687329167411
