! Created with skrf 1.8.0 (http://scikit-rf.org).
# MHz S RI R 50.0 
!freq ReS11 ImS11 ReS21 ImS21 ReS12 ImS12 ReS22 ImS22
0.01 3.732907905380018e-05 -0.00010945641074379381 0.9999626464036417 -0.00011296815586647155 0.9999626464036403 -0.00011296815565590626 3.732863912833164e-05 -0.00010945641048352932
0.01050763915026853 3.732781467616619e-05 -0.00011501268677166238 0.9999626451157221 -0.00011870271052546385 0.999962645115722 -0.00011870271022543147 3.7327328952576215e-05 -0.00011501268641397113
0.011041048051225594 3.7326418516823405e-05 -0.00012085166254059144 0.9999626436935706 -0.00012472900158863278 0.9999626436935707 -0.00012472900183888746 3.732588222623497e-05 -0.00012085166272395263
0.011601534876305412 3.7324877199299395e-05 -0.0001269862891115125 0.9999626421235556 -0.0001310604541381105 0.9999626421235559 -0.000131060454770825 3.7324285079549326e-05 -0.00012698628966662057
0.01219047420694725 3.732317520698951e-05 -0.0001334331478371672 0.9999626403898763 -0.00013771413899579961 0.999962640389877 -0.00013771413895957783 3.73225214418486e-05 -0.00013343314771090923
0.012809310403725764 3.732129633023875e-05 -0.00014020617968935135 0.9999626384760187 -0.00014470449000691946 0.9999626384760186 -0.00014470448965345624 3.7320574509842106e-05 -0.00014020617923143363
0.013459561148613082 3.7319221783441174e-05 -0.00014732330486375757 0.9999626363628462 -0.00015204996632542584 0.9999626363628467 -0.0001520499664275496 3.7318424819303715e-05 -0.00014732330484469835
0.014142821167060008 3.7316930936264985e-05 -0.0001548027983991181 0.9999626340293489 -0.00015976940152451628 0.9999626340293497 -0.00015976940160692863 3.731605099828834e-05 -0.00015480279834093795
0.014860766139024621 3.731440199490947e-05 -0.00016266073497618215 0.9999626314533228 -0.00016787946235290402 0.9999626314533229 -0.00016787946229733633 3.731343045444175e-05 -0.00016266073475750665
0.015615156808540002 3.731160951509808e-05 -0.00017091836014858955 0.9999626286088533 -0.00017640201279907675 0.9999626286088519 -0.00017640201296691667 3.73105368297305e-05 -0.0001709183601271988
0.01640784330189971 3.7308526580447265e-05 -0.00017959445226472075 0.9999626254685177 -0.0001853564741564115 0.9999626254685191 -0.00018535647401393522 3.730734222612945e-05 -0.00017959445190270828
0.017240769665051267 3.730512240356586e-05 -0.00018871176683181627 0.999962622000964 -0.0001947662922482335 0.9999626220009636 -0.00019476629222566868 3.730381475036311e-05 -0.00018871176655455517
0.018115978631325472 3.730136417384652e-05 -0.0001982910463212194 0.9999626181727607 -0.00020465292543498588 0.999962618172761 -0.00020465292564344416 3.729992039044939e-05 -0.00019829104623419214
0.019035616631194404 3.729721460813667e-05 -0.00020835683794968163 0.9999626139459369 -0.00021504166746033943 0.9999626139459366 -0.00021504166731142396 3.7295620521940486e-05 -0.0002083568374579584
0.020001939056344106 3.7292632712991213e-05 -0.00021893438806789374 0.9999626092787376 -0.00022595856630244106 0.9999626092787374 -0.0002259585663236199 3.729087267017822e-05 -0.00021893438769136114
0.021017315790972647 3.7287574151010735e-05 -0.0002300481571496156 0.9999626041259932 -0.0002374289115277893 0.9999626041259932 -0.00023742891150155203 3.728563088046956e-05 -0.0002300481566619725
0.022084237023878118 3.728198867382447e-05 -0.00024172672253725824 0.9999625984365261 -0.0002494821512938557 0.9999625984365247 -0.0002494821511886058 3.727984309314261e-05 -0.00024172672189670466
0.02320531935559115 3.727582205787825e-05 -0.00025399745278590263 0.9999625921550991 -0.0002621465778708335 0.9999625921550986 -0.0002621465778179676 3.727345311836918e-05 -0.0002539974521120042
0.024383312215529362 3.726901347043908e-05 -0.00026689110689104306 0.9999625852197455 -0.00027545391473698483 0.9999625852197447 -0.00027545391457795384 3.72663979119544e-05 -0.0002668911060115195
0.02562110460491172 3.726149598296566e-05 -0.0002804394660261958 0.9999625775622968 -0.0002894369544417132 0.9999625775622968 -0.00028943695430047416 3.7258608135811966e-05 -0.00028043946504907586
0.02692173218196957 3.7253195779312023e-05 -0.0002946757829503207 0.999962569107559 -0.00030413001962202645 0.9999625691075589 -0.00030413001954560255 3.7250007292284565e-05 -0.0002946757819041459
0.02828838470683077 3.724403159732504e-05 -0.00030963460560445936 0.9999625597727563 -0.0003195687750105198 0.9999625597727558 -0.0003195687752041961 3.7240511173953524e-05 -0.0003096346046730762
0.029724413864335254 3.723391324957091e-05 -0.0003253529969376267 0.9999625494660247 -0.0003357914643297746 0.9999625494660244 -0.0003357914643035687 3.723002633304885e-05 -0.00032535299560617844
0.031233341483967378 3.722274147056806e-05 -0.0003418694028094922 0.9999625380862482 -0.00035283776640650515 0.9999625380862481 -0.00035283776636460995 3.7218449902704476e-05 -0.0003418694012533133
0.03281886817706418 3.721040708159062e-05 -0.00035922364349057505 0.9999625255222137 -0.0003707488058349484 0.9999625255222131 -0.00037074880589708356 3.7205668746802937e-05 -0.00035922364179591273
0.034484882412482154 3.719678817164385e-05 -0.0003774594671724099 0.999962511649746 -0.00038956969201544737 0.9999625116497458 -0.0003895696920524148 3.7191556550559955e-05 -0.0003774594651712201
0.03623547005298042 3.718175172856631e-05 -0.0003966206753414444 0.9999624963333505 -0.00040934566250268263 0.9999624963333508 -0.00040934566254146546 3.7175975471458745e-05 -0.0003966206730156529
0.03807492437570799 3.716514969545846e-05 -0.00041675485327319426 0.9999624794222187 -0.00043012581094886015 0.9999624794222185 -0.00043012581098665273 3.715877209920193e-05 -0.000416754850567715
0.04000775660137028 3.71468194459213e-05 -0.00043791095871939566 0.9999624607506938 -0.0004519606777330179 0.9999624607506944 -0.00045196067790649505 3.713977791173192e-05 -0.0004379109557102567
0.04203870695789726 3.712658097893427e-05 -0.0004601409778098059 0.9999624401354237 -0.0004749039144109218 0.9999624401354229 -0.0004749039144580926 3.71188063872603e-05 -0.00046014097416465465
0.04417275630574673 3.710423562390677e-05 -0.00048349944595615837 0.9999624173740381 -0.0004990118065769538 0.9999624173740382 -0.0004990118065527322 3.709565166168607e-05 -0.00048349944164827744
0.04641513835335354 3.7079563904287335e-05 -0.0005080437877397638 0.999962392242976 -0.0005243436171211333 0.9999623922429763 -0.000524343617075642 3.7070086310112265e-05 -0.0005080437827245695
0.0487713524926828 3.70523238193505e-05 -0.0005338340197962928 0.9999623644957317 -0.0005509612918570731 0.9999623644957313 -0.0005509612918147542 3.7041859565284564e-05 -0.0005338340139883585
0.051247177286366054 3.702224787985561e-05 -0.0005609334961017174 0.9999623338598317 -0.0005789302147028907 0.9999623338598309 -0.0005789302148220948 3.701069424465556e-05 -0.0005609334895319215
0.0538486846394972 3.6989040715370766e-05 -0.0005894087931548336 0.9999623000344119 -0.0006083190956848113 0.9999623000344118 -0.0006083190958369674 3.6976284289643516e-05 -0.0005894087855467196
0.05658225469084444 3.6952376787421584e-05 -0.000619329390196583 0.9999622626878685 -0.0006391996533835487 0.9999622626878684 -0.0006391996533971592 3.693829235935006e-05 -0.0006193293812070923
0.05945459145999823 3.691189597836692e-05 -0.0006507688696046749 0.999962221453379 -0.0006716478246148599 0.9999622214533794 -0.0006716478245749882 3.6896345294898564e-05 -0.0006507688591198259
0.062472739288829834 3.686720072797272e-05 -0.0006838044827123289 0.9999621759259857 -0.000705743335167738 0.9999621759259869 -0.0007057433351069863 3.6850031143344645e-05 -0.0006838044705337985
0.06564410011758287 3.6817852693473105e-05 -0.0007185169659235509 0.999962125659181 -0.0007415695194431275 0.9999621256591801 -0.0007415695194440357 3.679889567572024e-05 -0.0007185169518659808
0.06897645163796594 3.6763367099241766e-05 -0.0007549917177785159 0.9999620701591657 -0.0007792145083469444 0.999962070159167 -0.0007792145083254578 3.6742436566697027e-05 -0.0007549917014470353
0.07247796636776961 3.67032095069325e-05 -0.0007933179328165148 0.9999620088815476 -0.0008187703668185187 0.9999620088815474 -0.0008187703668283195 3.66801000067564e-05 -0.000793317913904223
0.07615723169378218 3.6636789107535554e-05 -0.000833589804139597 0.9999619412245221 -0.0008603343018862191 0.999961941224522 -0.0008603343019023221 3.661127379968893e-05 -0.00083358978220317
0.08002327093216569 3.656345380895861e-05 -0.0008759061531520348 0.9999618665238563 -0.0009040083049519443 0.9999618665238554 -0.000904008304967769 3.653528223173063e-05 -0.0008759061276995494
0.08408556545793698 3.648248433746928e-05 -0.0009203704278502333 0.9999617840468803 -0.0009498991535539373 0.9999617840468803 -0.0009498991535474696 3.6451379969722875e-05 -0.000920370398296624
0.08835407795782858 3.639308544945498e-05 -0.0009670919370462262 0.9999616929835481 -0.000998119655297061 0.9999616929835476 -0.0009981196553192704 3.635874297051523e-05 -0.0009670919027892196
0.09283927686355573 3.629437975186812e-05 -0.0010161851874713416 0.9999615924401297 -0.0010487879921099988 0.9999615924401294 -0.001048787992142054 3.625646205885562e-05 -0.0010161851477342488
0.09755216202541175 3.6185398155143336e-05 -0.0010677706735935295 0.9999614814294964 -0.0011020285216977498 0.9999614814294964 -0.0011020285217271057 3.614353305169081e-05 -0.0010677706274845693
0.10250429168915555 3.60650713667523e-05 -0.0011219746914409618 0.9999613588624419 -0.0011579715998728771 0.9999613588624406 -0.0011579715998753398 3.601884791208026e-05 -0.0011219746379159097
0.10770781084235159 3.593221781928378e-05 -0.0011789303805103152 0.9999612235354061 -0.001216754630227315 0.9999612235354056 -0.0012167546302343107 3.588118228993817e-05 -0.001178930318417187
0.11317548099968108 3.578553355287384e-05 -0.0012387773650303442 0.999961074120148 -0.0012785217179745352 0.9999610741201471 -0.0012785217179865963 3.572918498668043e-05 -0.001238777292996736
0.11892071150027211 3.562357901063624e-05 -0.0013016623045708716 0.9999609091503063 -0.0013434242331730902 0.9999609091503068 -0.0013434242331452828 3.5561364298146534e-05 -0.0013016622209590443
0.12495759239380483 3.544476416950737e-05 -0.0013677395387016503 0.9999607270062617 -0.001411621461640694 0.9999607270062602 -0.0014116214616605918 3.537607262062053e-05 -0.001367739441751277
0.13130092899604406 3.524733393560129e-05 -0.0014371710671266288 0.9999605259002367 -0.0014832806022587546 0.9999605259002365 -0.0014832806022485208 3.517149128022314e-05 -0.0014371709546160156
0.1379662781985461 3.502935038220275e-05 -0.0015101271567401918 0.9999603038582271 -0.0015585773868088788 0.9999603038582274 -0.0015585773867984067 3.4945612160653675e-05 -0.001510127026212039
0.14496998662158825 3.478867386026492e-05 -0.0015867867126133528 0.999960058700748 -0.0016376964593165975 0.9999600587007483 -0.0016376964593118922 3.469621811239476e-05 -0.0015867865611881489
0.15232923070389057 3.4522941476165575e-05 -0.0016673378711014205 0.9999597880209161 -0.0017208319873728227 0.9999597880209161 -0.0017208319873992925 3.4420860662812895e-05 -0.0016673376954568972
0.16006205882744876 3.422954570883087e-05 -0.0017519779123964065 0.9999594891626535 -0.0018081875900199395 0.999959489162653 -0.0018081875900247478 3.411683782586512e-05 -0.0017519777085959634
0.1681874355807885 3.390560593389917e-05 -0.0018409146122538166 0.999959159191715 -0.0018999777022354115 0.9999591591917145 -0.0018999777022428062 3.378116465986532e-05 -0.0018409143758159106
0.17672528826919598 3.35479428529132e-05 -0.0019343659542791843 0.9999587948696013 -0.001996427305126272 0.9999587948696005 -0.0019964273051200038 3.341054669350253e-05 -0.0019343656799601693
0.1856965557859895 3.315304558641664e-05 -0.0020325611497903615 0.9999583926200692 -0.0020977729627367635 0.9999583926200682 -0.002097772962737103 3.3001345884626263e-05 -0.0020325608315459286
0.19512323996468875 3.271703795875871e-05 -0.0021357409920732856 0.9999579484947779 -0.0022042631945185503 0.9999579484947771 -0.0022042631945370997 3.25495456638297e-05 -0.0021357406228792106
0.20502845953802087 3.2235640521909355e-05 -0.00224415844313213 0.9999574581345998 -0.0023161590811173307 0.9999574581345995 -0.0023161590811321122 3.2050711569256e-05 -0.0022441580148038183
0.2154365068360951 3.17041274697929e-05 -0.0023580794934814726 0.9999569167257492 -0.0024337351425797547 0.9999569167257467 -0.0024337351425721236 3.149994663316663e-05 -0.0023580789965303587
0.22637290736280513 3.1117282130025214e-05 -0.0024777833943662605 0.999956318954422 -0.002557279593443748 0.9999563189544217 -0.002557279593435762 3.089184522136894e-05 -0.0024777828178278853
0.23786448239655172 3.0469344264331536e-05 -0.0026035636807965165 0.999955658953137 -0.002687095387096309 0.9999556589531359 -0.002687095387081942 3.022043845417428e-05 -0.0026035630119188385
0.24993941476883716 2.9753953641651708e-05 -0.0027357288470511226 0.9999549302432504 -0.0028235009136688962 0.9999549302432492 -0.002823500913663723 2.947913573578368e-05 -0.0027357280710623706
0.2626273179820232 2.89640887587383e-05 -0.002874602890118167 0.999954125672528 -0.002966830568401384 0.9999541256725277 -0.0029668305683997606 2.8660661232671794e-05 -0.0028746019898571867
0.2759593088357935 2.809199661670292e-05 -0.003020526352812845 0.9999532373436252 -0.003117435820221168 0.999953237343623 -0.003117435820204095 2.7756981123554812e-05 -0.003020525308357639
0.28996808374040284 2.712911707479371e-05 -0.003173857064522723 0.9999522565370281 -0.003275685979713777 0.9999522565370266 -0.0032756859797105154 2.675922521963409e-05 -0.003173855852812052
0.3046879989039 2.6065999248083788e-05 -0.0033349709562595655 0.9999511736258931 -0.003441969040266558 0.9999511736258917 -0.003441969040260633 2.5657600313397952e-05 -0.0033349695504885195
0.32015515458995947 2.4892208596877816e-05 -0.0035042630144524597 0.9999499779814036 -0.0036166926637548006 0.9999499779814005 -0.003616692663755706 2.4441293907742364e-05 -0.0035042613835519444
0.3364074836529731 2.3596223590309745e-05 -0.0036821483772437953 0.9999486578675267 -0.003800285307498824 0.9999486578675264 -0.0038002853075093782 2.3098367171388225e-05 -0.0036821464851607734
0.3534848445675301 2.2165324149685706e-05 -0.003869063134450522 0.9999472003273553 -0.003993197055470764 0.9999472003273523 -0.003993197055471463 2.161563927953557e-05 -0.0038690609393353262
0.37142911918043653 2.0585465868010364e-05 -0.004065465531411713 0.9999455910550024 -0.004195900857458053 0.9999455910549995 -0.004195900857453277 1.9978557135403205e-05 -0.004065462984739515
0.3902843154250111 1.884114239734574e-05 -0.004271837061108041 0.9999438142554185 -0.004408893657307418 0.9999438142554158 -0.004408893657303285 1.8171052733946203e-05 -0.004271834106583851
0.4100966752495598 1.6915233282000725e-05 -0.0044886836404730715 0.9999418524893986 -0.004632697606144949 0.9999418524893966 -0.004632697606142999 1.61753855076652e-05 -0.004488680212780806
0.43091478802472344 1.4788836345485132e-05 -0.0047165368068131435 0.9999396865028396 -0.0048678612994994454 0.9999396865028347 -0.0048678612994939655 1.3971968621744315e-05 -0.004716532830169065
0.4527897097078248 1.2441081433038477e-05 -0.004955955103166971 0.9999372950370243 -0.005114961204577592 0.9999372950370201 -0.005114961204582836 1.1539176001136084e-05 -0.004955950489671652
0.47577508805646623 9.84892670370066e-06 -0.005207525332021919 0.9999346546211136 -0.005374602955839121 0.9999346546211082 -0.005374602955842959 8.853131202748493e-06 -0.005207519979670591
0.4999272941984582 6.986931084735335e-06 -0.0054718641339152356 0.9999317393403719 -0.005647422982566476 0.9999317393403665 -0.005647422982566458 5.88747167434413e-06 -0.005471857924379039
0.5253055608807532 3.827006735736679e-06 -0.005749619296421493 0.9999285205840089 -0.005934089863533256 0.9999285205840025 -0.005934089863529928 2.6130922017735245e-06 -0.005749612092425334
0.5519721277364371 3.3814175127826693e-07 -0.006041471501396804 0.9999249667627381 -0.006235306126963093 0.9999249667627312 -0.006235306126951264 -1.0021423796395416e-06 -0.006041463143676059
0.5799923939260409 -3.5139032343064404e-06 -0.006348135908673127 0.9999210429997182 -0.006551809886412539 0.9999210429997129 -0.006551809886419771 -4.993711605626809e-06 -0.006348126212491694
0.6094350785275234 -7.766930920551364e-06 -0.006670363903077357 0.9999167107884326 -0.006884376644673789 0.9999167107884269 -0.006884376644678833 -9.40078741280524e-06 -0.0066703526540620416
0.6403723890682781 -1.2462678238405753e-05 -0.007008944934837478 0.9999119276148859 -0.0072338211924328055 0.9999119276148801 -0.007233821192430177 -1.4266618459542485e-05 -0.007008931884304502
0.672880198612483 -1.764722505718757e-05 -0.0073647083980755874 0.9999066465412827 -0.00760099954870165 0.9999066465412749 -0.00760099954869798 -1.963895365477411e-05 -0.007364693257530387
0.7070382318380991 -2.337144731861929e-05 -0.007738525735955428 0.9999008157444669 -0.007986811131241254 0.999900815744459 -0.007986811131236933 -2.5570511676417363e-05 -0.007738508170697277
0.7429302605598647 -2.9691514405147646e-05 -0.008131312454150578 0.9998943780092853 -0.008392200837729583 0.999894378009277 -0.008392200837723778 -3.211949638254677e-05 -0.008131292075880063
0.7806443091778051 -3.6669439941547985e-05 -0.008544030358064433 0.9998872701675305 -0.008818161354807657 0.9998872701675201 -0.008818161354802985 -3.935016755077477e-05 -0.008544006716306111
0.8202728705551018 -4.4373690529839726e-05 -0.008977689935493395 0.9998794224778766 -0.009265735615578224 0.9998794224778644 -0.009265735615579012 -4.733347165592077e-05 -0.008977662507637717
0.8619131328547955 -5.2879855908534876e-05 -0.009433352746677464 0.9998707579432448 -0.009736019269187228 0.9998707579432324 -0.009736019269192753 -5.614773629811028e-05 -0.009433320926424156
0.9056672178915632 -6.227138989368091e-05 -0.009912134003776512 0.9998611915560602 -0.010230163342276926 0.9998611915560471 -0.010230163342280283 -6.587943799526756e-05 -0.009912097087734321
0.9516424315832187 -7.264042748704778e-05 -0.010415205233514512 0.9998506294659358 -0.01074937698894236 0.9998506294659206 -0.010749376988944228 -7.662404887293249e-05 -0.010415162405671268
0.999951527116057 -8.40886874893787e-05 -0.010943797106267403 0.999838968060249 -0.011294930411061287 0.9998389680602309 -0.011294930411065439 -8.848697197239899e-05 -0.010943747419953513
1.0507129814695484 -9.67284687890127e-05 -0.011499202398647728 0.9998260929493117 -0.011868157916436207 0.999826092949292 -0.011868157916434793 -0.00010158457361175248 -0.011499144755603128
1.1040512859784777 -0.00011068374949567245 -0.012082779074837577 0.9998118778467684 -0.012470461100460897 0.9998118778467475 -0.01247046110046552 -0.00011604532233349576 -0.012082712200976495
1.1600972516451793 -0.0001260913999476814 -0.012695953513015916 0.9997961833340059 -0.013103312178003526 0.9997961833339821 -0.013103312178003215 -0.0001320110458417428 -0.012695875930235119
1.2189883299505808 -0.00014310252181734217 -0.013340223901633115 0.9997788554961091 -0.01376825748985582 0.9997788554960839 -0.013768257489858013 -0.00014963831860818303 -0.013340133895198112
1.2808689499509174 -0.00016188392647205268 -0.014017163812320042 0.9997597244159917 -0.014466921191813784 0.9997597244159631 -0.01446692119181222 -0.00016909999375235986 -0.014017059392952808
1.3458908724867602 -0.00018261976463162304 -0.014728425874339483 0.999738602514377 -0.015201009050143141 0.9997386025143457 -0.015201009050141982 -0.00019058689174031732 -0.014728304734301822
1.4142135623730951 -0.00020551332691702256 -0.015475745699682296 0.9997152827157404 -0.015972312494170936 0.9997152827157051 -0.01597231249416849 -0.00021430966612185888 -0.01547560516178826
1.486004579483226 -0.00023078902952883363 -0.016260945944941485 0.999689536425664 -0.0167827128112304 0.9996895364256263 -0.016782712811229894 -0.00024050086109852058 -0.01626078290344305
