! Created with skrf 1.8.0 (http://scikit-rf.org).
# MHz S RI R 50.0 
!freq ReS11 ImS11 ReS12 ImS12 ReS13 ImS13
! ReS21 ImS21 ReS22 ImS22 ReS23 ImS23
! ReS31 ImS31 ReS32 ImS32 ReS33 ImS33
!
0.01 -0.3333333952909243 -0.00020259011894925046 0.6666666043996141 -0.000204549456998466 0.666666604418322 -0.00020452926561507023
 0.666666604399618 -0.00020454945698159682 -0.3333333959061714 -0.00020267920948420143 0.6666666041109479 -0.000204440174813919
 0.6666666044183184 -0.00020452926567545273 0.6666666041109404 -0.00020444017472817555 -0.33333339586887484 -0.00020269940089327033
0.01050763915026853 -0.3333334017407586 -0.00021287399650682105 0.6666665979175651 -0.0002149327976692863 0.66666659793822 -0.00021491158099633712
 0.6666665979175688 -0.0002149327974679532 -0.3333334024200532 -0.00021296760933024194 0.6666665975988477 -0.00021481796804584692
 0.6666665979382163 -0.00021491158122075314 0.6666665975988398 -0.00021481796778860797 -0.3333334023788742 -0.0002129888258546141
0.011041048051225594 -0.33333340886253143 -0.00022368065647998455 0.666666590760221 -0.00022584397101204772 0.6666665907830266 -0.00022582167755773297
 0.6666665907602249 -0.00022584397089452728 -0.33333340961254593 -0.00022377902164470362 0.666666590408323 -0.00022572331212953527
 0.666666590783022 -0.00022582167765798007 0.6666665904083144 -0.00022572331204379295 -0.3333334095670798 -0.0002238013149901191
0.011601534876305412 -0.33333341672519606 -0.000235035153928548 0.6666665828582838 -0.00023730828622445975 0.6666665828834639 -0.0002372848607669069
 0.6666665828582887 -0.00023730828592259188 -0.33333341755328877 -0.00023513851209954376 0.666666582469753 -0.00023718150245576384
 0.6666665828834588 -0.00023728486107608258 0.6666665824697426 -0.00023718150211277892 -0.3333334175030891 -0.00023516193731586713
0.01219047420694725 -0.33333342540689664 -0.00024696673584922025 0.6666665741332207 -0.0002493552612949864 0.6666665741610218 -0.0002493306469830845
 0.6666665741332264 -0.0002493552613720685 -0.3333334263211991 -0.0002470753410945544 0.666666573704241 -0.0002492220411478616
 0.6666665741610166 -0.000249330646950948 0.6666665737042299 -0.0002492220412336179 -0.3333334262657742 -0.0002470999554610443
0.012809310403725764 -0.3333334349918029 -0.00025950322755458424 0.6666665645004393 -0.0002620130038657028 0.6666665645311347 -0.00026198714024689215
 0.6666665645004456 -0.0002620130039828485 -0.3333334360012866 -0.0002596173460350486 0.6666665640268017 -0.0002618730210543498
 0.6666665645311293 -0.0002619871401361728 0.66666656402679 -0.0002618730211401073 -0.33333343594009135 -0.0002596432098320778
0.013459561148613082 -0.3333334455751226 -0.000272676849692683 0.6666665538642593 -0.00027531403259989997 0.6666665538981503 -0.0002752868561775317
 0.6666665538642657 -0.00027531403259442344 -0.3333334466896996 -0.00027279676162754224 0.6666665533413133 -0.0002751669435579347
 0.6666665538981438 -0.0002752868561272587 0.6666665533413001 -0.00027516694355794567 -0.3333334466221333 -0.00027282393813659076
0.014142821167060008 -0.3333334572603578 -0.0002865193696041825 0.6666665421206593 -0.00028929042595222243 0.6666665421580795 -0.0002892618699283073
 0.6666665421206674 -0.0002892904261160337 -0.3333334584909694 -0.0002866453683497481 0.666666541543272 -0.000289135870218174
 0.6666665421580725 -0.00028926186971775465 0.6666665415432571 -0.0002891358703896829 -0.33333345841636897 -0.00028667392462512254
0.014860766139024621 -0.33333347016130654 -0.00030106371449193297 0.6666665291552735 -0.00030397544079053146 0.6666665291965885 -0.000303945435022859
 0.6666665291552817 -0.0003039754406835876 -0.33333347152002807 -0.0003011961099147762 0.6666665285177777 -0.00030381303877796223
 0.6666665291965804 -0.00030394543507161433 0.666666528517762 -0.00030381303869222846 -0.3333334714376616 -0.00030122611566887116
0.015615156808540002 -0.3333334844058331 -0.00031634696574875637 0.6666665148395986 -0.00031940650191430596 0.6666665148852149 -0.0003193749731736806
 0.6666665148396076 -0.00031940650214398167 -0.33333348590600537 -0.00031648608146035023 0.6666665141357363 -0.00031923585615462985
 0.6666665148852075 -0.00031937497289114377 0.6666665141357192 -0.0003192358564118902 -0.33333348581506334 -0.00031651761052134885
0.01640784330189971 -0.33333350013358687 -0.000332406352848456 0.6666664990332901 -0.000335621203384423 0.666666499083655 -0.00033558807372544366
 0.6666664990333 -0.0003356212033760968 -0.3333335017899361 -0.0003325525307070379 0.6666664982561514 -0.00033544189462479413
 0.6666664990836455 -0.00033558807374035155 0.6666664982561314 -0.0003354418946248138 -0.33333350168952763 -0.00033258566041865974
0.017240769665051267 -0.33333351749790713 -0.0003492802264853267 0.6666664815822392 -0.00035265827531515094 0.6666664816378476 -0.0003526234640912755
 0.6666664815822505 -0.00035265827524384047 -0.3333335193266868 -0.00034943382475015127 0.6666664807241979 -0.00035246986444711665
 0.666666481637837 -0.00035262346411039485 0.6666664807241766 -0.00035246986436139084 -0.3333335192158253 -0.0003494686360573739
0.018115978631325472 -0.3333335366706293 -0.00036701132997133876 0.6666664623137543 -0.0003705608618569399 0.6666664623751519 -0.000370524282890793
 0.6666664623137666 -0.0003705608615520432 -0.33333353868979687 -0.0003671727252984642 0.6666664613663855 -0.0003703628861855898
 0.6666664623751408 -0.0003705242831761578 0.6666664613663624 -0.00037036288592837103 -0.33333353856739323 -0.0003672093040337223
0.019035616631194404 -0.33333355783889707 -0.00038564215004317114 0.6666664410397574 -0.0003893718700269099 0.6666664411075467 -0.00038933343471862997
 0.6666664410397702 -0.0003893718700465381 -0.3333335600682682 -0.0003858117384692795 0.6666664399937634 -0.00038916384432038627
 0.6666664411075337 -0.0003893334346967074 0.6666664399937373 -0.00038916384436329054 -0.3333335599331216 -0.0003858501738947203
0.020001939056344106 -0.33333358121094403 -0.00040521879824730766 0.6666664175509733 -0.0004091378533140532 0.6666664176258197 -0.00040909746665399786
 0.6666664175509877 -0.0004091378532206573 -0.33333358367240257 -0.0004053969953708386 0.6666664163960865 -0.00040891926735865593
 0.6666664176258053 -0.0004090974667499585 0.666666416396058 -0.0004089192672729422 -0.3333335835231875 -0.0004054373820647454
0.021017315790972647 -0.33333360701635917 -0.0004257894115605156 0.6666663916166667 -0.00042990741298942926 0.6666663916993053 -0.00042986497630208493
 0.6666663916166831 -0.0004299074130089378 -0.333333609734069 -0.0004259766544627743 0.6666663903415505 -0.00042967773075232833
 0.6666663916992893 -0.00042986497625489226 0.6666663903415186 -0.00042967773075236904 -0.33333360956931885 -0.000426019091376293
0.022084237023878118 -0.3333336355080681 -0.000447404132654911 0.6666663629826491 -0.00045173117995735043 0.6666663630738909 -0.00045168658901486203
 0.666666362982667 -0.0004517311798948208 -0.3333336385087041 -0.0004476008806417331 0.6666663615747871 -0.0004514898380416975
 0.6666663630738736 -0.0004516865891082439 0.6666663615747521 -0.0004514898379559961 -0.3333336383268033 -0.00044764547169907345
0.02320531935559115 -0.3333336669656991 -0.00047011595789466957 0.6666663313678954 -0.0004746626628407122 0.6666663314686352 -0.00047461580835590246
 0.6666663313679154 -0.0004746626629012936 -0.33333367027871436 -0.0004703226932621586 0.6666663298134686 -0.0004744090693906766
 0.6666663314686162 -0.0004746158082887013 0.6666663298134298 -0.00047440906947647965 -0.33333367007787734 -0.00047036954800364625
0.024383312215529362 -0.33333370169859045 -0.0004939809783557279 0.666666296461523 -0.0004987584919336185 0.6666662965727503 -0.0004987092586810437
 0.6666662964615446 -0.0004987584918113736 -0.33333370535650725 -0.0004941982083308157 0.6666662947452722 -0.0004984920247245544
 0.6666662965727292 -0.0004987092587784966 0.6666662947452299 -0.0004984920246388694 -0.3333337051347621 -0.0004942474416984616
0.02562110460491172 -0.33333374004733785 -0.0005190574701665228 0.6666662579212346 -0.0005240775088239399 0.6666662580440412 -0.0005240257766473896
 0.6666662579212586 -0.0005240775089240644 -0.33333374408606203 -0.0005192857272930169 0.6666662560263139 -0.0005237975146599108
 0.6666662580440179 -0.0005240257765754149 0.6666662560262667 -0.0005237975147457328 -0.33333374384123177 -0.0005193374598448197
0.02692173218196957 -0.33333378238798916 -0.0005454067017714859 0.6666662153691022 -0.0005506815771176141 0.6666662155046937 -0.0005506272184862586
 0.6666662153691288 -0.0005506815769399355 -0.3333337868471632 -0.000545646545677177 0.6666662132769117 -0.0005503873692349199
 0.666666215504668 -0.0005506272185935089 0.6666662132768595 -0.000550387369106383 -0.33333378657684504 -0.0005457009044873961
0.02828838470683077 -0.33333382913656123 -0.0005730935591078076 0.6666661683870337 -0.0005786362073014641 0.6666661685367401 -0.0005785790895178109
 0.6666661683870632 -0.0005786362072468003 -0.3333338340599543 -0.0005733455781072561 0.6666661660770369 -0.0005783270641651243
 0.666666168536712 -0.0005785790895339505 0.6666661660769795 -0.000578327064165224 -0.3333338337614953 -0.0005734026962089525
0.029724413864335254 -0.3333338807518967 -0.0006021859182605776 0.6666661165138933 -0.0006080099329161849 0.6666661166791854 -0.0006079499156293392
 0.6666661165139256 -0.0006080099328540574 -0.3333338861878378 -0.0006024507303165245 0.6666661139634157 -0.0006076850962013716
 0.666666116679154 -0.0006079499156769045 0.6666661139633517 -0.000607685096115739 -0.33333388585830676 -0.0006025107480305487
0.031233341483967378 -0.33333393774111647 -0.0006327553724225139 0.6666660592400282 -0.0006388750368489097 0.6666660594225279 -0.0006388119727190532
 0.6666660592400637 -0.000638875036746553 -0.3333339437429665 -0.0006330336268329501 0.6666660564240324 -0.0006385337097862151
 0.6666660594224931 -0.0006388119728066728 0.6666660564239624 -0.0006385337097006001 -0.33333394337913047 -0.000633096691381952
0.03281886817706418 -0.3333340006627525 -0.0006648764218593257 0.6666659960041151 -0.0006713067440084652 0.666665996205614 -0.0006712404786424716
 0.666665996004154 -0.0006713067439943612 -0.33333400728942353 -0.0006651688009099227 0.6666659928949608 -0.0006709480895999353
 0.6666659962055758 -0.0006712404786216677 0.6666659928948834 -0.0006709480896000896 -0.3333340068877104 -0.0006652350668898111
0.034484882412482154 -0.3333340701345562 -0.0006986279277199159 0.6666659261853172 -0.0007053846777869831 0.6666659264077924 -0.000705315048387802
 0.666665926185361 -0.0007053846777505342 -0.3333340774510933 -0.0006989351482216972 0.6666659227524858 -0.0007050078163139317
 0.6666659264077505 -0.000705315048432078 0.6666659227524002 -0.0007050078162712372 -0.3333340770075612 -0.0006990047782874623
0.03623547005298042 -0.33333414683936163 -0.0007340930907394206 0.6666658490973926 -0.0007411928394231509 0.6666658493430287 -0.0007411196752398835
 0.6666658490974406 -0.0007411928392413856 -0.3333341549175863 -0.0007344159060328573 0.6666658453071866 -0.0007407968466605216
 0.6666658493429828 -0.0007411196754503838 0.6666658453070925 -0.0007407968464463578 -0.33333415442787934 -0.0007344890708554864
0.03807492437570799 -0.3333342315290581 -0.00077135839884857 0.6666657639846935 -0.0007788185581443535 0.666665764255902 -0.0007787416799683693
 0.6666657639847468 -0.0007788185580245067 -0.33333424044826304 -0.0007716976005848502 0.6666657597999102 -0.0007784024627273517
 0.6666657642558509 -0.0007787416801061486 0.6666657597998059 -0.0007784024625989705 -0.3333342399075756 -0.0007717744795799717
0.04000775660137028 -0.3333343250354306 -0.0008105154653852896 0.666665670011282 -0.000818354330916629 0.6666656703107247 -0.0008182735502668281
 0.6666656700113405 -0.0008183543307913519 -0.33333433488316594 -0.0008108718852798177 0.6666656653908433 -0.0008179171123706634
 0.6666656703106679 -0.0008182735504136773 0.6666656653907282 -0.0008179171122423203 -0.3333343342861904 -0.0008109526668861051
0.04203870695789726 -0.33333442827618226 -0.0008516602588957622 0.6666655662548696 -0.0008598970552659338 0.6666655665854855 -0.0008598121738740965
 0.6666655662549346 -0.0008598970550928851 -0.3333344391491133 -0.0008520347707030197 0.6666655611534217 -0.0008594376412098884
 0.6666655665854232 -0.0008598121740470646 0.6666655611532948 -0.0008594376410601541 -0.33333443848998895 -0.0008521196531750555
0.04417275630574673 -0.33333454226447184 -0.0008948935970394925 0.6666654516972386 -0.0009035485246598582 0.666665452062273 -0.0009034593345455061
 0.6666654516973097 -0.0009035485245863671 -0.3333345542693227 -0.0008952871190597535 0.666665446064707 -0.0009030657882007204
 0.666665452062204 -0.0009034593345946674 0.6666654460645668 -0.0009030657881582228 -0.3333345535415811 -0.0008953763105748646
0.04641513835335354 -0.3333346681199881 -0.0009403218017572782 0.6666653252131085 -0.000949416086743037 0.6666653256161438 -0.0009493223689269891
 0.6666653252131874 -0.0009494160866815362 -0.3333346813746001 -0.0009407352987431922 0.666665318994204 -0.0009489088436971357
 0.6666653256160678 -0.0009493223689910593 0.6666653189940491 -0.000948908843633263 -0.3333346805710978 -0.0009408290182156254
0.0487713524926828 -0.33333480707705293 -0.0009880558995212924 0.6666651855619892 -0.0009976118447383479 0.6666651860069827 -0.000997513369585482
 0.6666651855620759 -0.0009976118446581692 -0.33333482171152895 -0.0009884903851226114 0.666665178695669 -0.0009970788512256993
 0.6666651860068987 -0.0009975133696776416 0.6666651786954979 -0.0009970788511404593 -0.33333482082437843 -0.0009885888621816215
0.051247177286366054 -0.3333349605010483 -0.0010382134272697336 0.6666650313716826 -0.0010482544684291262 0.6666650318630019 -0.0010481509943297154
 0.6666650313717788 -0.0010482544683307568 -0.33333497665904344 -0.001038669966603226 0.6666650237905458 -0.0010476944169967221
 0.6666650318629094 -0.0010481509944314305 0.666665023790357 -0.0010476944169115637 -0.3333349756795363 -0.0010387734429001764
0.0538486846394972 -0.3333351298961337 -0.001090916794346217 0.6666648611305135 -0.0011014675568339189 0.6666648616729814 -0.001101358829913906
 0.6666648611306192 -0.0011014675566556442 -0.33333514773624623 -0.0010913965066444674 0.6666648527601472 -0.0011008790735945746
 0.666664861672879 -0.0011013588301086279 0.6666648527599388 -0.00110087907342376 -0.3333351466547678 -0.001091505236045114
0.05658225469084444 -0.3333353169266623 -0.001146295756013478 0.6666646731658172 -0.0011573821149418412 0.6666646737647594 -0.001157267868762341
 0.6666646731659343 -0.001157382114775375 -0.3333353366240131 -0.0011467998172012795 0.6666646639240582 -0.0011567637564629755
 0.6666646737646458 -0.0011572678689174627 0.6666646639238276 -0.00115676375631371 -0.3333353354299468 -0.0011469140663209348
0.05945459145999823 -0.33333552342744427 -0.001204485804256282 0.6666644656336191 -0.0012161349483093232 0.6666644662949132 -0.001216014902687157
 0.6666644656337485 -0.0012161349481273399 -0.333335545175375 -0.001205015449865861 0.6666644554297521 -0.0012154851977692013
 0.666664466294788 -0.0012160149028701385 0.6666644554294975 -0.0012154851975986238 -0.33333554385700287 -0.001205135498904589
0.062472739288829834 -0.33333575142573496 -0.0012656297318090228 0.6666642364965367 -0.0012778702298397839 0.6666642372266751 -0.0012777440904074935
 0.6666642364966797 -0.0012778702296602578 -0.3333357754377209 -0.0012661862599417564 0.6666642252304026 -0.0012771874934363661
 0.6666642372265367 -0.0012777440905923899 0.6666642252301215 -0.0012771874932659374 -0.33333577398209985 -0.0012663124033693066
0.06564410011758287 -0.3333360031599693 -0.0013298775993394929 0.666663983504957 -0.001342739470528938 0.6666639843111056 -0.0013426069278660152
 0.6666639835051148 -0.0013427394703469436 -0.3333360296717102 -0.0013304623740113648 0.6666639710659676 -0.0013420220733047787
 0.6666639843109532 -0.0013426069280509838 0.6666639710656579 -0.0013420220731130805 -0.3333360280645523 -0.0013305949213592006
0.06897645163796594 -0.33333628110096947 -0.0013973869148466887 0.6666637041757164 -0.0014109017019533641 0.666663705065789 -0.001410762431103211
 0.6666637041758904 -0.0014109017017834111 -0.33333631037270073 -0.0013980013690851442 0.6666636904417732 -0.0014101478841396639
 0.6666637050656206 -0.0014107624312819343 0.666663690441431 -0.0014101478839481647 -0.33333630859822955 -0.0013981406454166734
0.07247796636776961 -0.3333365879759677 -0.0014683230043532473 0.6666633957679587 -0.0014825238515021927 0.666663396750691 -0.001482377510953088
 0.6666633957681507 -0.0014825238513271784 -0.3333366202950097 -0.001468968643871272 0.6666633806042533 -0.0014817317638376258
 0.6666633967505053 -0.0014823775111220377 0.6666633806038758 -0.0014817317636677929 -0.3333366183358099 -0.0014691149907878264
0.07615723169378218 -0.3333369267980692 -0.0015428600398509009 0.666663055253531 -0.001557781773758533 0.6666630563385697 -0.001557628004703114
 0.6666630552537429 -0.0015577817736432895 -0.3333369624816607 -0.0015435384467940697 0.6666630385112198 -0.0015569494728426675
 0.6666630563383651 -0.0015576280048198836 0.6666630385108026 -0.0015569494727159779 -0.33333696031849996 -0.001543692223333401
0.08002327093216569 -0.33333730089264124 -0.001621180713034063 0.6666626792904553 -0.001636859928019372 0.6666626804884515 -0.0016366983532710025
 0.6666626792906897 -0.0016368599278146652 -0.3333373402910435 -0.0016218935494584994 0.6666626608052 -0.0016359853719944422
 0.6666626804882245 -0.0016366983534684344 0.666662660804739 -0.001635985371793033 -0.3333373379026888 -0.0016220551328108054
0.08408556545793698 -0.3333377139321048 -0.0017034771709667196 0.6666622641879703 -0.0017199523190703462 0.6666622655106827 -0.0017197825424670001
 0.666662264188229 -0.0017199523188906737 -0.33333775743204336 -0.0017042261831855985 0.6666622437783235 -0.0017190333621397065
 0.6666622655104325 -0.0017197825426434254 0.6666622437778148 -0.0017190333619493744 -0.33333775479505096 -0.0017043959698379387
0.08835407795782858 -0.33333816997010196 -0.0017899510989285133 0.6666618058721848 -0.0018072625839032487 0.6666618073325964 -0.0018070841891591818
 0.6666618058724705 -0.0018072625836797677 -0.3333382179985596 -0.001790738121687429 0.6666617833378112 -0.0018062969713838748
 0.6666618073323206 -0.0018070841893867062 0.6666617833372493 -0.0018062969711510853 -0.33333821508704614 -0.0017909165280639617
0.09283927686355573 -0.33333867348328844 -0.0018808146154262015 0.6666612998440842 -0.001899004892090574 0.6666613014565311 -0.0018988174417335147
 0.6666612998443996 -0.0018990048918990563 -0.33333872651169943 -0.0018816415762928315 0.666661274963793 -0.0018979902545503517
 0.6666613014562267 -0.0018988174419314304 0.6666612749631734 -0.0018979902543501995 -0.33333872329708475 -0.001881829040209215
0.09755216202541175 -0.3333392294135209 -0.0019762904552236395 0.6666607411371267 -0.0019954041333319107 0.6666607429174363 -0.001995207167725744
 0.6666607411374751 -0.0019954041330833006 -0.33333928796239626 -0.0019771593793451053 0.6666607136667013 -0.0019943379810689987
 0.6666607429171 -0.001995207167973596 0.6666607136660165 -0.0019943379808158137 -0.33333928441312677 -0.0019773563606584757
0.10250429168915555 -0.33333984321768184 -0.0020766127579187115 0.6666601242671777 -0.0020966967116130527 0.6666601262328237 -0.0020964897478194106
 0.666660124267562 -0.002096696711327483 -0.3333399078617144 -0.0020775257729072167 0.6666600939369771 -0.0020955764282471197
 0.6666601262324522 -0.0020964897481085256 0.6666600939362215 -0.0020955764279624246 -0.3333399039429538 -0.0020777327549158548
0.10770781084235159 -0.33334052092069405 -0.002182027538042791 0.6666594431792192 -0.002203131020796699 0.6666594453494952 -0.0022029135514468803
 0.6666594431796435 -0.002203131020547873 -0.33334059229440854 -0.00218298687902959 0.6666594096915329 -0.002201953857014018
 0.6666594453490856 -0.0022029135516939734 0.6666594096906988 -0.002201953856751519 -0.3333405879676909 -0.002183204369614588
