! Created with skrf 1.8.0 (http://scikit-rf.org).
# MHz S RI R 50.0 
!freq ReS11 ImS11 ReS12 ImS12 ReS13 ImS13
! ReS21 ImS21 ReS22 ImS22 ReS23 ImS23
! ReS31 ImS31 ReS32 ImS32 ReS33 ImS33
!
0.01 -0.3333334243864431 -0.00024544323855328344 0.6666665751744313 -0.0002480309645386963 0.6666665752042724 -0.0002479428648460611
 0.6666665751744366 -0.0002480309646465509 -0.33333342525879195 -0.00024580175685026017 0.6666665747692518 -0.00024758434595490315
 0.6666665752042686 -0.0002479428647723646 0.6666665747692431 -0.00024758434604065785 -0.33333342519968445 -0.000245889856671792
0.01050763915026853 -0.3333334338651835 -0.00025790247568243513 0.6666665656499776 -0.00026062156510127144 0.6666665656829249 -0.0002605289928818995
 0.6666665656499828 -0.00026062156493041554 -0.33333343482834515 -0.0002582791937085318 0.6666665652026179 -0.0002601522744624478
 0.6666665656829205 -0.00026052899304236974 0.666666565202608 -0.0002601522742909592 -0.3333334347630846 -0.00025837176580646725
0.011041048051225594 -0.33333344433095163 -0.00027099451388890543 0.6666665551337354 -0.00027385163491967855 0.666666555170113 -0.00027375436328477517
 0.6666665551337415 -0.0002738516348521773 -0.33333344539438226 -0.0002713903556747987 0.6666665546398043 -0.00027335852091181213
 0.6666665551701088 -0.0002737543633752369 0.6666665546397937 -0.0002733585208260727 -0.33333344532232767 -0.0002714876272820306
0.011601534876305412 -0.33333345588634794 -0.00028475126648510885 0.6666665435226108 -0.00028775342598424963 0.6666665435627758 -0.0002876512167692195
 0.6666665435226171 -0.00028775342613277877 -0.3333334570604872 -0.00028516720276445666 0.666666542977259 -0.00028723527958193974
 0.6666665435627698 -0.00028765121660192974 0.6666665429772471 -0.0002872352796676982 -0.33333345698093086 -0.0002852694122612337
0.01219047420694725 -0.3333334686447977 -0.0002992064546911876 0.6666665307026306 -0.0003023610158106809 0.6666665307469768 -0.00030225361751718647
 0.6666665307026379 -0.00030236101572264683 -0.3333334699411709 -0.00029964350542612705 0.666666530100505 -0.0003018165659892568
 0.6666665307469714 -0.0003022536175824335 0.6666665301004919 -0.0003018165659035205 -0.3333334698533323 -0.0002997509037120419
0.012809310403725764 -0.3333334827313916 -0.0003143953641647349 0.6666665165481 -0.00031771006318557756 0.6666665165970637 -0.0003175972132967428
 0.6666665165481082 -0.0003177100632747383 -0.3333334841627243 -0.0003148546011017366 0.666666515883291 -0.00031713797524845604
 0.6666665165970564 -0.000317597213193275 0.6666665158832757 -0.00031713797533421866 -0.33333348406574104 -0.0003149674511670051
0.013459561148613082 -0.333333498284317 -0.0003303551687359787 0.6666665009201669 -0.000333838134271674 0.6666665009742273 -0.0003337195557364346
 0.6666665009201764 -0.00033383813427962175 -0.33333349986465666 -0.0003308377181879435 0.6666665001861481 -0.00033323700509070353
 0.6666665009742204 -0.00033371955571986553 0.6666665001861316 -0.00033323700509071995 -0.33333349975757726 -0.00033095629682839263
0.014142821167060008 -0.3333335154566391 -0.0003471254122328656 0.6666664836650276 -0.0003507851873539366 0.666666483724716 -0.00035066058893004235
 0.6666664836650373 -0.00035078518720707156 -0.3333335172015008 -0.00034763245786669693 0.6666664828545932 -0.00035015354206734226
 0.6666664837247078 -0.0003506605890548528 0.6666664828545752 -0.0003501535419816132 -0.3333335170832738 -0.0003477570561982808
0.014860766139024621 -0.33333353441666946 -0.00036474696104610554 0.6666664646135575 -0.00036859252013525653 0.6666664646794599 -0.00036846159664653485
 0.6666664646135688 -0.0003685925199831729 -0.3333335363431807 -0.0003652797459883383 0.6666664637187528 -0.00036792881026032233
 0.6666664646794512 -0.0003684615968044449 0.6666664637187333 -0.00036792881008884746 -0.3333335362126456 -0.0003654106694471729
0.015615156808540002 -0.33333355535011955 -0.00038326268577907447 0.666666443579151 -0.0003873034607766372 0.666666443651913 -0.00038716589114080717
 0.6666664435791629 -0.0003873034608583182 -0.3333335574771872 -0.00038382251699455727 0.6666664425911927 -0.00038660605799196773
 0.6666664436519036 -0.00038716589105558064 0.6666664425911716 -0.0003866060581206146 -0.3333335573330643 -0.00038396008679467657
0.01640784330189971 -0.3333335784632848 -0.0004027187180002909 0.6666664203545167 -0.00040696461825125526 0.6666664204348542 -0.00040682006526558147
 0.6666664203545302 -0.00040696461821433335 -0.3333335808117925 -0.0004033069683238694 0.6666664192637073 -0.0004062318128306944
 0.6666664204348441 -0.0004068200653557439 0.6666664192636836 -0.00040623181274497506 -0.33333358065266394 -0.0004034515214143926
0.017240769665051267 -0.3333336039824585 -0.0004231622636506731 0.6666663947122704 -0.0004276237021039031 0.6666663948009717 -0.0004274718109231993
 0.6666663947122856 -0.00042762370201085117 -0.33333360657545635 -0.0004237803754761868 0.6666663935079031 -0.00042685369669846144
 0.6666663948009602 -0.0004274718110144247 0.666666393507876 -0.00042685369661274735 -0.3333336063997629 -0.00042393226672795707
0.018115978631325472 -0.3333336321581129 -0.00044464346221361915 0.6666663664007325 -0.00044933138129001315 0.6666663664986671 -0.0004491717792551706
 0.6666663664007487 -0.00044933138109067407 -0.3333336350210521 -0.0004452929520092027 0.6666663650709853 -0.00044852228676750674
 0.6666663664986548 -0.00044917177946766495 0.666666365070956 -0.0004485222865960497 -0.33333363482706796 -0.00044545255400046545
0.019035616631194404 -0.33333366326733993 -0.0004672153877255391 0.6666663351414733 -0.0004721412836203182 0.6666663352496048 -0.0004719735801511617
 0.6666663351414919 -0.00047214128374048486 -0.3333336664283259 -0.00046789784801812935 0.6666663336732932 -0.0004712911163839127
 0.6666663352495907 -0.00047197358000904247 0.666666333673261 -0.00047129111651258 -0.3333336662141462 -0.0004680655518492192
0.020001939056344106 -0.33333369761484255 -0.0004909329138991264 0.666666300628321 -0.0004961088673121781 0.666666300747709 -0.000495932650091723
 0.6666663006283416 -0.0004961088671662094 -0.3333337011049015 -0.000491650017999582 0.6666662990072962 -0.0004952155422455126
 0.6666663007476935 -0.0004959326502511541 0.66666629900726 -0.0004952155421169436 -0.33333370086842606 -0.0004918262353080849
0.021017315790972647 -0.3333337355382617 -0.0005158545524821439 0.6666662625220066 -0.0005212932573784645 0.6666662626538239 -0.0005211080949468348
 0.6666662625220295 -0.0005212932573743336 -0.33333373939165223 -0.0005166080594052186 0.6666662607322258 -0.0005203545835128941
 0.6666662626538065 -0.0005211080949779742 0.6666662607321857 -0.0005203545835129556 -0.33333373913055864 -0.0005167932221088168
0.022084237023878118 -0.3333337774098104 -0.0005420413826429263 0.6666662204485226 -0.0005477561774691979 0.6666662205940627 -0.0005475616151506611
 0.6666662204485482 -0.0005477561772931267 -0.3333337816643574 -0.0005428331401956115 0.6666662184724172 -0.0005467698525359584
 0.6666662205940437 -0.0005475616153379024 0.6666662184723735 -0.0005467698523645337 -0.333333781376082 -0.0005430277026787752
0.02320531935559115 -0.3333338236404919 -0.0005695576144680213 0.6666661739948834 -0.0005755625142611096 0.6666661741555738 -0.0005753580754717943
 0.6666661739949108 -0.0005755625142796373 -0.3333338283379592 -0.0005703895642797375 0.6666661718130542 -0.00057452611956456
 0.6666661741555532 -0.0005753580754932998 0.6666661718130061 -0.0005745261195646428 -0.3333338280196727 -0.0005705940034796052
0.024383312215529362 -0.3333338746836089 -0.0005984704465932397 0.6666661227055988 -0.0006047801785448954 0.6666661228830184 -0.0006045653617916901
 0.6666661227056285 -0.0006047801784588978 -0.3333338798701031 -0.0005993446291932206 0.6666661202966317 -0.0006036911722274683
 0.6666661228829943 -0.0006045653618600419 0.6666661202965779 -0.0006036911721418165 -0.3333338795186822 -0.0005995594463575821
0.02562110460491172 -0.33333393104060904 -0.00062885103580881 0.6666660660768027 -0.0006354810744427359 0.6666660662726923 -0.0006352553525730777
 0.6666660660768359 -0.0006354810743664519 -0.33333393676704137 -0.0006297695947792743 0.6666660634170514 -0.0006343367854995403
 0.6666660662726662 -0.0006352553526921069 0.6666660634169919 -0.000634336785413905 -0.3333339363790361 -0.0006299953170959575
0.02692173218196957 -0.33333399326485735 -0.0006607739698162903 0.6666660035524635 -0.000667740574678016 0.6666660037687461 -0.0006675033942797619
 0.6666660035525003 -0.0006677405746280175 -0.33333399958743803 -0.0006617391577074246 0.6666660006158192 -0.0006665381969493174
 0.6666660037687175 -0.0006675033943336833 0.6666660006157547 -0.0006665381968636976 -0.3333339991590394 -0.0006619763387332406
0.02828838470683077 -0.3333340619666446 -0.0006943172856257167 0.6666659345193441 -0.0007016375423650119 0.6666659347581433 -0.0007013883217086
 0.6666659345193848 -0.0007016375423450405 -0.3333340689474353 -0.000695331469596627 0.666665931276982 -0.0007003741267486094
 0.6666659347581113 -0.0007013883217182481 0.6666659312769097 -0.0007003741267487604 -0.3333340684744386 -0.0006955806909725666
0.029724413864335254 -0.33333413782099003 -0.0007295635606047112 0.6666658582991735 -0.0007372554219672487 0.6666658585628322 -0.0007369935500197339
 0.666665858299218 -0.0007372554218450582 -0.3333341455285151 -0.0007306292278654242 0.6666658547192656 -0.0007359278701090185
 0.6666658585627971 -0.0007369935501479577 0.666665854719186 -0.0007359278699805706 -0.3333341450062769 -0.0007308911005602739
0.031233341483967378 -0.3333342215718498 -0.0007665989406270225 0.6666657741444049 -0.0007746812704520179 0.6666657744355119 -0.0007744061049050337
 0.6666657741444543 -0.000774681270433116 -0.33333423008176366 -0.0007677187043129452 0.6666657701918124 -0.0007732863264203129
 0.6666657744354741 -0.0007744061049227615 0.666665770191725 -0.00077328632637764 -0.33333422950515723 -0.0007679938708744983
0.03281886817706418 -0.33333431404185393 -0.0008055144921335698 0.6666656812284424 -0.0008140071120570999 0.6666656815498548 -0.0008137179779765044
 0.6666656812284968 -0.0008140071119552354 -0.33333432343769026 -0.0008066910982979099 0.6666656768643657 -0.0008125413547232204
 0.6666656815498124 -0.0008137179780765673 0.6666656768642687 -0.0008125413546377064 -0.3333343228010579 -0.0008069802334321345
0.034484882412482154 -0.33333441613795584 -0.0008464053520503243 0.6666655786399569 -0.0008553290898542857 0.6666655789948296 -0.0008550252785013385
 0.666665578640017 -0.0008553290898052246 -0.3333344265119414 -0.0008476416861141073 0.6666655738215597 -0.0008537889245426469
 0.6666655789947836 -0.0008550252785544183 0.6666655738214536 -0.0008537889244786059 -0.3333344258090315 -0.0008479454987863843
0.03623547005298042 -0.3333345288628891 -0.0008893720399997277 0.6666654653713796 -0.0008987487810295415 0.6666654657631962 -0.0008984295467956732
 0.6666654653714466 -0.0008987487809178346 -0.33333454031685467 -0.0008906711337391568 0.6666654600513654 -0.0008971304300298896
 0.6666654657631452 -0.0008984295469129915 0.6666654600512474 -0.0008971304299015822 -0.3333345395407698 -0.0008909903694471309
0.03807492437570799 -0.3333346533228397 -0.0009345198093158066 0.6666653403111908 -0.0009443725495844741 0.6666653407437976 -0.0009440371099808421
 0.6666653403112643 -0.0009443725495412182 -0.3333346659692149 -0.0009358848485264351 0.6666653344373394 -0.0009426720439697761
 0.6666653407437412 -0.0009440371100149733 0.6666653344372092 -0.0009426720439272688 -0.33333466511233495 -0.0009362202899222263
0.04000775660137028 -0.3333347907399811 -0.0009819595550296279 0.6666652022313218 -0.000992312458200644 0.6666652027089659 -0.0009919599902784995
 0.6666652022314037 -0.000992312458023205 -0.3333348047029028 -0.0009833938869510414 0.6666651957459758 -0.0009905256273917242
 0.6666652027089028 -0.00099195999044327 0.6666651957458315 -0.0009905256272206518 -0.33333480375681757 -0.0009837463568216922
0.04203870695789726 -0.33333494246279743 -0.0010318074784217424 0.6666650497767855 -0.0010426859340709957 0.666665050304154 -0.001042315573811104
 0.6666650497768759 -0.0010426859340577287 -0.3333349578793245 -0.0010333146203956437 0.6666650426162847 -0.0010408083957200416
 0.6666650503040853 -0.001042315573833282 0.6666650426161258 -0.0010408083956990979 -0.3333349568347469 -0.0010336849831001482
0.04417275630574673 -0.333335109980393 -0.001084185771316566 0.6666648814512965 -0.0010956164588265718 0.6666648820335659 -0.001095227297452515
 0.6666648814513954 -0.0010956164586600728 -0.33333512700184886 -0.001085769419007267 0.6666648735453548 -0.0010936436080114856
 0.66666488203349 -0.001095227297619846 0.6666648735451798 -0.0010936436078619965 -0.33333512584852665 -0.0010861585830499322
0.04641513835335354 -0.3333352949373449 -0.0011392229685970054 0.6666646956023446 -0.0011512339209786486 0.666664696245231 -0.001150825004432119
 0.6666646956024536 -0.001151233920862313 -0.33333531373081166 -0.0011408870054433523 0.6666646868733587 -0.001149160919072164
 0.666664696245147 -0.0011508250045536988 0.6666646868731654 -0.001149160918965641 -0.3333353124574231 -0.0011412959251683491
0.0487713524926828 -0.3333354991491117 -0.0011970540259155307 0.6666644904057172 -0.0012096746995072546 0.6666644911155306 -0.0012092450249758867
 0.6666644904058382 -0.0012096746993853936 -0.33333551989906185 -0.0011988025323142683 0.6666644807680049 -0.0012074964622808325
 0.6666644911154377 -0.0012092450251024052 0.6666644807677913 -0.0012074964621529788 -0.3333355184931091 -0.0011992322105650475
0.051247177286366054 -0.3333357246199961 -0.001257820711739017 0.6666642638474437 -0.0012710820580690665 0.6666642646311531 -0.001270630571704083
 0.6666642638475779 -0.0012710820579383438 -0.3333357475301078 -0.0012596579750035098 0.6666642532064043 -0.0012687932431165924
 0.6666642646310506 -0.00127063057182787 0.6666642532061675 -0.0012687932429888637 -0.33333574597778787 -0.0012601094656966305
0.0538486846394972 -0.3333359735632006 -0.0013216720591101342 0.6666640137036514 -0.0013356066008829415 0.6666640145689473 -0.001335132195420471
 0.6666640137037985 -0.0013356066007498095 -0.33333599885835224 -0.0013236025842675078 0.6666640019548334 -0.0013332015944599067
 0.6666640145688335 -0.0013351321955609229 0.6666640019545724 -0.0013332015943108841 -0.3333359971444301 -0.0013240769947738009
0.05658225469084444 -0.3333362484231378 -0.001388764858075088 0.6666637375181347 -0.0014034067690156685 0.6666637384735121 -0.0014029082809694352
 0.6666637375182976 -0.001403406768863491 -0.3333362763516304 -0.0013907933786559716 0.6666637245462116 -0.0014008796724429493
 0.666663738473387 -0.001402908281118092 0.6666637245459236 -0.001400879672315529 -0.33333627445928116 -0.001391291872524911
0.05945459145999823 -0.3333365518966485 -0.0014592633596709642 0.6666634325810498 -0.001474648548185914 0.6666634336358858 -0.0014741247552115908
 0.6666634325812298 -0.0014746485480589947 -0.33333658273261696 -0.001461394849510545 0.6666634182586934 -0.001471993163292028
 0.6666634336357483 -0.0014741247553510485 0.6666634182583756 -0.0014719931631647985 -0.33333658064326643 -0.0014619186493021374
0.062472739288829834 -0.3333368869626224 -0.0015333404754362086 0.6666630958991385 -0.0015495066725957401 0.6666630970637881 -0.0015489562900622873
 0.6666630958993371 -0.001549506672415414 -0.3333369210087458 -0.0015355801605801387 0.6666630800857648 -0.0015467164865230537
 0.6666630970636365 -0.001548956290238685 0.6666630800854145 -0.001546716486342451 -0.33333691870188303 -0.0015361305510079842
0.06564410011758287 -0.3333372569102402 -0.0016111779250608273 0.6666627241673583 -0.0016281647774209844 0.6666627254532533 -0.0016275864556521225
 0.6666627241675773 -0.0016281647772654227 -0.33333729450070765 -0.001613531296802868 0.6666627067077466 -0.0016252329464997892
 0.666662725453085 -0.001627586455798313 0.6666627067073598 -0.0016252329463516018 -0.3333372919536907 -0.0016141096277811947
0.06897645163796594 -0.33333766537081577 -0.0016929665871046053 0.6666623137368836 -0.00171081575356997 0.6666623151566445 -0.0017102080742444777
 0.666662313737125 -0.0017108157533972921 -0.3333377068746052 -0.0016954394151564125 0.6666622944596534 -0.0017077350867679448
 0.6666623151564589 -0.0017102080744164686 0.6666622944592265 -0.0017077350865878998 -0.33333770406243457 -0.0016960471051798217
0.07247796636776961 -0.33333811635338234 -0.001778906969465544 0.6666618605793436 -0.0017976622237799546 0.6666618621469077 -0.0017970236965894615
 0.6666618605796106 -0.0017976622235448 -0.3333381621778836 -0.0017815053163242253 0.6666618392952767 -0.0017944251648085814
 0.6666618621467028 -0.0017970236968243773 0.6666618392948044 -0.001794425164575293 -0.33333815907295494 -0.001782143855880141
0.07615723169378218 -0.33333861428465006 -0.001869209822163789 0.6666613602466817 -0.0018889171597417332 0.6666613619774348 -0.0018882462190435096
 0.6666613602469765 -0.0018889171595718878 -0.3333386648796624 -0.0018719400578056599 0.6666613367468589 -0.0018855157687607056
 0.6666613619772084 -0.0018882462192183764 0.6666613367463381 -0.0018855157685814155 -0.333338661451499 -0.0018726110129589366
0.08002327093216569 -0.3333391640527417 -0.0019640966881974376 0.6666608078272004 -0.0019848044396957405 0.6666608097381318 -0.0019840994398849696
 0.666660807827526 -0.001984804439501263 -0.33333921991489557 -0.0019669655056781307 0.6666607818809531 -0.0019812303733854606
 0.6666608097378819 -0.001984099440074279 0.6666607818803776 -0.001981230373185203 -0.3333392161298466 -0.001967670522267355
0.08408556545793698 -0.33333977105245227 -0.002063799985259409 0.6666601979000858 -0.00208555893421964 0.6666602000099524 -0.002084818146479454
 0.6666601979004454 -0.0020855589340145744 -0.333339832730066 -0.002066814416964964 0.6666601692527372 -0.0020818034258535743
 0.6666602000096766 -0.0020848181466905464 0.6666601692521019 -0.002081803425643142 -0.3333398285509792 -0.0020675552241779097
0.08835407795782858 -0.33334044124267165 -0.00216856434407617 0.6666595244777116 -0.0021914278519968894 0.6666595268072236 -0.0021906494596608548
 0.6666595244781082 -0.002191427851755552 -0.33334050934115167 -0.002171731779091574 0.6666594928480692 -0.0021874816894573005
 0.6666595268069188 -0.002190649459902058 0.6666594928473675 -0.002187481689226059 -0.333340504727006 -0.002172510194006355
0.09283927686355573 -0.33334118120135314 -0.0022786466032682184 0.6666587809503991 -0.002302670740154092 0.6666587835224214 -0.002301852834465848
 0.6666587809508375 -0.0023026707399648157 -0.3333412563891277 -0.002281974805235878 0.6666587460279982 -0.002298524243538211
 0.6666587835220851 -0.002301852834661466 0.6666587460272236 -0.0022985242433398606 -0.33334125129463366 -0.002282792737223901
0.09755216202541175 -0.3333419981920296 -0.002394316753158746 0.6666579600195875 -0.0024195604352009103 0.6666579628593665 -0.002418701010334908
 0.6666579600200712 -0.002419560434948528 -0.33334208120711445 -0.0023978138793544178 0.6666579214616429 -0.0024152034329192737
 0.6666579628589954 -0.0024187010105939295 0.6666579214607883 -0.0024152034326574536 -0.33334207558226453 -0.0023986733346990094
0.10250429168915555 -0.33334290023246776 -0.0025158582225293627 0.6666570536288403 -0.002542383356329806 0.6666570567642495 -0.0025414803047397426
 0.6666570536293749 -0.002542383356042588 -0.33334299188969624 -0.0025195328436058884 0.6666570110568871 -0.00253780516017394
 0.6666570567638397 -0.00254148030502877 0.6666570110559428 -0.00253780515988095 -0.33334298567928233 -0.0025204359305620334
0.10770781084235159 -0.33334389617676086 -0.002643569058892389 0.6666560528813645 -0.0026714406933838536 0.6666560563431797 -0.002670491800653559
 0.666656052881954 -0.0026714406930916446 -0.33334399737579434 -0.002647430179975063 0.6666560058775374 -0.002666630072202881
 0.6666560563427268 -0.0026704918009399976 0.666656005876495 -0.0026666300719110345 -0.3333439905188562 -0.002648379113777205
