! Created with skrf 1.8.0 (http://scikit-rf.org).
# MHz S RI R 50.0 
!freq ReS11 ImS11 ReS12 ImS12 ReS13 ImS13
! ReS21 ImS21 ReS22 ImS22 ReS23 ImS23
! ReS31 ImS31 ReS32 ImS32 ReS33 ImS33
!
0.01 -0.3333334246955496 -0.000245775139070426 0.6666665751117999 -0.00024783111089439627 0.6666665751137891 -0.00024781003070330313
 0.6666665751117997 -0.00024783111090779456 -0.3333334250772713 -0.00024616359712037716 0.6666665749238878 -0.00024742157242746155
 0.6666665751137891 -0.00024781003069714996 0.6666665749238875 -0.00024742157242746155 -0.3333334250733973 -0.00024618467733320535
0.01050763915026853 -0.3333334342065418 -0.0002582513191587861 0.6666665655807527 -0.0002604116601663789 0.6666665655829483 -0.0002603895097558743
 0.6666665655807524 -0.00026041166011731703 -0.33333343462800114 -0.00025865949685674103 0.666666565373278 -0.00025998133186045926
 0.6666665655829487 -0.0002603895098556249 0.6666665653732782 -0.000259981331774711 -0.33333343462372417 -0.0002586816472067142
0.011041048051225594 -0.33333344470782145 -0.0002713610350737329 0.6666665550573299 -0.0002736310429991185 0.6666665550597541 -0.0002736077683481588
 0.6666665550573296 -0.00027363104312331984 -0.3333334451731558 -0.000271789933390078 0.6666665548282563 -0.00027317886962160975
 0.666666555059754 -0.0002736077682745466 0.6666665548282563 -0.0002731788697073579 -0.3333334451684339 -0.00027181320815604083
0.011601534876305412 -0.33333345630265143 -0.00028513662719886935 0.6666665434380498 -0.00028752186976788825 0.6666665434407268 -0.0002874974137685325
 0.6666665434380501 -0.0002875218698202448 -0.3333334568164315 -0.0002855872982210336 0.6666665431851281 -0.00028704674236220334
 0.6666665434407271 -0.00028749741379035826 0.6666665431851279 -0.0002870467423622034 -0.33333345681121745 -0.00028561175425432877
0.01219047420694725 -0.3333334691043135 -0.00029961123626854436 0.6666665306093944 -0.000302117563513825 0.6666665306123498 -0.00030209186554250024
 0.6666665306093942 -0.0003021175634020123 -0.33333346967157923 -0.00030008478505440245 0.6666665303301426 -0.0003016183164835069
 0.6666665306123498 -0.0003020918656525104 0.6666665303301426 -0.0003016183164835073 -0.3333334696658229 -0.00030011048280785866
0.012809310403725764 -0.33333348323865675 -0.00031482060054636426 0.6666665164452463 -0.00031745415835798433 0.6666665164485104 -0.00031742715616194525
 0.6666665164452463 -0.00031745415839814014 -0.33333348386497774 -0.00031531818817022797 0.6666665161369238 -0.00031692956805132665
 0.6666665164485096 -0.0003174271561610077 0.6666665161369235 -0.0003169295680513272 -0.33333348385862116 -0.00031534519041194774
0.013459561148613082 -0.3333334988445629 -0.000330802165631092 0.6666665008064325 -0.0003335694130253708 0.6666665008100352 -0.0003335410398930244
 0.6666665008064326 -0.0003335694130522372 -0.3333334995360876 -0.000331325012732198 0.666666500466011 -0.00033301819224692826
 0.6666665008100355 -0.00033354103987221563 0.6666665004660115 -0.00033301819224692804 -0.33333349952907015 -0.0003313533859175424
0.014142821167060008 -0.33333351607540407 -0.0003475952867205746 0.6666664835392575 -0.00035050301053393484 0.6666664835432357 -0.000350473197138427
 0.6666664835392577 -0.00035050301051424226 -0.3333335168389216 -0.0003481446755912673 0.666666483163396 -0.00034992380768632193
 0.6666664835432358 -0.0003504731971920461 0.666666483163396 -0.0003499238076863222 -0.3333335168311733 -0.00034817448891963815
0.014860766139024621 -0.3333335350996242 -0.0003652404805872697 0.6666664644749225 -0.00036829581214008856 0.666666464479315 -0.0003682644850816009
 0.6666664644749224 -0.00036829581205948355 -0.33333353594262644 -0.0003658177585450822 0.6666664640599327 -0.0003676872065070201
 0.6666664644793149 -0.000368264485108323 0.6666664640599325 -0.000367687206421272 -0.33333353593407133 -0.00036584908558915546
0.015615156808540002 -0.33333355610428406 -0.00038378135477388185 0.6666664434259713 -0.00038699178641034466 0.6666664434308215 -0.0003869588698453113
 0.6666664434259711 -0.00038699178675618044 -0.3333335570350459 -0.00038438793768814813 0.6666664429677797 -0.0003863522857761502
 0.666666443430821 -0.0003869588694735927 0.6666664429677797 -0.0003863522861620168 -0.33333355702560014 -0.0003844208545931817
0.01640784330189971 -0.33333357929575386 -0.00040326354526841885 0.6666664201855987 -0.00040663695139480597 0.6666664201909535 -0.0004066023633916405
 0.6666664201855989 -0.00040663695145595297 -0.3333335803234124 -0.0004039009206332243 0.6666664196797069 -0.00040596498702705566
 0.6666664201909537 -0.0004066023633235462 0.6666664196797065 -0.000405964987112804 -0.33333358031298344 -0.000403935508689526
0.017240769665051267 -0.33333360490159075 -0.00042373474779621643 0.6666663945257687 -0.0004272794007559233 0.66666639453168 -0.0004272430570250669
 0.6666663945257683 -0.0004272794007999251 -0.3333336060362333 -0.0004244044787494509 0.6666663939672107 -0.00042657332493887347
 0.6666663945316801 -0.00042724305692599506 0.6666663939672111 -0.0004265733250246217 -0.3333336060247187 -0.0004244408225488194
0.018115978631325472 -0.3333336331734039 -0.00044524536155546714 0.6666663661943399 -0.000448969955367296 0.6666663662008677 -0.00044893176628149156
 0.6666663661943399 -0.000448969955263464 -0.33333363442616937 -0.00044594909052911937 0.6666663655776334 -0.0004482280361483117
 0.6666663662008676 -0.000448931766425842 0.6666663655776333 -0.0004482280360625635 -0.33333363441345626 -0.00044598727946546906
0.019035616631194404 -0.3333336643879759 -0.0004678475919240491 0.6666663349139476 -0.00047176126034204443 0.6666663349211547 -0.0004717211329943056
 0.6666663349139476 -0.0004717612603691631 -0.33333366577115914 -0.00046858704496117526 0.6666663342330392 -0.0004709816784643717
 0.6666663349211546 -0.0004717211329294348 0.6666663342330392 -0.0004709816785072456 -0.3333336657571222 -0.00046862717237308716
0.020001939056344106 -0.33333369885241854 -0.0004915973977312255 0.6666663003768313 -0.0004957097392508305 0.6666663003847886 -0.0004956675748391511
 0.6666663003768317 -0.000495709739275447 -0.3333337003795983 -0.0004923743881387849 0.6666662996250369 -0.0004948905827065509
 0.6666663003847888 -0.0004956675748359257 0.6666662996250371 -0.0004948905827065507 -0.33333370036410037 -0.0004924165525957749
0.021017315790972647 -0.33333373690457496 -0.000516552702981067 0.6666662622444374 -0.0005208738033661041 0.6666662622532227 -0.000520829498308204
 0.6666662622444373 -0.0005208738032571544 -0.3333337385907402 -0.0005173691365334454 0.6666662614143778 -0.0005200130628920232
 0.6666662622532229 -0.000520829498446471 0.6666662614143778 -0.000520013062806275 -0.3333337385736295 -0.0005174134414501439
0.022084237023878118 -0.33333377891826205 -0.000542774912082993 0.6666662201421584 -0.0005473153681711204 0.6666662201518586 -0.0005472688143831543
 0.6666662201421582 -0.0005473153682015477 -0.3333337807799653 -0.0005436327909097192 0.6666662192256858 -0.0005464109332373058
 0.6666662201518584 -0.0005472688143744852 0.6666662192256855 -0.0005464109332801801 -0.3333337807610727 -0.0005436793447174199
0.02320531935559115 -0.3333338253058277 -0.0005703282916844541 0.666666173656777 -0.0005750992390361411 0.6666661736674871 -0.000575050321660415
 0.6666661736567772 -0.0005750992389498568 -0.33333382736134387 -0.0005712297194285657 0.6666661726448952 -0.0005741488913473485
 0.666666173667487 -0.0005750503216728015 0.6666661726448951 -0.0005741488913044741 -0.33333382734048456 -0.0005712786367757732
0.024383312215529362 -0.3333338765225899 -0.0005992803995786154 0.666666122332017 -0.000604293538680133 0.6666661223438425 -0.000604242138357457
 0.666666122332017 -0.0006042935387632013 -0.3333338787920954 -0.0006002275871450389 0.6666661212147931 -0.0006032949476274797
 0.666666122343842 -0.0006042421382428251 0.6666661212147933 -0.000603294947713228 -0.3333338787690643 -0.0006002789876113136
0.02562110460491172 -0.33333393307100717 -0.0006297020891866913 0.6666660656643598 -0.000634969714813852 0.6666660656774155 -0.0006349157052612079
 0.6666660656643596 -0.0006349697149420944 -0.3333339355767779 -0.000630697359449125 0.666666064430828 -0.0006339204312966985
 0.6666660656774155 -0.00063491570512492 0.6666660644308282 -0.0006339204314253215 -0.333333935551349 -0.000630751369174391
0.02692173218196957 -0.3333339955063478 -0.0006616680844733164 0.6666660030973652 -0.0006672031152682359 0.6666660031117807 -0.000667146363621825
 0.6666660030973649 -0.0006672031152221398 -0.3333339982729802 -0.00066271387822242 0.6666660017354173 -0.0006661005657726234
 0.6666660031117804 -0.0006671463636658359 0.6666660017354175 -0.000666100565729749 -0.3333339982449039 -0.0006627706298641938
0.02828838470683077 -0.33333406444184915 -0.0006952569630208057 0.6666659340165029 -0.0007010729734804707 0.6666659340324192 -0.0007010133410031852
 0.6666659340165029 -0.0007010729734864303 -0.33333406749650235 -0.0006963558451368074 0.6666659325127695 -0.0006999144540710005
 0.6666659340324189 -0.0007010133410167127 0.6666659325127696 -0.0006999144540709998 -0.3333340674655033 -0.0006964154776559423
0.029724413864335254 -0.33333414055384003 -0.0007305509235314464 0.666665857744019 -0.0007366621772067293 0.6666658577615925 -0.000736599517659011
 0.6666658577440191 -0.0007366621772908061 -0.3333341439264978 -0.0007317055887799591 0.6666658560837401 -0.0007354448467458238
 0.666665857761592 -0.0007365995175725864 0.6666658560837396 -0.0007354448468315736 -0.33333414389227123 -0.0007317682484697598
0.031233341483967378 -0.3333342245890967 -0.0007676363801490048 0.6666657735315619 -0.0007740578649221223 0.6666657735509645 -0.0007739920243262466
 0.6666657735315618 -0.0007740578648882765 -0.33333422831286297 -0.0007688496602824618 0.66666577169844 -0.0007727787377522871
 0.6666657735509642 -0.000773992024361217 0.6666657716984399 -0.0007727787377094122 -0.33333422827507375 -0.0007689155009189098
0.03281886817706418 -0.3333343173727388 -0.0008066044011716462 0.6666656805522722 -0.0008133518653329812 0.6666656805736945 -0.000813282682584089
 0.6666656805522722 -0.0008133518654125281 -0.33333432148416536 -0.0008078792717569854 0.6666656785283144 -0.000812007804407969
 0.6666656805736947 -0.0008132826825191427 0.6666656785283143 -0.0008120078044722806 -0.333334321442442 -0.0008079484546632253
0.034484882412482154 -0.3333344198158654 -0.000847550692374634 0.6666655778931293 -0.0008546406840215096 0.6666655779167822 -0.0008545679892049242
 0.6666655778931294 -0.000854640684068088 -0.33333442435531074 -0.0008488902798224069 0.6666655756584683 -0.0008532283929963888
 0.6666655779167818 -0.0008545679891678172 0.666665575658468 -0.0008532283930392633 -0.33333442430924387 -0.0008489629747693271
0.03623547005298042 -0.3333345329239389 -0.0008905756160195859 0.6666654645465511 -0.0008980255230608547 0.6666654645726658 -0.0008979491379238149
 0.666665464546551 -0.0008980255230395982 -0.33333453793596285 -0.000891983205570925 0.6666654620792503 -0.0008965415382839399
 0.666665464572666 -0.0008979491379369864 0.6666654620792504 -0.0008965415382839398 -0.3333345378850999 -0.000892059590777399
0.03807492437570799 -0.33333465780703025 -0.0009357846135707637 0.6666653394001255 -0.0009436127066923672 0.666665339428959 -0.000943532444054655
 0.6666653394001255 -0.0009436127067517273 -0.3333346633408302 -0.000937263657124267 0.666665336675967 -0.0009420533887128797
 0.6666653394289591 -0.0009435324440101808 0.6666653366759671 -0.0009420533887557534 -0.3333346632846724 -0.000937343919943435
0.04000775660137028 -0.33333479569088653 -0.0009832885278842605 0.6666652012255211 -0.0009915140053134584 0.6666652012573564 -0.000991429668113624
 0.6666652012255211 -0.0009915140053055468 -0.33333480180078034 -0.0009848426526117497 0.6666651982177652 -0.0009898755297867098
 0.6666652012573563 -0.0009914296681398738 0.6666651982177653 -0.0009898755297867087 -0.33333480173877666 -0.0009849269899172162
0.04203870695789726 -0.33333494792867707 -0.00103320377310904 0.6666650486667159 -0.0010418468073805024 0.6666650487018654 -0.0010417581890190461
 0.6666650486667156 -0.001041846807438809 -0.333334954674637 -0.0010348367902698443 0.6666650453458397 -0.0010401251560133472
 0.6666650487018652 -0.001041758188943156 0.6666650453458396 -0.0010401251560776593 -0.3333349546061776 -0.001034925408863367
0.04417275630574673 -0.3333351160157326 -0.0010856530807092438 0.6666648802252237 -0.0010947348687298647 0.6666648802640326 -0.0010946417517189446
 0.6666648802252236 -0.0010947348687829319 -0.33333512346397975 -0.00108736899506977 0.666664876558628 -0.0010929258189904811
 0.6666648802640328 -0.0010946417516731468 0.666664876558628 -0.0010929258190333546 -0.3333351233883939 -0.0010874621123248393
0.04641513835335354 -0.3333353016007901 -0.0011407647047423728 0.6666646942488339 -0.001150307519088026 0.6666646942916824 -0.0011502096750731464
 0.6666646942488336 -0.001150307519076414 -0.33333530982443177 -0.001142567724291666 0.6666646902005295 -0.001148406634287417
 0.6666646942916826 -0.0011502096750679286 0.6666646902005299 -0.0011484066342874147 -0.33333530974097775 -0.001142665568518444
0.0487713524926828 -0.3333355065061264 -0.0011986739906698545 0.6666644889114254 -0.001208701234855151 0.6666644889587349 -0.0012085984238544602
 0.6666644889114254 -0.0012087012348947523 -0.333335515585885 -0.0012005685369490583 0.6666644844416749 -0.0012067038528846695
 0.6666644889587348 -0.0012085984238231473 0.6666644844416753 -0.001206703852927543 -0.33333551549374285 -0.0012006713482310362
0.051247177286366054 -0.33333573274300693 -0.0012595229367675966 0.6666642621974916 -0.0012700592022733131 0.6666642622497261 -0.001269951172313524
 0.6666642621974914 -0.0012700592022801907 -0.3333357427680089 -0.0012615136559126895 0.6666642572624203 -0.0012679604245626353
 0.6666642622497259 -0.0012699511722935434 0.6666642572624202 -0.0012679604245626362 -0.33333574266627436 -0.0012616216861931408
0.0538486846394972 -0.33333598253201485 -0.0013234607350476322 0.6666640118817672 -0.0013345318617343355 0.6666640119394399 -0.0013344183476613949
 0.6666640118817673 -0.0013345318617136734 -0.33333599360066357 -0.001325552508825776 0.6666640064329339 -0.0013323265407247905
 0.6666640119394395 -0.0013344183476854997 0.6666640064329337 -0.0013323265407033534 -0.33333599348833765 -0.0013256660232162452
0.05658225469084444 -0.3333362583252025 -0.0013906442261000672 0.6666637355070295 -0.001402277365206196 0.6666637355707064 -0.0014021580886964733
 0.6666637355070297 -0.0014022773651542462 -0.33333627054614584 -0.001392842184044843 0.666663729490949 -0.0013999600923107888
 0.6666637355707062 -0.0014021580887255793 0.6666637294909489 -0.0013999600922679132 -0.33333627042212627 -0.0013929614609118346
0.05945459145999823 -0.3333365628294677 -0.0014612381084246858 0.6666634303606734 -0.001473461789851263 0.6666634304309785 -0.0014733364584367107
 0.6666634303606734 -0.0014734617898207306 -0.3333365763226638 -0.0014635476405526484 0.6666634237182922 -0.001471026881681677
 0.6666634304309788 -0.0014733364584559447 0.6666634237182925 -0.0014710268816602395 -0.33333657618573365 -0.0014636729723976525
0.062472739288829834 -0.33333689903380237 -0.0015354155125407965 0.6666630934474035 -0.0015482597142440248 0.6666630935250281 -0.0015481280205839757
 0.6666630934474033 -0.0015482597142563066 -0.33333691393169806 -0.0015378422822969074 0.6666630861135225 -0.0015457011990059307
 0.6666630935250282 -0.00154812802056678 0.6666630861135227 -0.0015457011990166495 -0.3333369137805122 -0.0015379739765079743
0.06564410011758287 -0.3333372702379315 -0.001613358265408718 0.6666627214605368 -0.00162685448718245 0.6666627215462427 -0.0016267161082443977
 0.6666627214605368 -0.001626854487177649 -0.333337286686759 -0.0016159082237171476 0.6666627133631692 -0.0016241660898336611
 0.6666627215462425 -0.0016267161082344915 0.6666627133631691 -0.0016241660898443794 -0.3333372865198346 -0.0016160466032670855
0.06897645163796594 -0.3333376800857993 -0.0016952575721628687 0.6666623107484456 -0.0017094389128518741 0.6666623108430734 -0.0017092935092906552
 0.6666623107484455 -0.0017094389128666956 -0.3333376982470173 -0.0016979369719600892 0.6666623018081086 -0.0017066140397451871
 0.6666623108430733 -0.0017092935092775207 0.6666623018081086 -0.0017066140397666264 -0.33333769806271507 -0.0016980823762442186
0.07247796636776961 -0.3333381326004349 -0.0017813142833796268 0.6666618572796171 -0.0017962155218455937 0.6666618573840963 -0.0017960627371094043
 0.666661857279617 -0.0017962155218645 -0.3333381526523096 -0.001784129694923127 0.6666618474085546 -0.001793247244645572
 0.6666618573840962 -0.0017960627370857236 0.6666618474085547 -0.0017932472446670104 -0.3333381524488209 -0.0017842824805115924
0.07615723169378218 -0.333338632223398 -0.0018717393914409962 0.6666613566031272 -0.0018873970722909127 0.6666613567184829 -0.0018872365315291766
 0.6666613566031273 -0.001887397072286592 -0.3333386543627529 -0.0018746977184149873 0.6666613457044472 -0.0018842781107015053
 0.6666613567184831 -0.0018872365315388937 0.6666613457044471 -0.001884278110701505 -0.3333386541380803 -0.0018748582601269207
0.08002327093216569 -0.3333391838588408 -0.0019667546386769987 0.6666608038044809 -0.001983207161214345 0.6666608039318462 -0.0019830384708449675
 0.6666608038044811 -0.0019832071612170474 -0.3333392083029908 -0.001969863135048266 0.6666607917712056 -0.001979929865581388
 0.666660803931846 -0.001983038470839979 0.6666607917712054 -0.001979929865592106 -0.3333392080549287 -0.001970031826533276
0.08408556545793698 -0.33333979292048227 -0.0020665928639260105 0.6666601934585451 -0.0020838805769971876 0.6666601935991687 -0.0020837033232879174
 0.666660193458545 -0.0020838805770067954 -0.33333981990935985 -0.0020698591518292417 0.6666601801725605 -0.00208043690904654
 0.666660193599169 -0.002083703323277087 0.6666601801725602 -0.00208043690905726 -0.3333398196354738 -0.002070036406846045
0.08835407795782858 -0.33334046538746726 -0.0021714990269651167 0.6666595195735665 -0.002189664327447441 0.6666595197288294 -0.002189478075676293
 0.6666595195735661 -0.002189664327432716 -0.33334049518598713 -0.002174931115220182 0.6666595049044615 -0.002186045840875603
 0.6666595197288296 -0.0021894780756930078 0.6666595049044616 -0.0021860458408541634 -0.33334049488358863 -0.002175117368486993
0.09283927686355573 -0.3333412078597814 -0.0022817302641112915 0.6666587755356419 -0.0023008177010239717 0.6666587757070691 -0.002300621994457705
 0.6666587755356419 -0.0023008177010489183 -0.33334124076043337 -0.0022853365678925487 0.666658759339431 -0.0022970155206191913
 0.6666587757070688 -0.002300621994439385 0.6666587593394311 -0.0022970155206406286 -0.333341240426554 -0.002285532276227441
0.09755216202541175 -0.33334202762520343 -0.0023975568748607736 0.6666579540416256 -0.002417613258661032 0.6666579542308989 -0.0024174076172928135
 0.6666579540416253 -0.002417613258624978 -0.33334206395092714 -0.0024013462364026626 0.6666579361593336 -0.002413618058523637
 0.6666579542308987 -0.002417407617328934 0.6666579361593337 -0.002413618058480758 -0.3333420635822897 -0.0024015518797681394
0.10250429168915555 -0.3333429327299927 -0.002519262848225684 0.6666570470282919 -0.002540337365402086 0.6666570472372692 -0.0025401212850164586
 0.6666570470282916 -0.002540337365415585 -0.33334297283734543 -0.0025232445582375118 0.6666570272843938 -0.0025361393461356824
 0.6666570472372688 -0.0025401212849932493 0.6666570272843938 -0.0025361393461571214 -0.3333429724303314 -0.002523460640989517
0.10770781084235159 -0.33334393205701934 -0.002647146457957781 0.6666560455940395 -0.002669290791869506 0.6666560458247723 -0.002669063742427192
 0.6666560455940393 -0.0026692907918345224 -0.3333439763396715 -0.0026513302784866646 0.6666560237947411 -0.0026648796564262543
 0.6666560458247718 -0.0026690637424672046 0.6666560237947405 -0.0026648796563940994 -0.33334397589028586 -0.002651557330613781
