! Created with skrf 1.8.0 (http://scikit-rf.org).
# MHz S RI R 50.0 
!freq ReS11 ImS11 ReS21 ImS21 ReS12 ImS12 ReS22 ImS22
0.01 3.3388854510405787e-05 -2.1396610767497497e-05 0.9999666101540238 -2.3088483425757402e-05 0.9999666101537181 -2.3088483144573844e-05 3.338885875825909e-05 -2.139661048641908e-05
0.01050763915026853 3.338880287365255e-05 -2.2482468443073146e-05 0.9999666101024748 -2.4260219100472355e-05 0.9999666101021368 -2.426021823678266e-05 3.3388807563040676e-05 -2.2482467579505424e-05
0.011041048051225594 3.338874581768318e-05 -2.3624331295177885e-05 0.9999666100455167 -2.5492324345669533e-05 0.9999666100451432 -2.549232319398129e-05 3.3388750996110764e-05 -2.3624330143631186e-05
0.011601534876305412 3.3388682862048414e-05 -2.4823364335438764e-05 0.999966609982668 -2.678618238634883e-05 0.9999666099822562 -2.67861809524769e-05 3.338868857956318e-05 -2.4823362901731018e-05
0.01219047420694725 3.3388613341711444e-05 -2.6083492039065847e-05 0.999966609913266 -2.8145941240154776e-05 0.9999666099128103 -2.8145940335370167e-05 3.3388619652376e-05 -2.6083491134471712e-05
0.012809310403725764 3.338853655167404e-05 -2.7408091696665275e-05 0.999966609836608 -2.957525829535398e-05 0.999966609836106 -2.9575259342441254e-05 3.338854352345726e-05 -2.740809274397361e-05
0.013459561148613082 3.3388451806315626e-05 -2.8799328148496338e-05 0.9999666097520062 -3.10764991800906e-05 0.9999666097514516 -3.107649946663597e-05 3.3388459501414165e-05 -2.8799328435298103e-05
0.014142821167060008 3.338835828659175e-05 -3.0260407353543324e-05 0.999966609658646 -3.265318492375295e-05 0.999966609658033 -3.265318493977001e-05 3.338836678210305e-05 -3.0260407369857843e-05
0.014860766139024621 3.338825497307882e-05 -3.17965681709774e-05 0.9999666095555088 -3.4310810941892896e-05 0.9999666095548322 -3.431081254226748e-05 3.3388264354216685e-05 -3.17965697716971e-05
0.015615156808540002 3.3388140889440034e-05 -3.341092764988161e-05 0.9999666094416201 -3.6052801116080035e-05 0.9999666094408721 -3.605280257974624e-05 3.338815124744542e-05 -3.341092911394823e-05
0.01640784330189971 3.338801493048007e-05 -3.510721978283478e-05 0.9999666093158752 -3.7883197341825704e-05 0.9999666093150498 -3.7883197888199015e-05 3.338802636551678e-05 -3.510722032967258e-05
0.017240769665051267 3.338787588770774e-05 -3.688922517009208e-05 0.999966609177069 -3.980612310942202e-05 0.9999666091761579 -3.980612259159576e-05 3.338788851254808e-05 -3.6889224652804645e-05
0.018115978631325472 3.3387722303561056e-05 -3.876250704987087e-05 0.9999666090237473 -4.182748157938031e-05 0.9999666090227416 -4.182748094222142e-05 3.3387736244434434e-05 -3.8762506413337194e-05
0.019035616631194404 3.338755285559538e-05 -4.0729386423063784e-05 0.9999666088545884 -4.3949957123826933e-05 0.9999666088534781 -4.3949955468397356e-05 3.338756824749754e-05 -4.072938476835951e-05
0.020001939056344106 3.338736568885516e-05 -4.2797029151983464e-05 0.9999666086677416 -4.6181085473870424e-05 0.9999666086665155 -4.6181085464141146e-05 3.338738268469381e-05 -4.279702914309575e-05
0.021017315790972647 3.33871590412274e-05 -4.496959826313606e-05 0.999966608461446 -4.8525447683945925e-05 0.999966608460092 -4.852544677163535e-05 3.338717780569451e-05 -4.4969597351801754e-05
0.022084237023878118 3.3386930846233185e-05 -4.725280994912844e-05 0.9999666082336386 -5.0989163673858594e-05 0.9999666082321442 -5.098916487123556e-05 3.3386951562875826e-05 -4.7252811147637944e-05
0.02320531935559115 3.338667896982417e-05 -4.965117107602854e-05 0.9999666079821926 -5.357719231563786e-05 0.9999666079805423 -5.357719323837103e-05 3.338670184418309e-05 -4.965117200007572e-05
0.024383312215529362 3.338640081983149e-05 -5.2171790383405886e-05 0.9999666077045164 -5.629711305002305e-05 0.9999666077026936 -5.6297113352248676e-05 3.338642607405763e-05 -5.217179068715591e-05
0.02562110460491172 3.338609373086864e-05 -5.4820185532347725e-05 0.999966607397952 -5.915492956710651e-05 0.9999666073959401 -5.9154930300801864e-05 3.338612161637801e-05 -5.482018626781171e-05
0.02692173218196957 3.3385754655995083e-05 -5.760317835847645e-05 0.9999666070594553 -6.21579662814771e-05 0.9999666070572334 -6.215796677517177e-05 3.338578544453113e-05 -5.760317885422302e-05
0.02828838470683077 3.3385380252116544e-05 -6.0527674216775595e-05 0.999966606685689 -6.531368618116965e-05 0.999966606683237 -6.531368592012023e-05 3.338541424500708e-05 -6.052767395810661e-05
0.029724413864335254 3.3384966959115925e-05 -6.35999478359959e-05 0.9999666062731009 -6.862891541233661e-05 0.999966606270393 -6.862891548833657e-05 3.338500449075694e-05 -6.359994791475756e-05
0.031233341483967378 3.3384510578644276e-05 -6.682864791162654e-05 0.9999666058174981 -7.211290054856628e-05 0.9999666058145086 -7.211290029553356e-05 3.338455201629377e-05 -6.682864766179773e-05
0.03281886817706418 3.338400672069888e-05 -7.022100216759097e-05 0.9999666053144993 -7.577350979828809e-05 0.9999666053111981 -7.57735099302019e-05 3.338405247255719e-05 -7.022100230322181e-05
0.034484882412482154 3.3383450412930086e-05 -7.378554935189984e-05 0.9999666047591396 -7.961992402478998e-05 0.999966604755495 -7.961992335299602e-05 3.338350092724012e-05 -7.378554868441816e-05
0.03623547005298042 3.338283614768169e-05 -7.753131726158183e-05 0.9999666041459226 -8.366186256254596e-05 0.9999666041418984 -8.366186230822207e-05 3.33828919223675e-05 -7.753131701226103e-05
0.03807492437570799 3.338215793813021e-05 -8.146721217998015e-05 0.9999666034688682 -8.790897518553851e-05 0.9999666034644249 -8.790897496730554e-05 3.338221951776515e-05 -8.146721196755138e-05
0.04000775660137028 3.338140912555771e-05 -8.560288101113458e-05 0.9999666027213335 -9.237165542488932e-05 0.9999666027164285 -9.237165499529864e-05 3.3381477118966214e-05 -8.56028805882779e-05
0.04203870695789726 3.338058237988607e-05 -8.994838956083547e-05 0.9999666018959964 -9.706076821756471e-05 0.9999666018905808 -9.706076835626335e-05 3.338065744960059e-05 -8.994838970734636e-05
0.04417275630574673 3.337966954251455e-05 -9.451460607310846e-05 0.9999666009847163 -0.00010198803706952234 0.9999666009787352 -0.00010198803660680083 3.337975242771924e-05 -9.45146056194505e-05
0.04641513835335354 3.3378661744818994e-05 -9.93122750715922e-05 0.9999665999786366 -0.0001071650900542788 0.9999665999720337 -0.00010716508972484738 3.337875325885124e-05 -9.93122747526758e-05
0.0487713524926828 3.337754896700714e-05 -0.00010435380756398111 0.9999665988677546 -0.00011260525682461802 0.9999665988604645 -0.00011260525678491669 3.337765000595621e-05 -0.00010435380753647859
0.051247177286366054 3.337632030725608e-05 -0.00010965141129970774 0.999966597641191 -0.00011832173784536191 0.9999665976331419 -0.00011832173772411096 3.33764318670702e-05 -0.00010965141119260964
0.0538486846394972 3.3374963802037504e-05 -0.00011521767345697446 0.9999665962869984 -0.0001243281400453185 0.9999665962781109 -0.00012432813995485144 3.337508697516243e-05 -0.00011521767338292684
0.05658225469084444 3.33734660527719e-05 -0.00012106660267902457 0.9999665947918027 -0.0001306395531353483 0.9999665947819901 -0.00013063955287212787 3.337360204918221e-05 -0.0001210666024348532
0.05945459145999823 3.337181241293556e-05 -0.000127212325597915 0.9999665931409821 -0.0001372712352413254 0.9999665931301477 -0.00013727123513817668 3.33719625664991e-05 -0.000127212325516866
0.062472739288829834 3.33699866172117e-05 -0.00013367004451579975 0.9999665913182998 -0.00014423958479722624 0.9999665913063374 -0.00014423958474945206 3.3370152403360975e-05 -0.00013367004449366476
0.06564410011758287 3.3367970732409326e-05 -0.00014045563914377016 0.9999665893058514 -0.00015156173299701295 0.9999665892926445 -0.00015156173284914737 3.336815377703362e-05 -0.00014045563902564986
0.06897645163796594 3.336574495187452e-05 -0.00014758580687456512 0.9999665870838655 -0.0001592556863918731 0.9999665870692829 -0.00015925568649805815 3.33659470516819e-05 -0.00014758580701525924
0.07247796636776961 3.336328750908147e-05 -0.00015507775836023297 0.9999665846306133 -0.00016734004791377116 0.9999665846145124 -0.0001673400480211294 3.336351064973141e-05 -0.00015507775850762728
0.07615723169378218 3.3360574215728595e-05 -0.0001629500948319057 0.9999665819219444 -0.00017583486750150285 0.9999665819041688 -0.00017583486751568704 3.336082058479698e-05 -0.00016295009489253735
0.08002327093216569 3.335757844358397e-05 -0.000171222093805006 0.9999665789312814 -0.0001847609447357278 0.9999665789116536 -0.00018476094469147691 3.3357850462242994e-05 -0.00017122209381464185
0.08408556545793698 3.335427077973612e-05 -0.00017991406054987234 0.9999665756292557 -0.00019414019756787608 0.9999665756075847 -0.0001941401975017019 3.3354571115120676e-05 -0.00017991406054621454
0.08835407795782858 3.335061882310908e-05 -0.00018904712858464775 0.9999665719835259 -0.00020399543990584512 0.9999665719595997 -0.0002039954398860579 3.335095042644111e-05 -0.0001890471286373894
0.09283927686355573 3.334658659689032e-05 -0.00019864403429052088 0.9999665679581743 -0.00021435118097563045 0.9999665679317569 -0.00021435118102840355 3.3346952721586554e-05 -0.00019864403442743865
0.09755216202541175 3.334213468711307e-05 -0.00020872790308293585 0.9999665635138539 -0.00022523240536654048 0.9999665634846864 -0.00022523240576447973 3.334253892584299e-05 -0.0002087279035784955
0.10250429168915555 3.333721929455824e-05 -0.00021932370786047764 0.9999665586068422 -0.00023666604302445635 0.9999665585746392 -0.00023666604293223935 3.3337665617553306e-05 -0.00021932370788151542
0.10770781084235159 3.333179212754162e-05 -0.00023045752158186713 0.9999665531889282 -0.00024868022229375424 0.9999665531533721 -0.0002486802224530739 3.333228491550028e-05 -0.00023045752187257997
0.11317548099968108 3.3325800062508686e-05 -0.00024215633887451524 0.999966547207079 -0.00026130409382882813 0.9999665471678209 -0.0002613040938483244 3.33263441506735e-05 -0.0002421563390464474
0.11892071150027211 3.331918410789202e-05 -0.0002544492011999898 0.9999665406024034 -0.00027456897204098686 0.9999665405590586 -0.00027456897200658047 3.331978483796472e-05 -0.0002544492013424322
0.12495759239380483 3.331187944993622e-05 -0.0002673660035868009 0.9999665333102002 -0.00028850713313417694 0.9999665332623435 -0.00028850713315617285 3.331254272064899e-05 -0.0002673660038139691
0.13130092899604406 3.330381431105746e-05 -0.0002809385688864313 0.9999665252588121 -0.000303152906153286 0.9999665252059732 -0.0003031529060977057 3.3304546631687646e-05 -0.0002809385690688825
0.1379662781985461 3.329490958498605e-05 -0.00029520007846046395 0.9999665163692675 -0.0003185421023473455 0.9999665163109273 -0.0003185421022840082 3.32957181426529e-05 -0.00029520007867327945
0.14496998662158825 3.3285077803434916e-05 -0.0003101856066181661 0.9999665065542479 -0.0003347125622475772 0.9999665064898348 -0.000334712562211153 3.328597053553459e-05 -0.00031018560690212115
0.15232923070389057 3.327422249401547e-05 -0.0003259318475478652 0.9999664957174452 -0.0003517038863107695 0.9999664956463258 -0.0003517038863466478 3.327520816174691e-05 -0.00032593184795543195
0.16006205882744876 3.326223706121327e-05 -0.0003424774719933314 0.9999664837524478 -0.0003695578006230794 0.9999664836739243 -0.0003695578005510778 3.326332534407417e-05 -0.0003424774723525467
0.1681874355807885 3.324900395505446e-05 -0.00035986292442129815 0.9999664705419032 -0.0003883179573985246 0.9999664704552056 -0.0003883179573644932 3.325020553445738e-05 -0.00035986292488754444
0.17672528826919598 3.3234393187484863e-05 -0.0003781309748527035 0.9999664559560452 -0.0004080304962366085 0.9999664558603214 -0.000408030496035678 3.3235719854916963e-05 -0.0003781309752321714
0.1856965557859895 3.3218261334526806e-05 -0.0003973264209992326 0.9999664398516966 -0.0004287437593586288 0.9999664397460075 -0.00042874375917751034 3.321972611622109e-05 -0.0003973264214914664
0.19512323996468875 3.320045017563382e-05 -0.00041749618968771134 0.9999664220709048 -0.0004505083949686792 0.9999664219542124 -0.00045050839490475524 3.320206744830181e-05 -0.00041749619040497944
0.20502845953802087 3.318078471727813e-05 -0.0004386899371780756 0.9999664024389737 -0.0004733779716961817 0.9999664023101336 -0.0004733779716614618 3.318257035477262e-05 -0.00043868993804965756
0.2154365068360951 3.315907199418174e-05 -0.0004609595562192532 0.9999663807632693 -0.0004974084912789175 0.9999663806210164 -0.0004974084913376386 3.3161043525449876e-05 -0.00046095955732942403
0.22637290736280513 3.3135098877074985e-05 -0.00048435966255821545 0.9999663568310246 -0.0005226588882888855 0.9999663566739626 -0.0005226588882772387 3.313727565462358e-05 -0.00048435966376641164
0.23786448239655172 3.310863002492381e-05 -0.0005089476668242959 0.9999663304072998 -0.0005491911108973121 0.9999663302338867 -0.0005491911109103836 3.311103341507574e-05 -0.0005089476682525725
0.24993941476883716 3.307940567245705e-05 -0.0005347838211886131 0.999966301232773 -0.0005770701805288953 0.9999663010413057 -0.0005770701803654713 3.3082059266426754e-05 -0.0005347838226670446
0.2626273179820232 3.304713894856392e-05 -0.0005619314988629706 0.999966269021061 -0.000606364478905226 0.9999662688096618 -0.0006063644788692343 3.3050068793929805e-05 -0.0005619315007317825
0.2759593088357935 3.301151307097472e-05 -0.0005904573249470236 0.9999662334559223 -0.0006371458985166588 0.9999662332225155 -0.0006371458983387443 3.301474792710347e-05 -0.000590457326978973
0.28996808374040284 3.297217839788866e-05 -0.0006204312094349847 0.9999661941883122 -0.000669489877369856 0.9999661939306074 -0.0006694898771422599 3.297575001920683e-05 -0.0006204312117711705
0.3046879989039 3.292874872799242e-05 -0.0006519267361264865 0.9999661508326859 -0.0007034758142294194 0.9999661505481521 -0.0007034758140507317 3.2932692171018245e-05 -0.0006519267389221788
0.32015515458995947 3.288079790607887e-05 -0.0006850210351586421 0.9999661029636167 -0.0007391869461604416 0.9999661026494617 -0.0007391869459061792 3.288515188048419e-05 -0.0006850210383551169
0.3364074836529731 3.28278551604193e-05 -0.0007197953380955343 0.9999660501111342 -0.0007767109223724346 0.9999660497642751 -0.0007767109220460125 3.2832662404713106e-05 -0.0007197953417724967
0.3534848445675301 3.2769400806655414e-05 -0.0007563349277462857 0.9999659917564405 -0.0008161397706296375 0.9999659913734701 -0.0008161397702887344 3.277470850687341e-05 -0.0007563349320499231
0.37142911918043653 3.270486107856711e-05 -0.0007947294035106342 0.999965927326748 -0.0008575701747732711 0.9999659269039094 -0.0008575701743905544 3.271072133733446e-05 -0.000794729408516298
0.3902843154250111 3.263360245435552e-05 -0.0008350729309625766 0.9999658561896141 -0.0009011037455812824 0.9999658557227553 -0.0009011037451804672 3.2640072793612744e-05 -0.00083507293681311
0.4100966752495598 3.2554925531431335e-05 -0.0008774644130144121 0.9999657776468285 -0.0009468472109853882 0.999965777131368 -0.0009468472104855778 3.256206946275144e-05 -0.0008774644197671231
0.43091478802472344 3.2468057918346444e-05 -0.0009220078724585719 0.9999656909273178 -0.000994912813243799 0.9999656903581958 -0.000994912812671833 3.247594556676242e-05 -0.0009220078803006441
0.4527897097078248 3.237214702706978e-05 -0.0009688124988905127 0.9999655951799465 -0.001045418380184226 0.9999655945515751 -0.0010454183795352017 3.2380855815176056e-05 -0.0009688125080030627
0.47577508805646623 3.226625131706421e-05 -0.0010179931219596143 0.9999654894647797 -0.0010984878180781614 0.9999654887709927 -0.00109848781732548 3.227586673099187e-05 -0.001017993132531856
0.4999272941984582 3.214933140391788e-05 -0.001069670316762609 0.9999653727442048 -0.0011542512393355113 0.9999653719781912 -0.0011542512384765126 3.215994782739831e-05 -0.0010696703290422572
0.5253055608807532 3.202023965845399e-05 -0.001123970800697195 0.9999652438725505 -0.0012128453830955422 0.9999652430267909 -0.0012128453820505953 3.203196130128687e-05 -0.0011239708148950939
0.5519721277364371 3.187770874132994e-05 -0.0011810278233847908 0.999965101584636 -0.0012744140281169102 0.99996510065083 -0.001274414026921798 3.1890650662465545e-05 -0.0011810278398737167
0.5799923939260409 3.172033980022324e-05 -0.0012409812219372413 0.9999649444839956 -0.0013391080772294903 0.999964943452976 -0.0013391080758227366 3.173462903530504e-05 -0.0012409812410466834
0.6094350785275234 3.154658807409164e-05 -0.0013039780498393869 0.9999647710285003 -0.0014070862094948653 0.9999647698901464 -0.0014070862079262495 3.1562364882795826e-05 -0.0013039780720727012
0.6403723890682781 3.135474796102684e-05 -0.0013701728288957014 0.9999645795154584 -0.0014785151634152363 0.9999645782585963 -0.0014785151615645544 3.137216720901062e-05 -0.0013701728546589094
0.672880198612483 3.114293648602567e-05 -0.0014397278591810525 0.9999643680651026 -0.0015535700764499273 0.9999643666773955 -0.001553570074317977 3.116216915630569e-05 -0.0014397278890854453
0.7070382318380991 3.090907454389395e-05 -0.001512813716997855 0.999964134601874 -0.0016324350124588454 0.9999641330697003 -0.0016324350100095071 3.093030942323084e-05 -0.0015128137517155845
0.7429302605598647 3.065086648274309e-05 -0.0015896096685282515 0.9999638768340333 -0.0017153034114641614 0.9999638751423529 -0.0017153034085526406 3.067431200770138e-05 -0.0015896097087362215
0.7806443091778051 3.0365777878121764e-05 -0.0016703040121811958 0.9999635922314789 -0.0018023784639118402 0.9999635903636876 -0.001802378460563615 3.0391664190049908e-05 -0.0016703040588581892
0.8202728705551018 3.0051010357548895e-05 -0.0017550946392860564 0.9999632780006065 -0.0018938737099088796 0.9999632759383699 -0.0018938737060007367 3.0079591549240735e-05 -0.0017550946934148286
0.8619131328547955 2.970347427859619e-05 -0.0018441894708096627 0.9999629310570426 -0.00199001351351904 0.9999629287801179 -0.0019900135089851263 2.9735030898512728e-05 -0.0018441895336074562
0.9056672178915632 2.931975820625356e-05 -0.0019378070209953705 0.9999625479951678 -0.0020910336665705886 0.9999625454812057 -0.002091033661316955 2.9354600009570478e-05 -0.0019378070938568248
0.9516424315832187 2.889609582423497e-05 -0.0020361768301897253 0.9999621250550862 -0.0021971818643222825 0.999962122279409 -0.00219718185821769 2.893456480818817e-05 -0.0020361769147105866
0.999951527116057 2.842832847301444e-05 -0.002139540151324524 0.9999616580852305 -0.0023087184363738337 0.9999616550205932 -0.0023087184292979786 2.847080224568408e-05 -0.002139540249388067
1.0507129814695484 2.7911864782655212e-05 -0.002248150433989252 0.9999611425020544 -0.002425916876630232 0.9999611391183761 -0.002425916868436742 2.7958760254968526e-05 -0.0022481505477735426
1.1040512859784777 2.7341635317293245e-05 -0.0023622740119322713 0.9999605732447667 -0.002549064581741534 0.9999605695088335 -0.0025490645722244768 2.7393412803939947e-05 -0.0023622741439280857
1.1600972516451793 2.6712042880775148e-05 -0.002482190741115918 0.9999599447257124 -0.0026784635389547934 0.999959940600852 -0.002678463527901076 2.6769210615039854e-05 -0.0024821908942387564
1.2189883299505808 2.6016907687635947e-05 -0.002608194662690328 0.999959250775642 -0.002814431045034252 0.9999592462213669 -0.0028144310322157306 2.6080026813933484e-05 -0.0026081948403416885
1.2808689499509174 2.524940653492217e-05 -0.0027405947590333824 0.9999584845829839 -0.002957300517958419 0.9999584795545923 -0.0029573005030974777 2.53190966138765e-05 -0.002740594965146587
1.3458908724867602 2.440200610694298e-05 -0.002879715660762027 0.9999576386272647 -0.00310742226406862 0.9999576330753979 -0.0031074222468189315 2.4478951192374504e-05 -0.002879715899876065
1.4142135623730951 2.346638873188282e-05 -0.003025898496103286 0.9999567046049916 -0.0032651643918985996 0.9999566984751533 -0.0032651643718694667 2.355134408995913e-05 -0.0030258987734951693
1.486004579483226 2.243337093332666e-05 -0.0031795016939679633 0.9999556733483452 -0.0034309136792938537 0.9999556665803688 -0.0034309136560670226 2.2527170458230226e-05 -0.0031795020157948444
