! Created with skrf 1.8.0 (http://scikit-rf.org).
# MHz S RI R 50.0 
!freq ReS11 ImS11 ReS21 ImS21 ReS12 ImS12 ReS22 ImS22
0.01 -1.234892732044584e-08 -0.00010682342794629176 0.9999999876125489 -0.0001156013114479968 0.9999999876125427 -0.00011560131164599526 -1.2348929660939786e-08 -0.00010682342814429067
0.01050763915026853 -1.3634457498518376e-08 -0.00011224595800619058 0.9999999863230082 -0.00012146947346562987 0.9999999863230035 -0.00012146947352920382 -1.3634457633734575e-08 -0.00011224595806976504
0.011041048051225594 -1.5053856582500218e-08 -0.00011794395034608392 0.9999999848991786 -0.00012763568070045615 0.9999999848991784 -0.00012763568092791133 -1.5053856522065575e-08 -0.0001179439505735391
0.011601534876305412 -1.6621158748650684e-08 -0.00012393172751069668 0.999999983326985 -0.0001341154495672428 0.9999999833269879 -0.00013411544952764698 -1.6621160689622583e-08 -0.00012393172747110024
0.01219047420694725 -1.835159157781831e-08 -0.00013022332768251023 0.9999999815911517 -0.00014092401186140236 0.9999999815911558 -0.00014092401179088693 -1.835159676555069e-08 -0.00013022332761199353
0.012809310403725764 -2.0261904497686456e-08 -0.0001368333334141079 0.999999979674887 -0.00014807723224053267 0.9999999796748843 -0.00014807723223152084 -2.0261898789078388e-08 -0.00013683333340509728
0.013459561148613082 -2.2371308107187117e-08 -0.00014377967353537674 0.9999999775588977 -0.00015559436562843885 0.9999999775589004 -0.00015559436558548612 -2.2371307289567895e-08 -0.0001437796734924238
0.014142821167060008 -2.4700237566294675e-08 -0.00015107839469282288 0.9999999752227066 -0.0001634928341566044 0.999999975222704 -0.00016349283424378842 -2.4700233475031973e-08 -0.00015107839478000794
0.014860766139024621 -2.7271631208164096e-08 -0.0001587476760610139 0.9999999726432885 -0.00017179231184601346 0.9999999726432868 -0.00017179231200155264 -2.7271631023463024e-08 -0.0001587476762165535
0.015615156808540002 -3.011082698860487e-08 -0.0001668065826671877 0.9999999697952325 -0.00018051342391058712 0.9999999697952334 -0.00018051342369042645 -3.0110829596743585e-08 -0.00016680658244702643
0.01640784330189971 -3.3245465287527435e-08 -0.0001752742104834783 0.999999966650819 -0.00018967686689677507 0.9999999666508159 -0.00018967686694837548 -3.3245463109691835e-08 -0.00017527421053507972
0.017240769665051267 -3.670651975183621e-08 -0.00018417192287726052 0.9999999631789664 -0.00019930571330361178 0.9999999631789664 -0.00019930571326843449 -3.670651591320166e-08 -0.00018417192284208404
0.018115978631325472 -4.0527755576854427e-08 -0.00019352098333256707 0.9999999593458109 -0.00020942303092750972 0.999999959345809 -0.00020942303080791403 -4.052774918000249e-08 -0.00019352098321297304
0.019035616631194404 -4.474693286281872e-08 -0.00020334497372408666 0.9999999551134693 -0.0002200542661511572 0.9999999551134685 -0.00022005426595502172 -4.474692885221457e-08 -0.0002033449735279521
0.020001939056344106 -4.940521973655096e-08 -0.0002136673869297129 0.9999999504406463 -0.00023122489520776085 0.9999999504406447 -0.0002312248952068865 -4.94052236116919e-08 -0.00021366738692883808
0.021017315790972647 -5.454862556404922e-08 -0.0002245141558637946 0.9999999452811963 -0.00024296295733033 0.9999999452811927 -0.00024296295722457813 -5.4548626706043136e-08 -0.00022451415575804322
0.022084237023878118 -6.022731997759358e-08 -0.00023591120596148666 0.9999999395847834 -0.00025529655064241563 0.9999999395847833 -0.0002552965507509662 -6.02273214389983e-08 -0.00023591120607003685
0.02320531935559115 -6.649749670658255e-08 -0.00024788741914404274 0.9999999332950473 -0.00026825682840772455 0.9999999332950452 -0.000268256828419731 -6.649749786078391e-08 -0.0002478874191560495
0.024383312215529362 -7.342001166840497e-08 -0.0002604707936195651 0.9999999263509375 -0.0002818742363899922 0.9999999263509325 -0.00028187423636419703 -7.342001132810355e-08 -0.0002604707935937714
0.02562110460491172 -8.106350620255966e-08 -0.0002736935109243426 0.9999999186835944 -0.0002961834834281115 0.9999999186835986 -0.0002961834835336028 -8.106350192708055e-08 -0.0002736935110298339
0.02692173218196957 -8.950240176627937e-08 -0.00028758692445306097 0.999999910218373 -0.0003112185730548212 0.9999999102183715 -0.0003112185730270864 -8.950239873446863e-08 -0.00028758692442532746
0.02828838470683077 -9.882017274045668e-08 -0.00030218618452115646 0.9999999008715322 -0.00032701747036153117 0.9999999008715323 -0.0003270174701787264 -9.882017020633897e-08 -0.0003021861843383525
0.029724413864335254 -1.0910779386061368e-07 -0.0003175262876830102 0.9999998905518163 -0.00034361810308346534 0.999999890551816 -0.00034361810305957397 -1.0910779150202204e-07 -0.00031752628765911994
0.031233341483967378 -1.204664856048255e-07 -0.00033364523222949565 0.9999998791576858 -0.0003610615724050609 0.9999998791576848 -0.0003610615725049361 -1.2046648768246253e-07 -0.0003336452323293704
0.03281886817706418 -1.3300767926966612e-07 -0.00035058243662387036 0.9999998665773676 -0.000379390540269677 0.99999986657737 -0.0003793905402295833 -1.330076762195805e-07 -0.0003505824365837768
0.034484882412482154 -1.4685436802333828e-07 -0.0003683793072450857 0.9999998526874813 -0.0003986498233622243 0.9999998526874798 -0.0003986498234558781 -1.4685436684076583e-07 -0.0003683793073387405
0.03623547005298042 -1.6214253212452464e-07 -0.0003870795838438295 0.9999998373516172 -0.0004188867469261588 0.9999998373516192 -0.00041888674683351423 -1.6214253595464235e-07 -0.00038707958375118245
0.03807492437570799 -1.7902241918338648e-07 -0.00040672933154134894 0.9999998204190738 -0.0004401511548986215 0.9999998204190739 -0.0004401511549270953 -1.790224152977614e-07 -0.00040672933156982454
0.04000775660137028 -1.9765954792809544e-07 -0.0004273765431115388 0.9999998017238018 -0.0004624949845393869 0.9999998017237994 -0.0004624949845603153 -1.9765954579560587e-07 -0.0004273765431324692
0.04203870695789726 -2.1823681673845928e-07 -0.0004490718022192638 0.9999997810823357 -0.0004859729925662213 0.9999997810823358 -0.0004859729925750021 -2.1823681411554502e-07 -0.0004490718022280459
0.04417275630574673 -2.4095629355447164e-07 -0.0004718684204044526 0.9999997582919729 -0.0005106428604988492 0.9999997582919733 -0.0005106428604828036 -2.409563026256372e-07 -0.0004718684203884019
0.04641513835335354 -2.6604089935055067e-07 -0.0004958221995988746 0.9999997331291164 -0.0005365649784637563 0.999999733129112 -0.0005365649783356378 -2.6604089818806587e-07 -0.0004958221994707592
0.0487713524926828 -2.9373700947742873e-07 -0.0005209920461501894 0.9999997053465953 -0.0005638030913106004 0.9999997053465939 -0.0005638030913330881 -2.9373701601392327e-07 -0.0005209920461726743
0.051247177286366054 -3.243165759951144e-07 -0.0005474397442074207 0.9999996746716333 -0.0005924240444741194 0.9999996746716335 -0.0005924240445344366 -3.243165697678663e-07 -0.0005474397442677414
0.0538486846394972 -3.5807950015958056e-07 -0.0005752299319603686 0.999999640803373 -0.0006224978097345151 0.9999996408033721 -0.0006224978097076054 -3.580795024395638e-07 -0.0005752299319334578
0.05658225469084444 -3.9535730216542466e-07 -0.0006044308450783934 0.9999996034092721 -0.0006540982295586993 0.9999996034092737 -0.0006540982296387341 -3.953573027442728e-07 -0.0006044308451584268
0.05945459145999823 -4.3651576830652497e-07 -0.000635114009472999 0.9999995621224036 -0.0006873027045271673 0.9999995621224015 -0.00068730270446471 -4.365157667271559e-07 -0.0006351140094105442
0.062472739288829834 -4.819591851902093e-07 -0.0006673548877391917 0.999999516537214 -0.0007221928847957395 0.9999995165372111 -0.000722192884804157 -4.81959184014687e-07 -0.0006673548877476122
0.06564410011758287 -5.321333843684151e-07 -0.0007012323705233026 0.9999994662064798 -0.0007588541594726755 0.9999994662064796 -0.000758854159446838 -5.32133386103946e-07 -0.0007012323704974642
0.06897645163796594 -5.875309845248886e-07 -0.0007368296224909759 0.9999994106360497 -0.00079737652014715 0.9999994106360504 -0.0007973765201486956 -5.875309887407657e-07 -0.000736829622492518
0.07247796636776961 -6.486957268686846e-07 -0.0007742339205046974 0.9999993492804898 -0.0008378544128333236 0.9999993492804851 -0.0008378544128280891 -6.486957307625099e-07 -0.000774233920499463
0.07615723169378218 -7.162280355917974e-07 -0.0008135370165340015 0.9999992815374947 -0.0008803871338768162 0.9999992815374935 -0.0008803871338766184 -7.16228038106763e-07 -0.0008135370165338023
0.08002327093216569 -7.907908288981428e-07 -0.0008548353121576376 0.9999992067420846 -0.0009250790056521209 0.999999206742083 -0.0009250790057037938 -7.907908269144854e-07 -0.000854835312209314
0.08408556545793698 -8.731158818502925e-07 -0.0008982300238295433 0.9999991241601918 -0.0009720395604528396 0.999999124160196 -0.0009720395604656126 -8.73115882769006e-07 -0.0008982300238423117
0.08835407795782858 -9.640112934980052e-07 -0.000943827573401798 0.9999990329812126 -0.0010213839737889903 0.9999990329812128 -0.0010213839737587926 -9.640112858201752e-07 -0.0009438275733716076
0.09283927686355573 -1.064369515034014e-06 -0.0009917399128776142 0.9999989323098929 -0.0010732333786334762 0.9999989323098942 -0.0010732333786545463 -1.0643695125561354e-06 -0.0009917399128986856
0.09755216202541175 -1.1751752682751697e-06 -0.001042084350262509 0.999998821158449 -0.0011277147415101319 0.999998821158449 -0.0011277147415386856 -1.1751752698115003e-06 -0.0010420843502910613
0.10250429168915555 -1.29751653401313e-06 -0.001094984504042064 0.9999986984355083 -0.0011849618312600985 0.9999986984355083 -0.001184961831311086 -1.2975165297074722e-06 -0.0010949845040930564
0.10770781084235159 -1.4325940069521412e-06 -0.0011505700269447612 0.9999985629366202 -0.001245114955905021 0.9999985629366218 -0.0012451149559278333 -1.4325940072272884e-06 -0.0011505700269675713
0.11317548099968108 -1.581733829318533e-06 -0.0012089773338822862 0.9999984133315178 -0.0013083217318586083 0.9999984133315152 -0.0013083217318286724 -1.581733828629527e-06 -0.001208977333852355
0.11892071150027211 -1.7463995509866957e-06 -0.0012703495072595547 0.9999982481520721 -0.001374737016618578 0.9999982481520735 -0.001374737016619498 -1.7463995512147356e-06 -0.0012703495072604728
0.12495759239380483 -1.9282077820928264e-06 -0.0013348371681012002 0.9999980657766381 -0.0014445237959598858 0.9999980657766402 -0.0014445237959721923 -1.9282077830730693e-06 -0.001334837168113502
0.13130092899604406 -2.1289430796841436e-06 -0.0014025984452808713 0.9999978644150914 -0.0015178531958582545 0.9999978644150924 -0.0015178531958499415 -2.1289430786558303e-06 -0.0014025984452725583
0.1379662781985461 -2.3505758412193844e-06 -0.0014737995193859737 0.9999976420908814 -0.0015949050520108919 0.9999976420908855 -0.0015949050520044454 -2.3505758419622154e-06 -0.0014737995193795197
0.14496998662158825 -2.595281372518067e-06 -0.0015486149356740639 0.9999973966219206 -0.0016758682600614525 0.9999973966219223 -0.001675868260061434 -2.5952813760358373e-06 -0.0015486149356740365
0.15232923070389057 -2.8654619001179394e-06 -0.0016272282454888724 0.999997125598491 -0.0017609414475050736 0.9999971255984915 -0.0017609414474922607 -2.865461897082355e-06 -0.001627228245476065
0.16006205882744876 -3.1637693384114683e-06 -0.001709832199736302 0.9999968263603941 -0.0018503332069198873 0.9999968263603966 -0.0018503332069131654 -3.1637693377399906e-06 -0.0017098321997295767
0.1681874355807885 -3.4931318232357267e-06 -0.0017966293728884602 0.999996495970366 -0.0019442627607148314 0.9999964959703677 -0.0019442627607002098 -3.4931318258885496e-06 -0.00179662937287383
0.17672528826919598 -3.856782317006294e-06 -0.0018878326211239662 0.9999961311853613 -0.0020429604571756627 0.999996131185361 -0.002042960457180367 -3.856782314735009e-06 -0.0018878326211286755
0.1856965557859895 -4.2582901579579775e-06 -0.0019836655623604975 0.9999957284248955 -0.002146668294618677 0.9999957284248947 -0.002146668294623788 -4.258290160879267e-06 -0.001983665562365603
0.19512323996468875 -4.701596454067201e-06 -0.002084363210824785 0.9999952837355746 -0.002255640599176774 0.9999952837355699 -0.0022556405991849024 -4.701596457573129e-06 -0.0020843632108329168
0.20502845953802087 -5.191052938021014e-06 -0.0021901725843945404 0.9999947927520854 -0.002370144683328238 0.999994792752083 -0.002370144683310182 -5.191052937120644e-06 -0.0021901725843764914
0.2154365068360951 -5.731463489884258e-06 -0.002301353045183544 0.9999942506555547 -0.00249046123232926 0.9999942506555521 -0.0024904612323296397 -5.7314634962047285e-06 -0.0023013530451839142
0.22637290736280513 -6.3281326831962394e-06 -0.0024181772486784148 0.9999936521248671 -0.0026168853086215747 0.9999936521248679 -0.0026168853086082785 -6.328132688765806e-06 -0.002418177248665103
0.23786448239655172 -6.986917201959042e-06 -0.0025409316689324166 0.9999929912850685 -0.0027497269277178154 0.9999929912850694 -0.0027497269277142475 -6.986917199872163e-06 -0.0025409316689288517
0.24993941476883716 -7.714283403156319e-06 -0.0026699173151704387 0.9999922616496186 -0.002889311838351416 0.9999922616496201 -0.0028893118383360554 -7.714283400746502e-06 -0.0026699173151550812
0.2626273179820232 -8.517370750533584e-06 -0.0028054504623815117 0.9999914560567866 -0.003035982310257961 0.9999914560567839 -0.003035982310264849 -8.51737074561335e-06 -0.0028054504623884237
0.2759593088357935 -9.40406197998402e-06 -0.0029478634476940613 0.9999905665992259 -0.003190097994184762 0.9999905665992299 -0.0031900979941947476 -9.404061987940519e-06 -0.002947863447704009
0.28996808374040284 -1.0383060211233826e-05 -0.003097505434590272 0.9999895845466975 -0.003352036754004693 0.9999895845466954 -0.0033520367540033984 -1.0383060202261872e-05 -0.0030975054345890145
0.3046879989039 -1.1463974461659844e-05 -0.003254743302149327 0.9999885002601627 -0.0035221956284006836 0.9999885002601627 -0.0035221956284083953 -1.1463974464500296e-05 -0.0032547433021570273
0.32015515458995947 -1.2657414709854037e-05 -0.003419962639576991 0.9999873030965699 -0.003700991891826072 0.9999873030965692 -0.0037009918918141337 -1.26574147089843e-05 -0.0034199626395650592
0.3364074836529731 -1.397509458281606e-05 -0.0035935684826844286 0.9999859813057296 -0.003888863879533842 0.99998598130573 -0.0038888638795354946 -1.3975094584149379e-05 -0.0035935684826860735
0.3534848445675301 -1.542994723731746e-05 -0.003775986445699137 0.9999845219141398 -0.004086272192329501 0.9999845219141381 -0.004086272192332411 -1.542994723828444e-05 -0.0037759864457020506
0.37142911918043653 -1.7036252369185036e-05 -0.003967663768723382 0.999982910597543 -0.00429370083389522 0.9999829105975425 -0.004293700833909065 -1.703625237419548e-05 -0.0039676637687372064
0.3902843154250111 -1.8809775766906462e-05 -0.004169070335728249 0.9999811315409677 -0.0045116583176518866 0.9999811315409667 -0.00451165831765138 -1.8809775770289498e-05 -0.0041690703357277325
0.4100966752495598 -2.0767924261508518e-05 -0.004380699860459065 0.9999791672832642 -0.004740678948716046 0.999979167283265 -0.004740678948716528 -2.0767924261595406e-05 -0.004380699860459546
0.43091478802472344 -2.2929916841622527e-05 -0.004603071126780194 0.9999769985454766 -0.004981324161499551 0.999976998545475 -0.004981324161503445 -2.2929916843076025e-05 -0.004603071126784087
0.4527897097078248 -2.5316972773503117e-05 -0.004836729201825688 0.999974604042126 -0.0052341838399537705 0.999974604042128 -0.00523418383994992 -2.5316972776916466e-05 -0.004836729201821811
0.47577508805646623 -2.7952519918434856e-05 -0.0050822467850526725 0.9999719602722559 -0.005499877774791693 0.9999719602722523 -0.005499877774795445 -2.7952519921751105e-05 -0.005082246785056425
0.4999272941984582 -3.086242429923052e-05 -0.0053402255808342874 0.99996904128912 -0.005779057152736454 0.9999690412891202 -0.005779057152738411 -3.08624243029445e-05 -0.005340225580836226
0.5253055608807532 -3.40752447025084e-05 -0.00561129784527719 0.9999658184448248 -0.0060724062233684355 0.9999658184448239 -0.006072406223372505 -3.407524470078411e-05 -0.005611297845281275
0.5519721277364371 -3.762251194444622e-05 -0.005896127843299563 0.9999622601101539 -0.0063806438855372434 0.999962260110155 -0.006380643885536872 -3.762251193795368e-05 -0.005896127843299226
0.5799923939260409 -4.1539038330103567e-05 -0.006195413488038325 0.9999583313641612 -0.00670452545828788 0.999958331364163 -0.006704525458281468 -4.153903833001933e-05 -0.006195413488031899
0.6094350785275234 -4.586325941257299e-05 -0.006509888062309572 0.9999539936513597 -0.0070448445459738935 0.999953993651357 -0.007044844545974169 -4.5863259410968954e-05 -0.006509888062309881
0.6403723890682781 -5.063761050655603e-05 -0.006840321971772698 0.999949204403989 -0.007402434936229106 0.9999492044039879 -0.007402434936227113 -5.0637610506355474e-05 -0.006840321971770713
0.672880198612483 -5.590894308824661e-05 -0.007187524634574419 0.9999439166243589 -0.00777817264898913 0.9999439166243561 -0.007778172648985732 -5.590894308935274e-05 -0.007187524634571033
0.7070382318380991 -6.172898402413731e-05 -0.007552346437192044 0.999938078424157 -0.008172978051637017 0.9999380784241539 -0.00817297805163306 -6.172898402671538e-05 -0.0075523464371880875
0.7429302605598647 -6.81548429676914e-05 -0.00793568081159574 0.9999316325154814 -0.008587818110279423 0.9999316325154847 -0.008587818110278589 -6.81548429653933e-05 -0.007935680811594901
0.7806443091778051 -7.524957150615144e-05 -0.008338466357521309 0.9999245156499394 -0.00902370869104076 0.999924515649939 -0.009023708691044536 -7.524957150444846e-05 -0.008338466357525104
0.8202728705551018 -8.308278198221534e-05 -0.008761689162138132 0.9999166579978899 -0.009481717070507495 0.9999166579978933 -0.009481717070504945 -8.308278197900735e-05 -0.008761689162135582
0.8619131328547955 -9.173132887857889e-05 -0.009206385135058214 0.9999079824649358 -0.009962964468847786 0.9999079824649378 -0.009962964468844489 -9.173132887701374e-05 -0.009206385135054907
0.9056672178915632 -0.00010128006240685579 -0.009673642537450016 0.9998984039359753 -0.010468628787943001 0.9998984039359715 -0.010468628787939112 -0.0001012800624081524 -0.009673642537446151
0.9516424315832187 -0.00011182265948470392 -0.010164604585756564 0.9998878284416156 -0.010999947437183792 0.9998878284416132 -0.010999947437185775 -0.00011182265948551421 -0.010164604585758567
0.999951527116057 -0.0001234625409979375 -0.010680472188534474 0.9998761522380575 -0.011558220297576631 0.9998761522380579 -0.011558220297578706 -0.00012346254099525417 -0.010680472188536575
1.0507129814695484 -0.000136313884660893 -0.011222506831732629 0.9998632607910485 -0.012144812852716817 0.9998632607910495 -0.012144812852714614 -0.00013631388466412572 -0.011222506831730374
1.1040512859784777 -0.0001505027425587814 -0.011792033584977489 0.9998490276548637 -0.012761159449028442 0.999849027654859 -0.0127611594490275 -0.0001505027425574421 -0.011792033584976623
1.1600972516451793 -0.00016616827505794822 -0.012390444273034425 0.9998333132344912 -0.013408766735206244 0.9998333132344932 -0.013408766735209729 -0.0001661682750522351 -0.01239044427303797
1.2189883299505808 -0.00018346411113957594 -0.013019200737434242 0.9998159634210741 -0.014089217205656514 0.9998159634210733 -0.014089217205659326 -0.00018346411114269774 -0.013019200737437025
1.2808689499509174 -0.00020255985263483407 -0.013679838365212495 0.9997968080829509 -0.014804173024976589 0.9997968080829482 -0.014804173024981694 -0.00020255985263950799 -0.013679838365217571
1.3458908724867602 -0.00022364273045812717 -0.014373969641282746 0.9997756594042073 -0.015555379891286185 0.999775659404208 -0.015555379891283088 -0.00022364273046033919 -0.014373969641279597
1.4142135623730951 -0.00024691943490354125 -0.015103287962567947 0.9997523100486604 -0.01634467117699375 0.9997523100486561 -0.01634467117699423 -0.00024691943490147926 -0.015103287962568532
