! Created with skrf 1.8.0 (http://scikit-rf.org).
# MHz S RI R 50.0 
!freq ReS11 ImS11 ReS12 ImS12 ReS13 ImS13
! ReS14 ImS14 ReS15 ImS15
! ReS21 ImS21 ReS22 ImS22 ReS23 ImS23
! ReS24 ImS24 ReS25 ImS25
! ReS31 ImS31 ReS32 ImS32 ReS33 ImS33
! ReS34 ImS34 ReS35 ImS35
! ReS41 ImS41 ReS42 ImS42 ReS43 ImS43
! ReS44 ImS44 ReS45 ImS45
! ReS51 ImS51 ReS52 ImS52 ReS53 ImS53
! ReS54 ImS54 ReS55 ImS55
!
0.01 -0.5999250304069469 -1.558670305694913e-05 0.3999812566900281 -1.7809904385850763e-05 0.3999812566908715 -1.774196871639589e-05 0.3999812566050546 -1.9015327828679733e-05
 0.3999812565950382 -1.8815777913865484e-05
 0.3999812566901013 -1.780989351089837e-05 -0.5999250303868379 -1.5661895631194197e-05 0.39998125670335466 -1.650929940453076e-05 0.39998125661208206 -1.9339973928695442e-05
 0.39998125660003164 -1.9648619428713206e-05
 0.39998125669101414 -1.774194590401938e-05 0.3999812567034238 -1.650932245141636e-05 -0.5999250303856257 -1.580668344658652e-05 0.39998125661308265 -1.9309615403039655e-05
 0.3999812566011122 -1.9602114699143842e-05
 0.39998125660519585 -1.901547218340471e-05 0.39998125661214984 -1.934006796825601e-05 0.3999812566130808 -1.930972549313039e-05 -0.5999250305382989 -1.342218760852057e-05
 0.3999812565315301 -1.7882228631600884e-05
 0.39998125659504435 -1.8815667496402998e-05 0.39998125659996464 -1.9648491641908546e-05 0.3999812566009757 -1.9602005020628058e-05 0.3999812565313919 -1.7882576804404972e-05
 -0.5999250305567567 -1.302094091899527e-05
0.01050763915026853 -0.5999250304834634 -1.6377930444552215e-05 0.39998125661424466 -1.8713999222124597e-05 0.3999812566151758 -1.8642613514459974e-05 0.39998125652042626 -1.9980604668237503e-05
 0.3999812565093679 -1.9770939223654697e-05
 0.39998125661432504 -1.871398541120629e-05 -0.5999250304612628 -1.6456944804628335e-05 0.3999812566289576 -1.734736787639348e-05 0.3999812565281843 -2.0321740220335728e-05
 0.3999812565148798 -2.0646048763122794e-05
 0.39998125661533307 -1.8642587148401895e-05 0.399981256629034 -1.7347391334828886e-05 -0.5999250304599242 -1.660908293438866e-05 0.39998125652928895 -2.0289840639246095e-05
 0.3999812565160731 -2.0597185019022722e-05
 0.3999812565205815 -1.99807638820635e-05 0.3999812565282591 -2.0321837140756232e-05 0.39998125652928695 -2.0289953198646863e-05 -0.5999250306284892 -1.4103543760416365e-05
 0.39998125643924853 -1.8789989071622448e-05
 0.39998125650937333 -1.9770819997600093e-05 0.39998125651480526 -2.064591459726826e-05 0.3999812565159216 -2.059706957878664e-05 0.3999812564390949 -1.8790357822018294e-05
 -0.5999250306488672 -1.368192505484742e-05
0.011041048051225594 -0.5999250305679614 -1.7209485859529195e-05 0.39998125653055716 -1.966414040090932e-05 0.39998125653158545 -1.9589140960365425e-05 0.39998125642697024 -2.0995050807879044e-05
 0.39998125641476 -2.0774739960753534e-05
 0.39998125653064714 -1.9664132299860395e-05 -0.5999250305434483 -1.729251299740878e-05 0.399981256546803 -1.822813597454765e-05 0.39998125643553706 -2.1353502333450885e-05
 0.39998125642084703 -2.1694274387252444e-05
 0.3999812565317595 -1.958911094090003e-05 0.3999812565468873 -1.822816190229142e-05 -0.5999250305419701 -1.7452373690118663e-05 0.3999812564367567 -2.1319982884781092e-05
 0.3999812564221643 -2.1642928574662777e-05
 0.39998125642714255 -2.0995217578308348e-05 0.3999812564356197 -2.1353606250248635e-05 0.39998125643675475 -2.1320098942371378e-05 -0.5999250307280865 -1.4819641362549427e-05
 0.3999812563373405 -1.9743993833308103e-05
 0.39998125641476706 -2.0774611207880045e-05 0.39998125642076476 -2.1694136311658795e-05 0.3999812564219977 -2.1642808813137874e-05 0.3999812563371715 -1.974438048620982e-05
 -0.5999250307505867 -1.4376621144436483e-05
0.011601534876305412 -0.5999250306612449 -1.8083142244364927e-05 0.3999812564381676 -2.066241007797899e-05 0.3999812564393031 -2.0583589688219173e-05 0.3999812563237981 -2.2060869708288028e-05
 0.3999812563103166 -2.1829378441464076e-05
 0.39998125643826715 -2.066239188831837e-05 -0.5999250306341805 -1.817038083269439e-05 0.3999812564561044 -1.915350079129909e-05 0.39998125633325626 -2.2437521789423696e-05
 0.39998125631703696 -2.2795594862157045e-05
 0.39998125643949606 -2.058356367529124e-05 0.3999812564561976 -1.9153524867057116e-05 -0.599925030632549 -1.833835814918275e-05 0.399981256334603 -2.2402301603270875e-05
 0.39998125631849185 -2.274164186936204e-05
 0.3999812563239882 -2.2061048196261073e-05 0.3999812563333473 -2.2437627969752965e-05 0.39998125633460047 -2.2402424863016483e-05 -0.5999250308380388 -1.55719813886801e-05
 0.39998125622483804 -2.0746307716326477e-05
 0.3999812563103244 -2.182924452784427e-05 0.39998125631694575 -2.2795446291996622e-05 0.39998125631830656 -2.2741516551894223e-05 0.3999812562246507 -2.074671556414899e-05
 -0.5999250308628817 -1.5106467194135521e-05
0.01219047420694725 -0.5999250307642228 -1.9000986001465426e-05 0.39998125633617837 -2.1711175076150516e-05 0.39998125633743137 -2.1628368499166426e-05 0.39998125620990177 -2.318063180749386e-05
 0.3999812561950169 -2.2937391150815572e-05
 0.39998125633628756 -2.1711163750147332e-05 -0.59992503073434 -1.909265035612975e-05 0.39998125635598236 -2.0125674256610673e-05 0.39998125622034547 -2.35764072541086e-05
 0.3999812562024375 -2.395265692224586e-05
 0.39998125633764375 -2.162833175547683e-05 0.3999812563560856 -2.0125704917193862e-05 -0.5999250307325383 -1.9269150703782032e-05 0.39998125622183206 -2.353939846419268e-05
 0.39998125620404335 -2.389596669891155e-05
 0.39998125621011194 -2.318082219359428e-05 0.39998125622044584 -2.3576521048141888e-05 0.39998125622182923 -2.3539526868334476e-05 -0.5999250309594207 -1.636234343367706e-05
 0.39998125610063984 -2.179933896085783e-05
 0.3999812561950257 -2.2937248552320355e-05 0.39998125620233743 -2.3952501561484806e-05 0.3999812562038398 -2.3895832121535408e-05 0.39998125610043367 -2.179977150179164e-05
 -0.5999250309868502 -1.587319876281249e-05
0.012809310403725764 -0.5999250308779506 -1.996569292388606e-05 0.3999812562235403 -2.2813469672679305e-05 0.3999812562249245 -2.2726455082149284e-05 0.39998125608411805 -2.4357521907886927e-05
 0.3999812560676838 -2.4101930378631712e-05
 0.39998125622366065 -2.281345511894961e-05 -0.5999250308449583 -2.0062014478944382e-05 0.3999812562454057 -2.1147483036033053e-05 0.399981256095648 -2.477338439248191e-05
 0.3999812560758762 -2.516873294363925e-05
 0.3999812562251587 -2.2726419534187435e-05 0.39998125624551917 -2.114751040419875e-05 -0.5999250308429686 -2.0247477395067994e-05 0.3999812560972899 -2.4734496251663342e-05
 0.3999812560776491 -2.510916638529598e-05
 0.3999812560843501 -2.435771800929406e-05 0.39998125609575913 -2.4773503536683888e-05 0.39998125609728746 -2.473463226951195e-05 -0.5999250310934704 -1.719310783523667e-05
 0.39998125596348144 -2.29061082791377e-05
 0.3999812560676932 -2.4101784435021268e-05 0.39998125607576507 -2.5168571821157486e-05 0.39998125607742463 -2.5109022136461012e-05 0.3999812559632533 -2.2906559545683625e-05
 -0.5999250311237551 -1.667913198613352e-05
0.013459561148613082 -0.5999250310034762 -2.0979008189912216e-05 0.3999812560992189 -2.3971351951212868e-05 0.399981256100747 -2.3879909784256845e-05 0.3999812559452831 -2.5593782879766274e-05
 0.3999812559271377 -2.5325221504287045e-05
 0.39998125609935153 -2.3971332885841838e-05 -0.5999250309670486 -2.108021884421254e-05 0.39998125612336033 -2.2220789241788498e-05 0.39998125595801304 -2.6030758146454853e-05
 0.39998125593618267 -2.644617519672338e-05
 0.3999812561010053 -2.387987723468108e-05 0.3999812561234862 -2.2220820519691387e-05 -0.5999250309648527 -2.127509827043281e-05 0.3999812559598256 -2.598989558630426e-05
 0.3999812559381406 -2.6383582704335356e-05
 0.39998125594553896 -2.559399102500835e-05 0.39998125595813633 -2.6030882023497066e-05 0.399981255959823 -2.5990038600531974e-05 -0.5999250312414305 -1.8065674327213765e-05
 0.3999812558120881 -2.4068688292151126e-05
 0.39998125592714784 -2.5325064961876308e-05 0.3999812559360605 -2.6446001316141698e-05 0.39998125593789235 -2.6383438249733088e-05 0.39998125581183597 -2.4069163222931505e-05
 -0.5999250312748688 -1.7525606511446327e-05
0.014142821167060008 -0.5999250311421024 -2.2044047358889564e-05 0.39998125596192147 -2.5188282770299025e-05 0.3999812559636084 -2.509221239551684e-05 0.3999812557919603 -2.6893086913612373e-05
 0.39998125577192617 -2.661088928692845e-05
 0.39998125596206835 -2.5188274016211163e-05 -0.5999250311018834 -2.215039487319993e-05 0.399981255988576 -2.334886360541202e-05 0.39998125580601535 -2.7352239607942152e-05
 0.3999812557819126 -2.7788746628961496e-05
 0.3999812559638941 -2.5092175031727257e-05 0.3999812559887146 -2.3348896735293366e-05 -0.5999250310994583 -2.2355165122960425e-05 0.39998125580801663 -2.7309304884947474e-05
 0.39998125578407406 -2.7722976957289786e-05
 0.3999812557922423 -2.689330155223051e-05 0.39998125580615057 -2.7352374596876608e-05 0.399981255808013 -2.730945510133027e-05 -0.5999250314048303 -1.8982817927086896e-05
 0.3999812556448984 -2.5290569500117065e-05
 0.3999812557719373 -2.6610720606744934e-05 0.3999812557817774 -2.7788569867523042e-05 0.39998125578379956 -2.772282262545538e-05 0.3999812556446206 -2.529106953556421e-05
 -0.5999250314417482 -1.841533603507593e-05
0.014860766139024621 -0.5999250312951537 -2.316309232428448e-05 0.3999812558103377 -2.6466950171776858e-05 0.3999812558122004 -2.6365985006534565e-05 0.39998125562268255 -2.825829130186674e-05
 0.399981255600562 -2.7961762930696617e-05
 0.3999812558105007 -2.6466931437664425e-05 -0.5999250312507467 -2.3274837673624765e-05 0.3999812558397681 -2.4534147747049667e-05 0.39998125563820175 -2.874074944333491e-05
 0.39998125561158915 -2.919941544100421e-05
 0.3999812558125168 -2.6365955769899022e-05 0.39998125583992117 -2.4534178407614588e-05 -0.5999250312480696 -2.3490004544087952e-05 0.3999812556404114 -2.8695634730970873e-05
 0.39998125561397563 -2.9130308290675913e-05
 0.3999812556229943 -2.8258514055940918e-05 0.3999812556383505 -2.8740888136228934e-05 0.39998125564040676 -2.8695795236146985e-05 -0.5999250315852328 -1.99464629344818e-05
 0.3999812554603103 -2.657442131713174e-05
 0.39998125560057485 -2.7961587848933707e-05 0.3999812556114392 -2.919922736189845e-05 0.3999812556136724 -2.913014922600807e-05 0.399981255460004 -2.6574943370609078e-05
 -0.5999250316259955 -1.9350173864037428e-05
0.015615156808540002 -0.5999250314641229 -2.433882259263393e-05 0.3999812556429891 -2.781039666250564e-05 0.3999812556450459 -2.770432033348631e-05 0.39998125543579843 -2.969267519366276e-05
 0.399981255411376 -2.9381101007127242e-05
 0.39998125564316866 -2.7810383036354865e-05 -0.5999250314150931 -2.4456246827466243e-05 0.39998125567548287 -2.5779479941623097e-05 0.39998125545293284 -3.0199628226476757e-05
 0.3999812554235508 -3.068157776621757e-05
 0.39998125564539455 -2.7704280873260723e-05 0.39998125567565196 -2.5779517392785765e-05 -0.5999250314121372 -2.4682333400976655e-05 0.39998125545537244 -3.0152223640464463e-05
 0.39998125542618596 -3.060896049131265e-05
 0.39998125543614316 -2.969291363833764e-05 0.3999812554530984 -3.0199774944622402e-05 0.39998125545536867 -3.0152390524691166e-05 -0.599925031784399 -2.0958909108890044e-05
 0.3999812552565246 -2.7923327508801183e-05
 0.3999812554113903 -2.9380915368136026e-05 0.3999812554233858 -3.0681380221428594e-05 0.39998125542585156 -3.0608791343639884e-05 0.3999812552561855 -2.792387939979441e-05
 -0.5999250318294039 -2.0332349382547847e-05
0.01640784330189971 -0.5999250316507068 -2.5574426098799012e-05 0.39998125545819446 -2.9222235179642503e-05 0.39998125546046503 -2.9110763098907158e-05 0.3999812552294331 -3.120006604760204e-05
 0.3999812552024684 -3.087266574386886e-05
 0.39998125545839225 -2.922221674278448e-05 -0.5999250315965735 -2.5697811047410707e-05 0.3999812554940702 -2.7088218872697783e-05 0.39998125524835093 -3.1732746817097205e-05
 0.3999812552159099 -3.22391626989489e-05
 0.39998125546084956 -2.9110728395049708e-05 0.3999812554942568 -2.708825508919755e-05 -0.5999250315933102 -2.593537703443223e-05 0.39998125525104444 -3.1682934653680724e-05
 0.399981255218819 -3.2162861007346435e-05
 0.39998125522981426 -3.120031067333267e-05 0.3999812552485339 -3.1732900943165836e-05 0.39998125525104083 -3.168311326713129e-05 -0.599925032004327 -2.2022933817069332e-05
 0.3999812550314953 -2.9340897393785008e-05
 0.3999812552024841 -3.0872474234862865e-05 0.39998125521572875 -3.2238953836494325e-05 0.39998125521845085 -3.216268383442965e-05 0.3999812550311211 -2.934147480100222e-05
 -0.5999250320540174 -2.136456937633046e-05
0.017240769665051267 -0.5999250318567323 -2.6872868033283472e-05 0.3999812552541446 -3.0705851029482404e-05 0.3999812552566513 -3.058872505122552e-05 0.399981255001566 -3.278407953597694e-05
 0.39998125497179393 -3.244006818338005e-05
 0.39998125525436273 -3.0705832650727926e-05 -0.5999250317969628 -2.7002515741023107e-05 0.39998125529375544 -2.846350551440497e-05 0.3999812550224536 -3.334380713437856e-05
 0.39998125498663484 -3.387593080455405e-05
 0.399981255257076 -3.0588684642032946e-05 0.39998125529396167 -2.8463544200206618e-05 -0.5999250317933597 -2.7252139166084888e-05 0.3999812550254277 -3.3291468249377617e-05
 0.399981254989847 -3.3795755588277144e-05
 0.39998125500198606 -3.278434230815247e-05 0.39998125502265525 -3.334396907992069e-05 0.3999812550254228 -3.3291653241879e-05 -0.5999250322471704 -2.314109013152283e-05
 0.3999812547830195 -3.0830536985631336e-05
 0.3999812549718112 -3.243986393911709e-05 0.3999812549864347 -3.387571227064275e-05 0.39998125498944026 -3.379556936123966e-05 0.39998125478260665 -3.0831146288127604e-05
 -0.5999250323020338 -2.2449299874794617e-05
0.018115978631325472 -0.5999250320841519 -2.8236859970321823e-05 0.3999812550289056 -3.2264414429504475e-05 0.39998125503167387 -3.214134831954656e-05 0.39998125475003504 -3.444815575152368e-05
 0.399981254717163 -3.40866699149386e-05
 0.3999812550291466 -3.226440088977104e-05 -0.5999250320181607 -2.8373087245641973e-05 0.39998125507264026 -2.990824337711856e-05 0.3999812547730968 -3.503629050736742e-05
 0.3999812547335489 -3.559542637955649e-05
 0.3999812550321426 -3.214130677988649e-05 0.3999812550728678 -2.99082853553245e-05 -0.599925032014182 -2.863538379027418e-05 0.39998125477638047 -3.4981291763850556e-05
 0.39998125473709556 -3.5511180711153e-05
 0.3999812547504987 -3.444842313371971e-05 0.3999812547733191 -3.503646253591669e-05 0.39998125477637514 -3.498148869135152e-05 -0.5999250325152327 -2.4315638718840273e-05
 0.3999812545087379 -3.23954352059544e-05
 0.3999812547171825 -3.4086457299042734e-05 0.39998125473332763 -3.5595198791517455e-05 0.39998125473664653 -3.5510984195342266e-05 0.39998125450828276 -3.2396071670887235e-05
 -0.5999250325758073 -2.3588736313696807e-05
0.019035616631194404 -0.5999250323352976 -2.9670413669878587e-05 0.3999812547801685 -3.390241791560203e-05 0.39998125478322444 -3.377311093259886e-05 0.39998125447226457 -3.6197011319956514e-05
 0.3999812544359708 -3.5817182008380074e-05
 0.3999812547804353 -3.390240545905401e-05 -0.5999250322624353 -2.9813556520214065e-05 0.3999812548284566 -3.142663874083944e-05 0.39998125449772765 -3.681500655095267e-05
 0.3999812544540632 -3.740252859115798e-05
 0.399981254783743 -3.3773062757197134e-05 0.39998125482870767 -3.14266848345514e-05 -0.5999250322580427 -3.0089165324415968e-05 0.39998125450135324 -3.675721831018774e-05
 0.39998125445797916 -3.73140046370646e-05
 0.3999812544727767 -3.61972982782722e-05 0.3999812544979733 -3.681518783940307e-05 0.39998125450134697 -3.675742243984235e-05 -0.5999250328112576 -2.555013478421707e-05
 0.3999812542058469 -3.40400923886041e-05
 0.39998125443599164 -3.5816955818065616e-05 0.3999812544538178 -3.740228845080361e-05 0.3999812544574821 -3.731379865558781e-05 0.39998125420534303 -3.404076465856448e-05
 -0.5999250328781391 -2.4786328129571074e-05
0.020001939056344106 -0.5999250326125583 -3.117655516353242e-05 0.399981254505566 -3.5623397808681986e-05 0.39998125450894123 -3.548751793329555e-05 0.39998125416560865 -3.8034470751382884e-05
 0.3999812541255369 -3.7635356129210955e-05
 0.39998125450586103 -3.562337933550007e-05 -0.5999250325321113 -3.132696313858135e-05 0.39998125455888167 -3.3021935000423597e-05 0.3999812541937225 -3.868383707966534e-05
 0.3999812541455128 -3.930118325026627e-05
 0.39998125450951316 -3.5487470529210424e-05 0.3999812545591585 -3.302198119700987e-05 -0.5999250325272611 -3.161656604086765e-05 0.39998125419772557 -3.86231141668527e-05
 0.39998125414983643 -3.9208165871886614e-05
 0.39998125416617375 -3.803477110768578e-05 0.39998125419399305 -3.868402546736823e-05 0.39998125419771907 -3.8623329922842395e-05 -0.5999250331380677 -2.684711467666981e-05
 0.3999812538714564 -3.576805647687023e-05
 0.39998125412556035 -3.76351217065205e-05 0.39998125414524227 -3.930093014604584e-05 0.3999812541492885 -3.9207948881428e-05 0.3999812538709005 -3.5768761156559595e-05
 -0.59992503321191 -2.6044535740294856e-05
0.021017315790972647 -0.5999250329186773 -3.2759121297902863e-05 0.39998125420238256 -3.743170285539073e-05 0.39998125420610847 -3.7288925733531355e-05 0.39998125382703514 -3.996517540579078e-05
 0.3999812537827923 -3.954580102208642e-05
 0.3999812542027081 -3.743168617458631e-05 -0.5999250328298554 -3.291716718838979e-05 0.3999812542612479 -3.4698181763108923e-05 0.399981253858076 -4.0647503764780154e-05
 0.39998125380484734 -4.129618744510573e-05
 0.3999812542067406 -3.728887883260702e-05 0.3999812542615544 -3.469823156075714e-05 -0.5999250328245006 -3.322146989730147e-05 0.39998125386249556 -4.0583697404054713e-05
 0.399981253809621 -4.1198448642863976e-05
 0.3999812538276594 -3.996548832151109e-05 0.39998125385837496 -4.0647702441259394e-05 0.39998125386248773 -4.0583925506595e-05 -0.5999250334988926 -2.8209902952220654e-05
 0.39998125350226177 -3.7583706936882205e-05
 0.39998125378281796 -3.954555196864414e-05 0.3999812538045485 -4.129592209723766e-05 0.39998125380901517 -4.1198223524290874e-05 0.3999812535016481 -3.758444670139163e-05
 -0.5999250335804229 -2.7366581843019235e-05
0.022084237023878118 -0.5999250332566862 -3.442215155489944e-05 0.3999812538676144 -3.933192867652011e-05 0.39998125387172845 -3.9181907678814465e-05 0.3999812534531915 -4.19940083729014e-05
 0.39998125340434104 -4.155334452601657e-05
 0.399981253867974 -3.933191120440202e-05 -0.5999250331586181 -3.4588218424195026e-05 0.3999812539326086 -3.645964340770138e-05 0.39998125348746344 -4.271097761949299e-05
 0.3999812534286923 -4.3392590178035586e-05
 0.3999812538724263 -3.9181854169817196e-05 0.39998125393294626 -3.6459695880418235e-05 -0.5999250331527054 -3.4907967700588576e-05 0.3999812534923432 -4.264393265595262e-05
 0.3999812534339631 -4.3289890428922177e-05
 0.39998125345388 -4.199433959249458e-05 0.3999812534877928 -4.271118514431475e-05 0.39998125349233427 -4.2644169503964914e-05 -0.5999250338973066 -2.964199562265203e-05
 0.39998125309460497 -3.949165076446986e-05
 0.39998125340437 -4.1553084524048344e-05 0.39998125342836266 -4.3392312689410294e-05 0.39998125343329477 -4.328965255228158e-05 0.39998125309392835 -3.94924261282441e-05
 -0.5999250339873253 -2.8755864706201507e-05
0.02320531935559115 -0.5999250336298717 -3.616952848331776e-05 0.3999812534980081 -4.132855007955078e-05 0.39998125350255026 -4.1170911671484724e-05 0.3999812530404409 -4.412576804287177e-05
 0.399981252986506 -4.3662737394121367e-05
 0.3999812534984045 -4.132853354394359e-05 -0.5999250335215937 -3.634402883716009e-05 0.39998125356976827 -3.831045632397206e-05 0.3999812530782808 -4.487913109391853e-05
 0.3999812530133924 -4.5595345900978765e-05
 0.39998125350332014 -4.1170857860162376e-05 0.399981253570141 -3.831051167753019e-05 -0.5999250335150658 -3.668001136244642e-05 0.39998125308366883 -4.480868280410005e-05
 0.3999812530192117 -4.54874319979055e-05
 0.39998125304120263 -4.4126115171898525e-05 0.39998125307864607 -4.4879351068156745e-05 0.39998125308366034 -4.480893385064424e-05 -0.5999250343371821 -3.114671760067606e-05
