! Created with skrf 1.8.0 (http://scikit-rf.org).
# MHz S RI R 50.0 
!freq ReS11 ImS11 ReS12 ImS12 ReS13 ImS13
! ReS21 ImS21 ReS22 ImS22 ReS23 ImS23
! ReS31 ImS31 ReS32 ImS32 ReS33 ImS33
!
0.01 -0.333333354510107 -0.0001169146454778767 0.6666666455100402 -0.00011910375006372906 0.6666666455685755 -0.00011986177688635338
 0.6666666455101464 -0.00011910374698998094 -0.3333333544647559 -0.00011684475036739991 0.6666666455909878 -0.00011993167508272284
 0.6666666455687542 -0.00011986177978547798 0.6666666455910597 -0.00011993167199576935 -0.33333335434075234 -0.00011608672069174019
0.01050763915026853 -0.3333333567146007 -0.0001228493963471548 0.6666666433076435 -0.0001251496283550792 0.666666643372273 -0.00012594613602763926
 0.6666666433077612 -0.00012514962585819485 -0.3333333566645295 -0.0001227759529591572 0.6666666433970183 -0.00012601958192661052
 0.66666664337247 -0.0001259461384391121 0.6666666433970977 -0.00012601957952563714 -0.33333335652761553 -0.00012197944281736335
0.011041048051225594 -0.333333359148679 -0.00012908564834803918 0.6666666408758819 -0.00013150265026234546 0.6666666409472394 -0.00013233959092100574
 0.6666666408760115 -0.00013150264671467926 -0.33333335909339346 -0.00012900847747349996 0.6666666409745615 -0.00013241676535955744
 0.6666666409474566 -0.00013233959448364572 0.6666666409746493 -0.00013241676175810728 -0.33333335894222627 -0.0001281715333502434
0.011601534876305412 -0.3333333618362468 -0.00013563870020019217 0.6666666381908717 -0.0001381783987472985 0.6666666382696573 -0.00013905782596769958
 0.6666666381910148 -0.00013817839510791723 -0.33333336177520434 -0.00013555761181250378 0.6666666382998241 -0.00013913891801373393
 0.666666638269897 -0.0001390578295062031 0.6666666382999211 -0.0001391389144122781 -0.33333336160830135 -0.00013467818106702146
0.01219047420694725 -0.33333336480358516 -0.00014252436361659622 0.6666666352263556 -0.00014519298811432155 0.6666666353133436 -0.00014611705768325143
 0.6666666352265135 -0.0001451929844144015 -0.33333336473618974 -0.00014243915918584372 0.6666666353466502 -0.00014620226583592533
 0.6666666353136091 -0.000146117061496864 0.6666666353467579 -0.00014620226223446272 -0.3333333645519104 -0.0001415150857644159
0.012809310403725764 -0.3333333680796937 -0.00014975924856449035 0.666666631953364 -0.00015256334117979872 0.6666666320494079 -0.0001535343211276354
 0.6666666319535384 -0.00015256333749820835 -0.33333336800528207 -0.0001496697186243296 0.666666632086182 -0.0001536238547749114
 0.6666666320497004 -0.00015353432479329058 0.6666666320863003 -0.00015362385117344182 -0.3333333678018181 -0.00014869873499982926
0.013459561148613082 -0.3333333716969338 -0.0001573615660787003 0.6666666283395649 -0.00016030800536894613 0.6666666284456079 -0.00016132827631256514
 0.6666666283397576 -0.0001603080026438259 -0.3333333716147758 -0.00015726749078694824 0.6666666284862104 -0.00016142235435905012
 0.6666666284459313 -0.00016132827898226388 0.6666666284863403 -0.00016142235178654804 -0.33333337139013003 -0.00015624721710119367
0.014142821167060008 -0.33333337569082294 -0.00016534996189409434 0.6666666243494758 -0.00016844597351246907 0.6666666244665586 -0.00016951803705844985
 0.6666666243496883 -0.00016844596901008783 -0.33333337560011134 -0.00016525111144820043 0.6666666245113879 -0.00016961689204108025
 0.6666666244669148 -0.00016951804167473014 0.6666666245115316 -0.00016961688741061562 -0.3333333753520792 -0.0001641790435070452
0.014860766139024621 -0.3333333801003874 -0.0001737436714253795 0.6666666199441064 -0.00017699684940217887 0.6666666200733776 -0.00017812333552101925
 0.6666666199443411 -0.00017699684544798756 -0.3333333800002332 -0.00017363980281951284 0.6666666201228735 -0.00017822720812093445
 0.6666666200737714 -0.00017812333936980534 0.6666666201230327 -0.00017822720434793805 -0.3333333797263795 -0.0001725133127786117
0.015615156808540002 -0.3333333849691728 -0.000182563778153771 0.6666666150799534 -0.0001859821000622051 0.6666666152226818 -0.00018716577077535306
 0.6666666150802127 -0.00018598209650721965 -0.3333333848585914 -0.00018245463559567396 0.666666615277331 -0.00018727491693467635
 0.666666615223117 -0.0001871657743306451 0.6666666152775067 -0.0001872749133331625 -0.33333338455622963 -0.0001812709614989663
0.01640784330189971 -0.33333339034459303 -0.00019183122639850395 0.6666666097096469 -0.00019542307525968893 0.666666609867235 -0.00019666683450041166
 0.6666666097099333 -0.0001954230714141261 -0.33333339022250064 -0.00019171654434959272 0.6666666099275728 -0.0001967815204485318
 0.666666609867715 -0.0001966668384707844 0.6666666099277668 -0.00019678151658975848 -0.3333333898886598 -0.0001904727812969636
0.017240769665051267 -0.3333333962798389 -0.00020156949194491066 0.6666666037800479 -0.0002053436773521659 0.6666666039540413 -0.00020665057405230144
 0.6666666037803641 -0.00020534367289923403 -0.33333339614503527 -0.00020144898773295143 0.666666604020661 -0.00020677108277943052
 0.6666666039545714 -0.0002066505784088242 0.666666604020875 -0.0002067710784061509 -0.3333333957764408 -0.00020014208676515997
0.018115978631325472 -0.3333334028329544 -0.00021180207374261694 0.6666665972331672 -0.00021576785194842566 0.666666597425274 -0.00021714109161415776
 0.6666665972335162 -0.0002157678472663141 -0.33333340268411654 -0.00021167545281383204 0.6666665974988291 -0.00021726771729726015
 0.6666665974258594 -0.00021714109625605232 0.6666665974990659 -0.00021726771266671456 -0.3333334022771498 -0.00021030220865014766
0.019035616631194404 -0.3333334100681266 -0.00022255386833786175 0.6666665900048784 -0.00022672096506244152 0.6666665902169847 -0.00022816391564779953
 0.6666665900052638 -0.0002267209599824796 -0.3333334099037944 -0.00022242081936835954 0.6666665902981969 -0.00022829696978103348
 0.6666665902176313 -0.00022816392066197242 0.6666665902984585 -0.00022829696472172333 -0.3333334094544597 -0.00022097786397499674
0.020001939056344106 -0.33333341805658717 -0.00023385157172584885 0.6666665820240184 -0.00023823020701394993 0.6666665822582055 -0.00023974640779545291
 0.6666665820244437 -0.00023823020181812856 -0.33333341787514653 -0.0002337117689689432 0.6666665823478728 -0.00023988621584536583
 0.6666665822589195 -0.00023974641295434058 0.6666665823481611 -0.00023988621070027927 -0.3333334173790347 -0.00023219556324096345
0.021017315790972647 -0.3333334268767446 -0.0002457228722108188 0.6666665732122516 -0.0002503237841083638 0.6666665734708186 -0.00025191695301615507
 0.6666665732127215 -0.00025032377862026564 -0.33333342667641586 -0.00024557597267681983 0.6666665735698203 -0.00025206385815100215
 0.666666573471607 -0.0002519169584560508 0.6666665735701393 -0.0002520638526628903 -0.33333342612865685 -0.00024398279863443575
0.022084237023878118 -0.3333334366148766 -0.00025819648728750866 0.6666665634833846 -0.0002630309593255444 0.6666665637688707 -0.0002647050032756577
 0.6666665634839036 -0.00026303095351058124 -0.3333334363936931 -0.0002580421298442537 0.666666563878179 -0.000264859366664683
 0.6666665637697412 -0.00026470500919781347 0.6666665638785308 -0.0002648593607477927 -0.3333334357889076 -0.00025636808042809483
0.02320531935559115 -0.3333334473670389 -0.00027130361855838385 0.6666665527414526 -0.0002763835074725781 0.6666665530566587 -0.00027814253304213056
 0.6666665527420252 -0.0002763835014600084 -0.3333334471228277 -0.00027114142613971404 0.6666665531773469 -0.0002783047316251275
 0.6666665530576185 -0.00027814253909309525 0.6666665531777344 -0.0002783047256224453 -0.3333334464550833 -0.00026938239492021413
0.024383312215529362 -0.3333334592386202 -0.0002850761943098497 0.6666665408811651 -0.00029041395813744146 0.6666665412291848 -0.00029226227868122355
 0.6666665408817973 -0.0002904139517365693 -0.3333334589689863 -0.00028490576826960783 0.666666541362437 -0.00029243271129839884
 0.6666665412302459 -0.00029226228501416266 0.6666665413628668 -0.0002924327049526715 -0.33333345823172644 -0.0002830574418144556
0.02562110460491172 -0.33333347234592886 -0.0002995477344945653 0.6666665277863271 -0.00030515646427224576 0.6666665281705773 -0.0003070986120983623
 0.6666665277870254 -0.0003051564572612487 -0.3333334720482242 -0.0002993686568058537 0.6666665283177022 -0.00030727769700232983
 0.6666665281717487 -0.0003070986191492859 0.6666665283181757 -0.00030727768997055823 -0.3333334712342125 -0.00029742650250264826
0.02692173218196957 -0.3333334868176053 -0.0003147537351403314 0.666666513328419 -0.00032064718563197444 0.6666665137526723 -0.00032268792490624507
 0.6666665133291898 -0.0003206471784599441 -0.33333348648890904 -0.0003145655666232263 0.6666665139151131 -0.00032287610083235136
 0.6666665137539658 -0.0003226879320832208 0.6666665139156358 -0.0003228760936290146 -0.33333348559015274 -0.0003125248208449226
0.02828838470683077 -0.33333350279626467 -0.00033073207097585207 0.6666664973649615 -0.0003369246957568255 0.6666664978333809 -0.00033906903146267605
 0.6666664973658127 -0.00033692468829072113 -0.3333335024333491 -0.00033053435023714804 0.6666664980127333 -0.00033926675994240774
 0.6666664978348091 -0.0003390690389394054 0.66666649801331 -0.000339266752481746 -0.33333350144102947 -0.0003283900077935211
0.029724413864335254 -0.3333335204380367 -0.00034752119544072583 0.6666664797399728 -0.0003540281820793556 0.666666480257158 -0.00035628137240751006
 0.6666664797409131 -0.0003540281743122122 -0.3333335200373411 -0.00034731343752473956 0.6666664804551811 -0.00035648913840959166
 0.6666664802587351 -0.00035628138024817557 0.666666480455818 -0.0003564891306058442 -0.3333335189417147 -0.0003450602402561379
0.031233341483967378 -0.3333335399167591 -0.0003651629275545712 0.6666664602797829 -0.00037200023499653036 0.666666460850808 -0.0003743678060497413
 0.6666664602808205 -0.00037200022709705746 -0.33333353947434835 -0.0003649446235102408 0.6666664610694464 -0.0003745861183635784
 0.6666664608525488 -0.00037436781396197314 0.6666664610701497 -0.0003745861104739743 -0.33333353826466455 -0.0003625770455368526
0.03281886817706418 -0.33333356142290504 -0.0003836998659294285 0.6666664387940971 -0.0003908842614394437 0.6666664394245703 -0.0003933720197504978
 0.6666664387952428 -0.0003908842530015512 -0.33333356093443833 -0.00038347047946918323 0.6666664396659693 -0.0003936014150779303
 0.6666664394264925 -0.00039337202813962243 0.6666664396667463 -0.000393601406673711 -0.3333335595988177 -0.00038098271389771864
0.034484882412482154 -0.3333335851681311 -0.00040317797013232225 0.666666415071463 -0.0004107270738627933 0.6666664157675708 -0.00041334112056295785
 0.6666664150727275 -0.0004107270646400383 -0.33333358462881135 -0.00040293693932345214 0.6666664160341008 -0.0004135821610926315
 0.6666664157696929 -0.00041334112979196164 0.6666664160349589 -0.0004135821518307845 -0.3333335831541474 -0.0004003228847819226
0.03623547005298042 -0.333333611385332 -0.00042364484487316105 0.6666663888792054 -0.00043157717064899384 0.6666663896477807 -0.0004343239168152831
 0.6666663888806014 -0.00043157716106499326 -0.3333336107898667 -0.00042339157835143685 0.6666663899420582 -0.0004345771934988212
 0.6666663896501236 -0.00043432392643442394 0.666666389943005 -0.00043457718389381273 -0.33333360916168364 -0.00042064482415153507
0.03807492437570799 -0.333333640331909 -0.0004451507266350882 0.6666663599601673 -0.0004534857285094995 0.6666663608087556 -0.0004563719100615022
 0.6666663599617093 -0.0004534857183645218 -0.333333639674453 -0.00044488460363795184 0.6666663611336686 -0.0004566380438739681
 0.6666663608113423 -0.0004563719202436855 0.666666361134714 -0.0004566380337113996 -0.33333363787676823 -0.0004419984137364401
0.04000775660137028 -0.33333367229192423 -0.0004677483007191216 0.666666328030559 -0.0004765064195425592 0.6666663289674892 -0.00047953911524732624
 0.6666663280322614 -0.00047650640908789807 -0.33333367156602356 -0.00046746866798007703 0.666666329326227 -0.00047981875921874394
 0.6666663289703454 -0.00047953912572606456 0.6666663293273817 -0.00047981874875582873 -0.33333366958119126 -0.0004644359639106012
0.04203870695789726 -0.33333370757914077 -0.0004914930216390328 0.6666662927769142 -0.0005006957372897451 0.6666662938113826 -0.0005038823843439488
 0.6666662927787937 -0.0005006957262649644 -0.3333337067776708 -0.0004911991939706666 0.6666662942074671 -0.0005041762239393598
 0.6666662938145368 -0.0005038823953669589 0.6666662942087421 -0.000504176212918816 -0.33333370458620853 -0.00048801253833223883
0.04417275630574673 -0.33333374653989073 -0.0005164430931361292 0.666666253853231 -0.000526112974041045 0.6666662549953932 -0.0005294613883474295
 0.6666662538553066 -0.000526112962758262 -0.3333337456549841 -0.0005161343495446903 0.6666662554327117 -0.0005297701442684168
 0.6666662549988751 -0.0005294613996270284 0.6666662554341188 -0.0005297701329903219 -0.3333337432353804 -0.0005127859267882994
0.04641513835335354 -0.3333337895566416 -0.0005426597256670366 0.6666662108774065 -0.0005528204880851116 0.6666662121384731 -0.0005563388807126931
 0.6666662108796975 -0.00055282047569864 -0.33333378857961166 -0.0005423353092474637 0.6666662126213186 -0.0005566633107331454
 0.6666662121423171 -0.0005563388931367531 0.6666662126228726 -0.0005566632983399672 -0.3333337859081148 -0.0005388169074907293
0.0487713524926828 -0.3333338370515064 -0.0005702071374163859 0.6666661634277277 -0.000580883699751843 0.6666661648200773 -0.0005845807002339619
 0.6666661634302572 -0.0005808836871360574 -0.33333383597276417 -0.0005698662522910719 0.666666165353189 -0.0005849215993839593
 0.666666164824322 -0.0005845807128617838 0.6666661653549049 -0.0005849215867759973 -0.333333833023151 -0.000566169242988126
0.051247177286366054 -0.3333338894911635 -0.0005991531559148387 0.6666661110379616 -0.0006103717024278884 0.6666661125752608 -0.0006142563773220398
 0.666666111040755 -0.0006103716891977953 -0.3333338883001181 -0.0005987949660439876 0.6666661131638729 -0.0006146145820575252
 0.6666661125799468 -0.0006142563905941357 0.6666661131657661 -0.0006146145688059737 -0.3333338850434381 -0.0005949102823249695
0.0538486846394972 -0.33333394738967453 -0.000629568388030572 0.6666660531945344 -0.0006413564321116746 0.6666660548918746 -0.0006454383084248333
 0.6666660531976184 -0.0006413564182634037 -0.3333339460746361 -0.0006291920155202005 0.6666660555417628 -0.0006458146966797913
 0.6666660548970493 -0.0006454383222840584 0.6666660555438546 -0.0006458146828274419 -0.3333339424789189 -0.0006251101304864727
0.05658225469084444 -0.3333340113159535 -0.0006615277433212246 0.6666659893290754 -0.0006739141946843328 0.6666659912031158 -0.0006782032830830041
 0.6666659893324799 -0.000673914179907319 -0.33333400986401207 -0.0006611322647743045 0.6666659919206613 -0.0006785987786069576
 0.666665991208828 -0.0006782032978722776 0.6666659919229702 -0.0006785987638536051 -0.33333400589396595 -0.0006568431675195919
0.05945459145999823 -0.333334081897002 -0.0006951093493571257 0.6666659188151778 -0.0007081245854904588 0.6666659208843145 -0.0007126314050532483
 0.666665918818937 -0.0007081245699715646 -0.33333408029390615 -0.0006946937948937909 0.6666659216765601 -0.0007130469775878381
 0.666665920890622 -0.0007126314206071996 0.666665921679109 -0.0007130469620620027 -0.3333340759105587 -0.000690186966694902
0.062472739288829834 -0.33333415982608583 -0.0007303957824712926 0.6666658409602347 -0.0007440717229072928 0.6666658432447777 -0.0007488073264550989
 0.6666658409643852 -0.0007440717065862 -0.333334158056101 -0.0007299591329136415 0.6666658441194999 -0.0007492439952949719
 0.6666658432517422 -0.000748807342755195 0.6666658441223144 -0.0007492439789965307 -0.33333415321642723 -0.0007252235210608038
0.06564410011758287 -0.33333424586780286 -0.0007674734172253647 0.6666657550003772 -0.0007818436022784647 0.6666657575227523 -0.0007868196039649542
 0.66666575500496 -0.0007818435850970525 -0.3333342439135542 -0.0007670146019420502 0.6666657584885372 -0.0007872784398650442
 0.6666657575304417 -0.0007868196211959695 0.6666657584916446 -0.0007872784226652356 -0.3333342385700478 -0.0007620385923447232
0.06897645163796594 -0.3333343408667519 -0.0008064332026273489 0.6666656600918094 -0.0008215328746761609 0.6666656628767761 -0.0008267614780161411
 0.6666656600968688 -0.0008215328566167678 -0.33333433870905793 -0.0008059510964569035 0.666665663943103 -0.0008272436062315245
 0.6666656628852659 -0.0008267614961058722 0.6666656639465344 -0.00082724358817306 -0.33333433280926583 -0.0008007224858177584
0.07247796636776961 -0.3333344457557378 -0.0008473708089901718 0.666665555302614 -0.0008632369996354963 0.666665558377508 -0.0008687310277395128
 0.6666655553082005 -0.0008632369806155427 -0.3333344433734175 -0.0008468642294409711 0.6666655595548451 -0.000869237630932512
 0.6666655583868817 -0.0008687310467683502 0.666665559558633 -0.0008692376119294583 -0.3333344368594305 -0.0008413701948110024
0.07615723169378218 -0.3333345615640218 -0.0008903865038670458 0.6666654396045096 -0.0009070581246100422 0.6666654429995149 -0.000912831051531625
 0.6666654396106775 -0.0009070581047033287 -0.3333345589336908 -0.0008898542086600599 0.666665444299418 -0.0009133633720096944
 0.666665443009864 -0.0009128310714682043 0.6666654443036003 -0.0009133633520832692 -0.3333345517415671 -0.0008840812763464811
0.08002327093216569 -0.33333468942853256 -0.0009355858454831438 0.6666653118616482 -0.0009531037831073179 0.666665315610089 -0.0009591697670313703
 0.6666653118684582 -0.0009531037622532998 -0.33333468652437254 -0.0009350265292621294 0.6666653170453177 -0.0009597291103298933
 0.6666653156215157 -0.0009591697879289378 0.6666653170499358 -0.0009597290894584048 -0.3333346785835156 -0.0009289605413090576
0.08408556545793698 -0.33333483060434543 -0.0009830796687177702 0.6666651708201499 -0.0010014868857862686 0.6666651749588192 -0.0010078608033937115
 0.6666651708276687 -0.0010014868638849894 -0.33333482739784775 -0.0009824919598735754 0.6666651765434626 -0.0010084485413593917
 0.6666651749714352 -0.0010078608253383315 0.6666651765485613 -0.0010084485194568008 -0.33333481863031333 -0.0009761180398726511
0.08835407795782858 -0.33333498647693394 -0.0010329843540659652 0.6666650150958571 -0.0010523259938140278 0.6666650196653818 -0.0010590234771298752
 0.6666650151041583 -0.0010523259706427834 -0.33333498293662617 -0.0010323668115003817 0.6666650214149928 -0.0010596410512432434
 0.6666650196793114 -0.0010590235002999643 0.6666650214206233 -0.0010596410280948314 -0.33333497325634953 -0.0010256693276724151
0.09283927686355573 -0.33333515857662066 -0.0010854223888183809 0.6666648431599048 -0.0011057458862581203 0.666664848205138 -0.0011127833608034253
 0.6666648431690707 -0.0011057458619250287 -0.33333515466775065 -0.0010847734978480764 0.6666648501368915 -0.0011134322858248925
 0.6666648482205173 -0.0011127833851783105 0.6666648501431072 -0.0011134322614731443 -0.3333351439797135 -0.0010777360252597454
0.09755216202541175 -0.33333534859269287 -0.0011405223627901316 0.6666646533246128 -0.0011618775607606278 0.6666646588950768 -0.0011692722861117281
 0.6666646533347327 -0.0011618775352097892 -0.33333534427689204 -0.0011398405323095274 0.6666646610279346 -0.0011699541534176225
 0.6666646589120574 -0.0011692723117149389 0.6666646610347977 -0.0011699541278620796 -0.33333533247618247 -0.001132445811887265
0.10250429168915555 -0.3333355583901853 -0.001198419362464553 0.6666644437267203 -0.0012208586342412231 0.6666644498770946 -0.001228628745934451
 0.6666644437378942 -0.0012208586074040069 -0.3333355536250902 -0.001197702920306588 0.6666644522319926 -0.0012293452280097248
 0.6666644498958431 -0.0012286287728395771 0.6666644522395694 -0.001229345201164107 -0.33333554059587417 -0.0011899328171330287
0.10770781084235159 -0.33333579002845676 -0.0012592553803091643 0.6666642123088279 -0.0012828337579472958 0.6666642190994837 -0.0012909983122396114
 0.6666642123211649 -0.001282833729814422 -0.33333578476729475 -0.0012585025697927714 0.6666642216995364 -0.0012917511660637867
