! Created with skrf 1.8.0 (http://scikit-rf.org).
# MHz S RI R 50.0 
!freq ReS11 ImS11 ReS12 ImS12 ReS13 ImS13
! ReS21 ImS21 ReS22 ImS22 ReS23 ImS23
! ReS31 ImS31 ReS32 ImS32 ReS33 ImS33
!
0.01 -0.33328046367644437 -0.0002457752474038975 0.666640094596781 -0.0002478310558434374 0.6666400945987702 -0.00024780997741269563
 0.6666400945967808 -0.0002478310558856363 -0.3332804640581504 -0.00024616367455128997 0.6666400944088758 -0.00024742155001061236
 0.6666400945987697 -0.0002478099772638601 0.666640094408876 -0.0002474215500963537 -0.33328046405427675 -0.00024618475308950806
0.01050763915026853 -0.3332804731878165 -0.00025825143299057545 0.6666400850653548 -0.0002604116024731537 0.66664008506755 -0.00026038945360791916
 0.6666400850653544 -0.00026041160233268004 -0.3332804736092587 -0.00025865957816187987 0.6666400848578878 -0.0002599813083305663
 0.6666400850675505 -0.0002603894537448614 0.6666400848578883 -0.00025998130824482485 -0.33328047360498203 -0.00025868172683797265
0.011041048051225594 -0.33328048368951524 -0.0002713611546307106 0.6666400745415126 -0.0002736309822478425 0.6666400745439377 -0.00027360770953156234
 0.666640074541513 -0.0002736309823575388 -0.3332804841548313 -0.0002717900188931667 0.6666400743124489 -0.0002731788448734068
 0.6666400745439373 -0.0002736077094434585 0.6666400743124485 -0.0002731788449591481 -0.3332804841501096 -0.00027181329172444363
0.011601534876305412 -0.33328049528480874 -0.00028513675275361824 0.666640062921771 -0.00028752180601280153 0.666640062924448 -0.0002874973519562304
 0.666640062921771 -0.00028752180604075704 -0.3332804957985683 -0.00028558738807354646 0.6666400626688594 -0.0002870467162765382
 0.6666400629244478 -0.00028749735195365486 0.6666400626688593 -0.0002870467162765382 -0.3332804957933545 -0.0002856118421640572
0.01219047420694725 -0.3332805080869819 -0.00029961136841872335 0.6666400500926051 -0.0003021174963249389 0.6666400500955606 -0.00030209180056654333
 0.6666400500926051 -0.0003021174963759036 -0.33328050865422526 -0.0003000848795148295 0.6666400498133647 -0.0003016182890345242
 0.6666400500955606 -0.0003020918005820869 0.6666400498133644 -0.0003016182890345242 -0.33328050864846887 -0.0003001105753126009
0.012809310403725764 -0.3332805222218897 -0.000314820739208066 0.6666400359278938 -0.0003174540880104084 0.6666400359311577 -0.0003174270878308067
 0.666640035927894 -0.0003174540879916507 -0.3332805228481858 -0.0003153182873689396 0.6666400356195833 -0.0003169295392420919
 0.6666400359311575 -0.00031742708789957315 0.666640035619583 -0.0003169295392420922 -0.3332805228418296 -0.00031534528746560506
0.013459561148613082 -0.3332805378284199 -0.00033080231134649036 0.6666400202884583 -0.00033356933909512994 0.6666400202920608 -0.0003335409680881287
 0.666640020288458 -0.00033356933901729035 -0.3332805385199167 -0.0003313251169928554 0.6666400199480501 -0.00033301816200148013
 0.6666400202920612 -0.00033354096809123056 0.6666400199480504 -0.00033301816200148 -0.3332805385128994 -0.0003313534879242381
0.014142821167060008 -0.3332805550599488 -0.0003475954399203029 0.6666400030205961 -0.0003505029326741272 0.6666400030245743 -0.00035047312177560774
 0.6666400030205964 -0.0003505029326786886 -0.3332805558234358 -0.00034814478516468207 0.6666400026447495 -0.0003499237759255622
 0.666640003024574 -0.0003504731217248585 0.6666400026447495 -0.00034992377592556255 -0.3332805558156878 -0.0003481745961246866
0.014860766139024621 -0.3332805740849287 -0.0003652406416409847 0.6666399839555027 -0.0003682957304413834 0.6666399839598952 -0.0003682644057000252
 0.6666399839555028 -0.00036829573022695446 -0.33328057492789726 -0.0003658178736596248 0.6666399835405292 -0.00036768717319844095
 0.6666399839598949 -0.00036826440585014335 0.6666399835405293 -0.00036768717311269974 -0.33328057491934276 -0.00036584919812934145
0.015615156808540002 -0.33328059509042757 -0.0003837815239090248 0.6666399629057148 -0.0003869917005306357 0.666639962910564 -0.00038695878655905695
 0.6666399629057144 -0.0003869917007840051 -0.3332805960211524 -0.00038438805866125255 0.6666399624475408 -0.0003863522507444011
 0.6666399629105642 -0.0003869587862021024 0.6666399624475408 -0.0003863522510444957 -0.333280596011707 -0.00038442097295137274
0.01640784330189971 -0.3332806182828237 -0.0004032637229734878 0.6666399396644175 -0.0004066368611184056 0.6666399396697721 -0.00040660227592721575
 0.6666399396644176 -0.00040663686126441915 -0.3332806193104417 -0.000403901047695784 0.6666399391585456 -0.00040596495012027356
 0.666639939669772 -0.0004066022757939458 0.6666399391585455 -0.0004059649502488858 -0.333280619300013 -0.00040393563304728773
0.017240769665051267 -0.333280643889684 -0.0004237349345427327 0.666639914003567 -0.0004272793059183518 0.6666399140094781 -0.00042724296507463814
 0.6666399140035665 -0.0004272793059862304 -0.3332806450242809 -0.0004244046122820787 0.6666399134450309 -0.0004265732861784575
 0.6666399140094784 -0.0004272429649994517 0.6666399134450312 -0.0004265732862641989 -0.33328064501276694 -0.00042444095319430354
0.018115978631325472 -0.3332806721626261 -0.0004452455577617843 0.6666398856710116 -0.0004489698557124872 0.6666398856775385 -0.00044893166968185637
 0.6666398856710113 -0.00044896985560424735 -0.33328067341534173 -0.0004459492308757685 0.6666398850543289 -0.0004482279954127528
 0.6666398856775384 -0.00044893166975746803 0.6666398850543289 -0.0004482279953270116 -0.33328067340262885 -0.0004459874168212681
0.019035616631194404 -0.333280703378445 -0.000467847798133306 0.6666398543893747 -0.00047176115561564153 0.6666398543965817 -0.000471721031455617
 0.6666398543893745 -0.0004717611556371956 -0.3332807047615732 -0.0004685871924140304 0.6666398537084933 -0.00047098163568764975
 0.6666398543965812 -0.00047172103138518295 0.6666398537084933 -0.0004709816357305201 -0.33328070474753674 -0.00046862731663823044
0.020001939056344106 -0.3332807378442641 -0.0004915976143630849 0.6666398198508847 -0.0004957096292063083 0.6666398198588417 -0.0004956674681870378
 0.666639819850885 -0.0004957096292230664 -0.33328073937138314 -0.000492374543054343 0.66663981909912 -0.0004948905377785972
 0.6666398198588421 -0.0004956674680902084 0.6666398190991201 -0.0004948905378214677 -0.3332807393558858 -0.0004924167041617996
0.021017315790972647 -0.33328077589794025 -0.0005165529306184937 0.6666397817169737 -0.000520873687707149 0.6666397817257591 -0.0005208293862545827
 0.6666397817169738 -0.0005208736876442188 -0.33328077758403857 -0.0005173692992761621 0.6666397808869471 -0.0005200130156870919
 0.6666397817257592 -0.0005208293863102284 0.6666397808869471 -0.00052001301560135 -0.3332807775669284 -0.0005174136007161613
0.022084237023878118 -0.3332808179133058 -0.0005427751512313512 0.6666397396130204 -0.0005473152467042351 0.6666397396227204 -0.0005472686966144956
 0.6666397396130201 -0.0005473152467640136 -0.3332808197749349 -0.0005436329619326429 0.666639738696584 -0.0005464108835647303
 0.6666397396227199 -0.0005472686965494327 0.666639738696584 -0.0005464108836504716 -0.33328081975604307 -0.0005436795120849945
0.02320531935559115 -0.33328086430272447 -0.0005703285430298592 0.6666396931257902 -0.0005750991113698684 0.6666396931364997 -0.0005750501978801335
 0.6666396931257904 -0.0005750991113131664 -0.3332808663581587 -0.0005712298991457783 0.666639692113948 -0.0005741488391656778
 0.6666396931364998 -0.0005750501979220849 0.6666396921139479 -0.000574148839122807 -0.33328086633730003 -0.0005712788126070081
0.024383312215529362 -0.3332809155215325 -0.0005992806636905863 0.6666396417989889 -0.0006042934045774442 0.6666396418108135 -0.0006042420082308266
 0.6666396417989887 -0.0006042934046096059 -0.3332809177909477 -0.0006002277759557793 0.666639640681809 -0.0006032948928529865
 0.6666396418108133 -0.0006042420082153413 0.666639640681809 -0.0006032948928958577 -0.33328091776791746 -0.0006002791723388195
0.02562110460491172 -0.3332809720722087 -0.0006297023666919932 0.6666395851290775 -0.0006349695738157181 0.6666395851421328 -0.000634915568617897
 0.6666395851290773 -0.0006349695739642952 -0.3332809745778794 -0.0006306975578902918 0.6666395838955944 -0.0006339203736971887
 0.6666395851421331 -0.0006349155684376428 0.6666395838955943 -0.0006339203738258012 -0.3332809745524515 -0.0006307515633250477
0.02692173218196957 -0.3332810345100432 -0.000661668376076944 0.6666395225595942 -0.0006672029671332763 0.6666395225740094 -0.000667146219995211
 0.6666395225595941 -0.0006672029670825747 -0.3332810372765654 -0.0006627140867323804 0.6666395211977002 -0.0006661005052442837
 0.6666395225740088 -0.0006671462200345922 0.6666395211977003 -0.0006661005052014122 -0.33328103724849 -0.0006627708338658293
0.02828838470683077 -0.333281103448298 -0.0006952572693924915 0.6666394534759841 -0.0007010728178665631 0.6666394534919001 -0.000701013190062166
 0.6666394534759844 -0.0007010728178311205 -0.33328110650282966 -0.0006963560642207047 0.6666394519723103 -0.0006999143904591724
 0.6666394534919 -0.0007010131900985815 0.6666394519723101 -0.0006999143904591721 -0.33328110647183185 -0.0006964156920026612
0.029724413864335254 -0.3332811795633291 -0.0007305512454678451 0.6666393772004665 -0.0007366620136434025 0.6666393772180396 -0.0007365993590733509
 0.6666393772004671 -0.0007366620137261584 -0.3332811829358525 -0.0007317058189792266 0.6666393755402531 -0.000735444779898617
 0.6666393772180388 -0.0007365993589855974 0.6666393755402529 -0.0007354447799843602 -0.33328118290162734 -0.0007317684736913738
0.031233341483967378 -0.3332812636019429 -0.0007676367183992376 0.6666392929846602 -0.000774057693053144 0.666639293004062 -0.0007739918576983558
 0.6666392929846601 -0.0007740576930095142 -0.3332812673255605 -0.0007688499021399538 0.6666392911516105 -0.0007727786675269239
 0.6666392930040618 -0.0007739918577342284 0.6666392911516106 -0.0007727786674626172 -0.33328126728777285 -0.0007689157375460595
0.03281886817706418 -0.33328135638929096 -0.0008066047565923303 0.6666392000016721 -0.0008133516847477144 0.6666392000230935 -0.0008132825074625363
 0.6666392000016722 -0.00081335168481599 -0.3332813605005537 -0.0008078795258974052 0.6666391979777941 -0.0008120077305779547
 0.6666392000230937 -0.0008132825073755851 0.6666391979777941 -0.0008120077306636963 -0.3332813604588319 -0.0008079487033292339
0.034484882412482154 -0.33328145883650967 -0.0008475510658218185 0.6666390973384461 -0.0008546404942712987 0.666639097362098 -0.0008545678051759899
 0.6666390973384463 -0.0008546404942680018 -0.3332814633757738 -0.000848890546876938 0.666639095103873 -0.0008532283154099866
 0.6666390973620978 -0.0008545678051640053 0.6666390951038726 -0.000853228315431422 -0.33328146332970876 -0.0008489632360490226
0.03623547005298042 -0.3332815719491012 -0.0008905760084105769 0.6666389839873594 -0.0008980253236119918 0.6666389840134733 -0.0008979489445965616
 0.6666389839873594 -0.0008980253236449832 -0.3332815769609254 -0.0008919834861218159 0.6666389815201561 -0.000896541456742542
 0.6666389840134733 -0.0008979489445889187 0.6666389815201561 -0.0008965414567639775 -0.33328157691006455 -0.0008920598652603067
0.03807492437570799 -0.3332816968371808 -0.000935785025865849 0.6666388588359564 -0.000943612497160193 0.6666388588647885 -0.0009435322408449403
 0.6666388588359561 -0.0009436124972030877 -0.33328170237076005 -0.0009372639519017695 0.6666388561119049 -0.0009420533030372158
 0.6666388588647887 -0.0009435322408161219 0.666638856111905 -0.0009420533030800866 -0.3332817023146044 -0.0009373442083663607
0.04000775660137028 -0.33328183472654516 -0.000983288961110618 0.6666387206558562 -0.000991513785091234 0.6666387206876899 -0.0009914294545911287
 0.6666387206558559 -0.0009915137850841638 -0.3332818408361951 -0.0009848429624011688 0.6666387176482186 -0.0009898754397003166
 0.66663872068769 -0.0009914294546181693 0.6666387176482185 -0.0009898754397003162 -0.3332818407741937 -0.0009849272930069566
0.04203870695789726 -0.33328198697041606 -0.001033204228303171 0.6666385680909828 -0.0010418465759467596 0.6666385681261306 -0.0010417579646572815
 0.6666385680909827 -0.0010418465760313434 -0.33328199371610717 -0.0010348371157266419 0.6666385647702372 -0.001040125061362643
 0.6666385681261308 -0.001041757964575467 0.6666385647702373 -0.0010401250614269497 -0.33328199364765076 -0.0010349257272803932
0.04417275630574673 -0.33328215506418596 -0.0010856535589750386 0.6666383996427911 -0.001094734625549526 0.666638399681598 -0.0010946415159357992
 0.6666383996427907 -0.0010947346256071496 -0.3332821625121365 -0.0010873693370257187 0.66663839597634 -0.0010929257195126294
 0.6666383996815982 -0.0010946415158944983 0.6666383959763401 -0.0010929257195555003 -0.33328216243655356 -0.001087462446883656
0.04641513835335354 -0.33328234065665646 -0.0011407652072757313 0.6666382136590039 -0.0011503072635142054 0.6666382137018506 -0.0011502094273041824
 0.6666382136590038 -0.0011503072635161518 -0.33328234887997044 -0.001142568083588437 0.6666382096108592 -0.0011484065297414886
 0.6666382137018508 -0.0011502094272802894 0.6666382096108595 -0.0011484065297414873 -0.3332823487965195 -0.0011426659200425879
0.0487713524926828 -0.33328254557017717 -0.0011986745186870723 0.6666380083134279 -0.001208700966314811 0.6666380083607356 -0.0012085981634385257
 0.6666380083134281 -0.0012087009663122844 -0.3332825546495741 -0.0012005689144546298 0.6666380038438542 -0.0012067037430225126
 0.6666380083607357 -0.0012085981634507455 0.6666380038438541 -0.001206703743022512 -0.3332825545574356 -0.0012006717175694175
0.051247177286366054 -0.3332827718160947 -0.0012595234915434054 0.6666377815904768 -0.001270058920071184 0.6666377816427094 -0.0012699508986503945
 0.6666377815904767 -0.0012700589200657052 -0.3332827818406974 -0.0012615140525299635 0.6666377766556004 -0.001267960309070402
 0.6666377816427093 -0.001269950898660824 0.6666377766556001 -0.0012679603090489675 -0.33328278173896675 -0.0012616220742500846
0.0538486846394972 -0.3332830216150805 -0.0013234613179457751 0.6666375312647963 -0.0013345315651498964 0.6666375313224668 -0.00133441806008376
 0.6666375312647964 -0.0013345315651342748 -0.33328303268328785 -0.0013255529255371517 0.6666375258161779 -0.0013323264193288917
 0.6666375313224662 -0.0013344180601020622 0.6666375258161779 -0.0013323264193288917 -0.3332830325709664 -0.0013256664309102223
0.05658225469084444 -0.3332832974192844 -0.0013906448385460355 0.6666372548790664 -0.0014022770535123946 0.6666372549427401 -0.001402157786477954
 0.6666372548790663 -0.0014022770534676246 -0.3332833096397405 -0.001392842621878092 0.6666372488632227 -0.0013999599646978191
 0.6666372549427401 -0.0014021577865140948 0.6666372488632227 -0.0013999599646549472 -0.3332833095157259 -0.0013929618892699431
0.05945459145999823 -0.3332836019357124 -0.0014612387518865028 0.6666369497205727 -0.0014734614622916198 0.6666369497908754 -0.0014733361408333472
 0.6666369497205729 -0.001473461462285589 -0.3332836154283711 -0.0014635481005448624 0.666636943078454 -0.0014710267475234223
 0.6666369497908755 -0.0014733361408340476 0.6666369430784539 -0.0014710267475234206 -0.33328361529144596 -0.0014636734224551886
0.062472739288829834 -0.3332839381534761 -0.0015354161886174593 0.6666366127939024 -0.0015482593699880287 0.666636612871524 -0.0015481276867896703
 0.6666366127939024 -0.00154825936999012 -0.3332839530507782 -0.0015378427655991173 0.6666366054603107 -0.0015457010579962799
 0.6666366128715241 -0.0015481276867728138 0.6666366054603107 -0.0015457010580177157 -0.3332839528995983 -0.0015379744493272472
0.06564410011758287 -0.3332843093724327 -0.0016133589757364552 0.6666362407922406 -0.0016268541253773392 0.6666362408779425 -0.0016267157574320493
 0.6666362407922405 -0.0016268541253769515 -0.33328432582060447 -0.0016159087314748233 0.6666362326951918 -0.0016241659415869739
 0.6666362408779427 -0.0016267157574370538 0.6666362326951916 -0.0016241659415762567 -0.3332843256536866 -0.001616047100042939
0.06897645163796594 -0.3332847192366715 -0.0016952583184739317 0.6666358300638134 -0.0017094385325873776 0.6666358301584375 -0.0017092931405876621
 0.666635830063813 -0.001709438532612819 -0.3332847373971656 -0.0016979375054223876 0.6666358211238292 -0.001706613883880354
 0.6666358301584372 -0.0017092931405634606 0.6666358211238289 -0.0017066138839125094 -0.3332847372128706 -0.0016980828981559863
0.07247796636776961 -0.3332851717693822 -0.0017813150674821459 0.6666353765769489 -0.0017962151221794782 0.6666353766814236 -0.0017960623495911407
 0.6666353765769488 -0.0017962151222025002 -0.33328519182045735 -0.0017841302553566157 0.6666353667062754 -0.001793247080792246
 0.6666353766814236 -0.0017960623495712853 0.6666353667062754 -0.0017932470808136813 -0.3332851916169767 -0.001784283028797521
0.07615723169378218 -0.3332856714123018 -0.0018717402152319752 0.6666348758805449 -0.0018873966522176848 0.666634875995896 -0.0018872361242360035
 0.6666348758805448 -0.0018873966522240822 -0.3332856935507743 -0.0018746983071860266 0.666634864982295 -0.0018842779384175726
 0.6666348759958961 -0.0018872361242400213 0.6666348649822951 -0.0018842779384175728 -0.33328569332611063 -0.0018748588361343235
0.08002327093216569 -0.3332862230697784 -0.0019667555041615907 0.6666343230599119 -0.0019832067197030684 0.6666343231872717 -0.001983038042723622
 0.6666343230599121 -0.001983206719706828 -0.33328624751295444 -0.0019698637535688246 0.6666343110271109 -0.0019799296844230413
 0.6666343231872713 -0.001983038042719295 0.6666343110271109 -0.00197992968443376 -0.33328624726490186 -0.0019700324316642946
0.08408556545793698 -0.33328683215574784 -0.002066593773185176 0.6666337126897003 -0.0020838801129290166 0.6666337128303182 -0.0020837028732845785
 0.6666337126897004 -0.002083880112932093 -0.3332868591435498 -0.00206985980160855 0.6666336994042394 -0.002080436718529619
 0.6666337128303181 -0.00208370287328283 0.6666336994042396 -0.0020804367185403368 -0.3332868588696745 -0.0020700370425449062
0.08835407795782858 -0.3332875046495931 -0.0021714999822016346 0.6666330387779188 -0.0021896638396371316 0.6666330389331757 -0.0021894776026670387
 0.6666330387779186 -0.002189663839623638 -0.33328753444692505 -0.0021749317978150347 0.6666330241093923 -0.0021860456405068127
 0.6666330389331758 -0.0021894776026790846 0.6666330241093924 -0.002186045640496092 -0.3332875341445385 -0.0021751180362759716
0.09283927686355573 -0.3332882471515633 -0.002281731267632976 0.6666322947104018 -0.002300817188245803 0.6666322948818213 -0.0023006214972370142
 0.6666322947104014 -0.002300817188279402 -0.3332882800509043 -0.002285337284936971 0.6666322785148292 -0.002297015309867144
 0.6666322948818215 -0.0023006214972052987 0.6666322785148293 -0.0022970153098992962 -0.3332882797170379 -0.0022855329777257214
0.09755216202541175 -0.3332890669497292 -0.002397557929101856 0.666631473183712 -0.0024176127196233006 0.6666314733729773 -0.002417407094574962
 0.6666314731837116 -0.002417612719580325 -0.333289103274005 -0.002401346989604 0.666631455302125 -0.002413617836852495
 0.6666314733729772 -0.002417407094619509 0.6666314553021249 -0.0024136178368096197 -0.3332891029053819 -0.0024015526166342445
0.10250429168915555 -0.3332899720906707 -0.002519263955706887 0.6666305661343036 -0.002540336798735984 0.6666305663432723 -0.002540120735483405
 0.6666305661343035 -0.0025403367987317767 -0.3332900121964247 -0.0025232453494008497 0.6666305463911841 -0.0025361391129382514
 0.6666305663432719 -0.0025401207354845243 0.6666305463911841 -0.002536139112938253 -0.3332900117894265 -0.0025234614149992076
0.10770781084235159 -0.3332909714576124 -0.0026471476213401728 0.6666295646602216 -0.002669290196086896 0.6666295648909447 -0.0026690631647132783
 0.6666295646602215 -0.002669290196080271 -0.33329101573849973 -0.002651331109487393 0.6666295428617827 -0.002664879411065708
 0.6666295648909442 -0.0026690631647270833 0.6666295428617823 -0.002664879411044274 -0.3332910152891315 -0.002651558143589653
