!Generated from: C:\Users\nkfzm\OneDrive - University of Missouri\Desktop\Research\PowerSI\Board 6 - GGPG\b6.spd
! Port1_ic_port_1::pwr
! Port2_decap_port_1::pwr
!
!Layout Workbench Version: 24.1.0.10141.541387   000
!Computer Host Name: RS29JQCX3
!
!TouchstoneFormatFlag = 1
! GNDNET gnd
! NETSLIST 
!
#	Hz	Z	RI	R	1
10000	-0.202935614200675	-103351.767612518	-0.205863870182119	-103351.767724127	-0.205863870182132	-103351.767724127	-0.201602431982964	-103351.767559703
13335.2143216332	0.497315185337754	-77505.7527681423	0.493819924433669	-77505.7544965234	0.493819924433683	-77505.7544965234	0.497512383218843	-77505.7558567195
17782.7941003892	0.0704724010714475	-58119.8051834457	0.0673019214536053	-58119.8059874077	0.0673019214536025	-58119.8059874077	0.0713211878990871	-58119.8063004481
23713.7370566166	-0.0780600921043262	-43583.066731499	-0.0809893875894974	-43583.066996143	-0.080989387589489	-43583.066996143	-0.0767262541471581	-43583.0666062387
31622.7766016838	-0.0903186384574206	-32682.4396557442	-0.0930924088673957	-32682.4397277827	-0.093092408867404	-32682.4397277827	-0.0886701839824422	-32682.4389271239
42169.6503428582	-0.0444164972746935	-24508.3600412019	-0.0471582266831166	-24508.3602502127	-0.0471582266831139	-24508.3602502127	-0.0426991341842459	-24508.3592956162
56234.1325190349	0.00387088688912907	-18378.8247031785	0.000935754036618386	-18378.8253305894	0.000935754036610059	-18378.8253305895	0.00520841087306989	-18378.8244061898
74989.4209332456	-0.0154932977570715	-13782.4066398766	-0.0189413063459848	-13782.4077066403	-0.0189413063460014	-13782.4077066403	-0.0151695330919771	-13782.4067031623
100000	-0.105372652224853	-10335.45271339	-0.109126704590867	-10335.4538237789	-0.109126704590867	-10335.4538237789	-0.105636083129412	-10335.4521736871
133352.143216332	0.0042013132147356	-7750.28614283678	0.00123358704666177	-7750.28762869934	0.00123358704663956	-7750.28762869934	0.00555951822278078	-7750.28543941792
177827.941003892	0.300895150426483	-5811.56458425727	0.299384669900798	-5811.56702729265	0.299384669900801	-5811.56702729265	0.305260460255444	-5811.56458291988
237137.370566166	0.130123635920404	-4358.11083464005	0.128578448437555	-4358.11273293711	0.128578448437552	-4358.11273293711	0.134547705394364	-4358.10813491934
316227.766016838	0.00294904532694706	-3268.26584827999	-0.000129922906524915	-3268.26935485589	-0.000129922906533242	-3268.26935485589	0.00437241659707877	-3268.26418639146
421696.503428582	-0.00461452795927075	-2450.85953844536	-0.00772536719723105	-2450.86444126873	-0.00772536719723382	-2450.86444126873	-0.00321008696080038	-2450.85778796526
562341.325190349	0.00315471805123757	-1837.87695660865	2.65414010824916e-05	-1837.88316524939	2.65414010769405e-05	-1837.88316524939	0.00458013577168681	-1837.87400073114
749894.209332456	0.00615713289489339	-1378.20768488828	0.00297454554559484	-1378.21579871559	0.00297454554558096	-1378.21579871559	0.00754980907875236	-1378.20346926386
1000000	0.00561253253270333	-1033.50555152493	0.00238448184015083	-1033.51637882528	0.00238448184015083	-1033.51637882528	0.00701624511356969	-1033.50001991348
1500000	0.00391045948720525	-688.995457567441	0.000601028999594466	-689.01178401354	0.00060102899958614	-689.01178401354	0.00535370316715467	-688.987480108076
2000000	0.00343891269695695	-516.737416221834	3.7495149365907e-05	-516.759182938299	3.7495149365907e-05	-516.759182938299	0.00490283314292794	-516.726905966903
2500000	0.00347126256548258	-413.380395788559	-2.52828671970518e-05	-413.407554989402	-2.52828671887251e-05	-413.407554989402	0.00495796301357432	-413.36727942101
3000000	0.0036179930239133	-344.473954344789	2.28060330481616e-05	-344.506483714462	2.28060330537128e-05	-344.506483714462	0.00513316467808944	-344.458206700761
3500000	0.00376397554477381	-295.253570185814	6.43944067874047e-05	-295.291460462837	6.43944067929558e-05	-295.291460462837	0.00531126012924266	-295.235191644736
4000000	0.00389183387733694	-258.336978345361	8.17429129024161e-05	-258.380224304387	8.1742912896865e-05	-258.380224304387	0.00547494808830207	-258.315977399529
4500000	0.00401063671068569	-229.622919921431	8.45394937526445e-05	-229.671515922155	8.45394937637467e-05	-229.671515922155	0.00563412725808898	-229.599304405586
5000000	0.00413061078595178	-206.650637140918	8.34916759395732e-05	-206.704575885887	8.3491675928471e-05	-206.704575885887	0.00579886570112043	-206.624411830994
5500000	0.00425696685633636	-187.854191669749	8.40460926382347e-05	-187.913464554217	8.40460926354591e-05	-187.913464554217	0.00597343245468951	-187.825359009026
6000000	0.00439086159849666	-172.189624453602	8.76074116668013e-05	-172.25422226193	8.76074116529235e-05	-172.25422226193	0.00615800482686724	-172.158185871019
6500000	0.00453148010852167	-158.934194982394	9.37483108587323e-05	-159.004108414667	9.37483108642834e-05	-159.004108414667	0.00635109414109658	-158.900151796375
7000000	0.00467735632499189	-147.571660324003	0.000101510857203335	-147.646880298345	0.000101510857211662	-147.646880298345	0.00655085330295291	-147.535014164198
7500000	0.00482691167355553	-137.723442353894	0.000109881522419863	-137.803960165076	0.000109881522417088	-137.803960165076	0.00675549282812271	-137.684195283332
8000000	0.00497852325410941	-129.105607260449	0.000117810446015332	-129.191414672981	0.000117810446012556	-129.191414672981	0.00696324257325187	-129.063761754195
8500000	0.00513029043581192	-121.501028816838	0.000123965720735808	-121.592118144319	0.000123965720744135	-121.592118144319	0.00717205547963173	-121.456587687114
9000000	0.00527949703719999	-114.740830781368	0.000126238991454697	-114.837194979096	0.000126238991449146	-114.837194979096	0.00737904234665299	-114.693797094488
9500000	0.00542176321184917	-108.691690356502	0.000121035976127781	-108.793323103072	0.000121035976125006	-108.793323103072	0.0075796191056493	-108.642067364311
10000000	0.00555072105974108	-103.246952710944	0.000103203376911054	-103.353848281565	0.00010320337691383	-103.353848281565	0.0077671930785117	-103.194743809384
11000000	0.00576686610258281	-93.8410645874269	3.34930837869729e-05	-93.9584660240427	3.34930837897485e-05	-93.9584660240427	0.00810065340727528	-93.7836946400925
12000000	0.00603789304628455	-86.0012141855683	2.30872569284557e-05	-86.1290881213326	2.30872569312313e-05	-86.1290881213326	0.00848883803472589	-85.9386990480336
13000000	0.0063647676586509	-79.3659108775163	6.86711492697833e-05	-79.5042362002573	6.86711492725589e-05	-79.5042362002573	0.00893717905076918	-79.2982670657222
14000000	0.00667309506167946	-73.6770333602318	0.000105621599269523	-73.8257905032315	0.000105621599272299	-73.8257905032315	0.00937752762663335	-73.604267352577
15000000	0.00695404498804175	-68.7453263394007	0.000122281247921796	-68.9044919273015	0.000122281247919021	-68.9044919273015	0.00979172638016224	-68.6674322718017
16000000	0.00722180858404864	-64.4288301376049	0.000129308582857979	-64.5983862350015	0.000129308582860754	-64.5983862350015	0.0101840268940667	-64.3458057869951
17000000	0.00748166160553509	-60.6189763906217	0.000133746623939834	-60.7989097869228	0.000133746623937059	-60.7989097869228	0.0105603674578347	-60.5308239189693
18000000	0.0077337322415244	-57.231323455691	0.0001374542856869	-57.4216229370326	0.0001374542856869	-57.4216229370326	0.0109232144246518	-57.1380449972571
19000000	0.00797773630455967	-54.1992078301709	0.000140851963945088	-54.3998634163155	0.000140851963947863	-54.3998634163155	0.0112736037142097	-54.1008041453388
20000000	0.00821369810516392	-51.46929894169	0.000144094379153636	-51.680301763161	0.000144094379156412	-51.680301763161	0.0116122305846345	-51.3657693796144
22000000	0.0086626004694168	-46.7512612831207	0.000150481300917327	-46.9829361465772	0.000150481300917327	-46.9829361465772	0.0122567744389651	-46.6374734148414
24000000	0.0090834683063673	-42.8162131079676	0.000157081119023239	-43.0685362726498	0.000157081119020464	-43.0685362726498	0.0128620376457139	-42.692152368093
26000000	0.00947978264429772	-39.4834633403492	0.00016400229576885	-39.7564171146024	0.00016400229576885	-39.7564171146024	0.013433119684278	-39.3491099143887
28000000	0.00985489941141837	-36.6239467125399	0.000171140240040613	-36.9175179622508	0.000171140240035061	-36.9175179622508	0.0139747701629389	-36.4792767585009
30000000	0.0102118420496372	-34.1430153551079	0.000178322163740807	-34.4571942473197	0.000178322163735256	-34.4571942473197	0.0144912543141668	-33.9880016688417
32000000	0.0105532321454133	-31.969683439036	0.000185404849389892	-32.3044624689375	0.000185404849395443	-32.3044624689375	0.0149863218004948	-31.8042957804372
34000000	0.0108812869973746	-30.0496677656965	0.000192320915967659	-30.405041045528	0.000192320915967659	-30.405041045528	0.015463224856635	-29.8738729870115
36000000	0.0111978514933303	-28.3407481281356	0.00019908506034283	-28.7167108922232	0.000199085060337278	-28.7167108922232	0.0159247527428658	-28.1545102008846
38000000	0.0115044452926011	-26.8095928076171	0.000205774640069101	-27.2061410840227	0.00020577464006355	-27.2061410840227	0.0163732680777073	-26.6128728148919
40000000	0.0118023138689444	-25.4295364182823	0.000212497438717429	-25.8466668228685	0.000212497438714654	-25.8466668228685	0.0168107419517172	-25.2222925569863
42000000	0.0120924770419376	-24.1789926563559	0.000219356502251244	-24.6167022733741	0.000219356502248469	-24.6167022733741	0.0172387897998741	-23.9611802759838
44000000	0.0123757720168149	-23.0402999416355	0.000226418695745134	-23.4985862632153	0.000226418695745134	-23.4985862632153	0.0176587107705531	-22.8118716313637
46000000	0.0126528900367573	-21.9988682023156	0.000233690638122563	-22.477729106219	0.000233690638123951	-22.477729106219	0.0180715317965541	-21.7597739265511
48000000	0.012924406866717	-21.0425389693722	0.000241103227330286	-21.5419727198464	0.000241103227333062	-21.5419727198464	0.0184780554491074	-20.7927262438253
50000000	0.013190807818321	-20.1610990529552	0.000248504210850764	-20.6811043136813	0.000248504210849376	-20.6811043136813	0.0188789090857899	-19.9005131488123
52000000	0.0134519347350898	-19.3459060906248	0.000255816384785168	-19.8864812379607	0.000255816384785168	-19.8864812379607	0.0192741517712147	-19.0744895264177
54000000	0.0137089081559044	-18.589598834906	0.000263445518344785	-19.1507433300701	0.00026344551834756	-19.1507433300701	0.0196651545525867	-18.3072911998428
56000000	0.0139619417377362	-17.8858671447459	0.000271287091166417	-18.4675806360514	0.000271287091166417	-18.4675806360514	0.0200523144722672	-17.5926053035635
58000000	0.0142112260890379	-17.2292711729235	0.000279279239881469	-17.8315535043449	0.000279279239880081	-17.8315535043449	0.0204359813140903	-16.9249892255542
60000000	0.0144569336122211	-16.61509631739	0.000287390072067906	-17.2379475385637	0.000287390072066518	-17.2379475385637	0.0208164685817261	-16.2997255557352
62000000	0.0146992223409081	-16.039236246992	0.000295608051199825	-16.6826566222877	0.000295608051198437	-16.6826566222877	0.0211940621792986	-15.7127051096108
64000000	0.0149382388827848	-15.4980978601425	0.000303934885216572	-16.1620878755474	0.00030393488521796	-16.1620878755474	0.0215690271026206	-15.1603318853036
66000000	0.0151741206150538	-14.9885235238644	0.000312380400316337	-15.6730838911558	0.000312380400317724	-15.6730838911558	0.0219416124851449	-14.6394453011611
68000000	0.0154069972836485	-14.5077270353837	0.000320958950671135	-15.2128586935264	0.000320958950671135	-15.2128586935264	0.0223120553306894	-14.1472561559489
70000000	0.0156369921447116	-14.0532405616915	0.000329686989198469	-14.7789446756666	0.000329686989199163	-14.7789446756666	0.0226805832289227	-13.6812935669468
72000000	0.0158642227669419	-13.6228704224253	0.000338581496026752	-14.3691483798303	0.000338581496026752	-14.3691483798303	0.0230474163038535	-13.239360751238
74000000	0.0160888015911576	-13.2146600429822	0.000347659025461133	-13.9815134487935	0.000347659025461827	-13.9815134487935	0.023412768598996	-12.8194979770717
76000000	0.0163108363218617	-12.826858757019	0.000356935187032642	-13.6142894269047	0.00035693518703403	-13.6142894269047	0.0237768490593704	-12.4199513644403
78000000	0.0165304302079686	-12.4578954084475	0.000366424421504447	-13.2659053609813	0.000366424421504447	-13.2659053609813	0.0241398622335021	-12.0391464849779
80000000	0.0167476822533333	-12.1063559130153	0.00037613996911115	-12.9349473610977	0.000376139969111844	-12.9349473610977	0.0245020087872215	-11.6756659212734
82000000	0.0169626873864001	-11.7709641034526	0.000386093955849487	-12.6201394451895	0.000386093955850875	-12.6201394451895	0.0248634858963891	-11.3282301095885
84000000	0.0171755366081917	-11.4505653109344	0.000396297545598306	-12.3203271201701	0.000396297545599	-12.3203271201701	0.0252244875661299	-10.9956809187341
86000000	0.0173863171311864	-11.1441122374189	0.000406761122348498	-12.0344632540752	0.000406761122349886	-12.0344632540752	0.0255852049093355	-10.6769675196779
88000000	0.0175951125163915	-10.8506527544151	0.000417494479110214	-11.7615958747453	0.000417494479110214	-11.7615958747453	0.025945826406306	-10.3711341814405
90000000	0.017802002812374	-10.5693193285219	0.000428506998845224	-11.5008575953523	0.00042850699884453	-11.5008575953523	0.0263065381594034	-10.0773096936269
92000000	0.0180070646977094	-10.2993198261928	0.000439807819134497	-11.2514564191995	0.000439807819133803	-11.2514564191995	0.0266675241507204	-9.79469816805381
94000000	0.0182103716268464	-10.0399294923176	0.000451405976503727	-11.0126677183608	0.000451405976503033	-11.0126677183608	0.0270289665072677	-9.52257101406199
96000000	0.018411993978288	-9.79048393144391	0.000463310529288247	-10.7838272149659	0.000463310529288941	-10.7838272149659	0.0273910457752741	-9.26025991633983
98000000	0.0186119992039317	-9.55037294840959	0.00047553065971595	-10.5643248218901	0.00047553065971595	-10.5643248218901	0.0277539412038036	-9.00715067202582
100000000	0.0188104519779235	-9.31903512807183	0.000488075756979039	-10.3535992225232	0.000488075756979733	-10.3535992225232	0.0281178310369258	-8.76267776677353
102000000	0.0190074143435984	-9.09595305269098	0.000500955483609053	-10.1511330881718	0.000500955483608706	-10.1511330881718	0.028482892813126	-8.52631958833329
104000000	0.0192029458572877	-8.88064907113326	0.000514179827699676	-9.95644884725136	0.000514179827700023	-9.95644884725137	0.0288493036707794	-8.29759419180954
106000000	0.0193971037278515	-8.67268154701229	0.000527759143558945	-9.76910493338767	0.000527759143558598	-9.76910493338767	0.02921724065807	-8.0760555437074
108000000	0.0195899429510264	-8.47164152368565	0.000541704183061598	-9.58869245034125	0.000541704183061251	-9.58869245034125	0.0295868810466102	-7.86129018267831
110000000	0.019781516438162	-8.27714975305333	0.000556026119953937	-9.41483220070072	0.000556026119953937	-9.41483220070072	0.0299584026476254	-7.65291424390322
112000000	0.019971875138786	-8.08885404268286	0.000570736568933014	-9.24717203287026	0.000570736568933014	-9.24717203287027	0.0303319841301806	-7.45057080163014
114000000	0.0201610681567439	-7.90642688216893	0.000585847601119321	-9.08538446725887	0.000585847601120015	-9.08538446725887	0.0307078053411815	-7.25392749076422
116000000	0.0203491428600752	-7.72956331502669	0.000601371757271915	-8.92916456797099	0.000601371757271568	-8.92916456797099	0.0310860476269298	-7.06267437379994
118000000	0.0205361449843913	-7.55797902698755	0.000617322059846478	-8.77822803086811	0.000617322059846825	-8.77822803086812	0.0314668941566208	-6.87652202395346
120000000	0.0207221187301446	-7.39140862545025	0.000633712024806013	-8.63230946275436	0.00063371202480636	-8.63230946275436	0.0318505302478997	-6.6951997992367
122000000	0.0209071068539807	-7.22960408815128	0.000650555673857578	-8.49116082975053	0.000650555673858619	-8.49116082975054	0.0322371436951747	-6.51845428552514
124000000	0.0210911507543373	-7.07233336194865	0.000667867547702802	-8.35455005575117	0.000667867547703149	-8.35455005575117	0.0326269251013402	-6.34604788950081
126000000	0.0212742905517985	-6.9193790950395	0.000685662720705318	-8.22225975428493	0.000685662720705318	-8.22225975428493	0.0330200682137908	-6.17775756477742
128000000	0.0214565651644457	-6.77053748801691	0.000703956817283205	-8.09408607918372	0.000703956817283205	-8.09408607918372	0.0334167702655298	-6.01337365659861
130000000	0.0216380123785338	-6.62561725096712	0.000722766030283872	-7.96983768126176	0.000722766030284219	-7.96983768126176	0.0338172323225795	-5.85269885229577
132000000	0.0218186689149955	-6.48443865536022	0.000742107141491616	-7.84933475975691	0.000742107141491269	-7.84933475975691	0.0342216596386627	-5.69554722624221
134000000	0.0219985704919299	-6.34683267083005	0.000761997544387188	-7.73240819862958	0.000761997544386842	-7.73240819862958	0.0346302620184476	-5.54174336938256
136000000	0.0221777518835269	-6.2126401781039	0.000782455269271801	-7.6188987789791	0.000782455269271801	-7.61889877897911	0.0350432541905088	-5.39112159458023
138000000	0.0223562469757119	-6.08171125035656	0.000803499010775324	-7.50865645985095	0.000803499010775324	-7.50865645985095	0.0354608561914604	-5.24352521003819
140000000	0.022534088818835	-5.9539044961454	0.000825148157847407	-7.40153972059044	0.000825148157847927	-7.40153972059044	0.0358832937624514	-5.0988058539296
142000000	0.0227113096776123	-5.82908645785473	0.000847422826235136	-7.29741495866993	0.000847422826235136	-7.29741495866993	0.036310798759639	-4.95682288414516
144000000	0.0228879410786295	-5.70713106025201	0.000870343893513183	-7.19615593759025	0.000870343893513356	-7.19615593759025	0.0367436095800014	-4.81744281773686
146000000	0.023064013855645	-5.58791910435014	0.000893933036710814	-7.09764328004931	0.000893933036710988	-7.09764328004931	0.0371819716041779	-4.68053881522792
148000000	0.0232395581929069	-5.47133780228937	0.000918212772585587	-7.00176400208917	0.000918212772585587	-7.00176400208917	0.0376261376578322	-4.54599020547684
150000000	0.0234146036665678	-5.35728034940967	0.000943206500633557	-6.90841108439063	0.000943206500633557	-6.90841108439063	0.0380763684934502	-4.41368204723864
152000000	0.0235891792846775	-5.24564553008749	0.000968938548895522	-6.81748307728677	0.000968938548895522	-6.81748307728677	0.038532933294191	-4.28350472396793
154000000	0.0237633135253939	-5.13633735426656	0.000995434222681758	-6.72888373642284	0.000995434222682105	-6.72888373642284	0.038996110201883	-4.15535356876204
156000000	0.0239370343742726	-5.02926472192738	0.00102271985632958	-6.64252168630434	0.00102271985632958	-6.64252168630434	0.0394661868710454	-4.02912851665546
158000000	0.0241103693600775	-4.92434111301903	0.00105082286812521	-6.55831010925411	0.00105082286812521	-6.55831010925411	0.0399434610512174	-3.90473378175341
160000000	0.0242833455896428	-4.8214843006243	0.00107977181856775	-6.47616645754639	0.00107977181856792	-6.47616645754639	0.0404282411997419	-3.7820775569374
162000000	0.0244559897818492	-4.72061608534963	0.00110959647214755	-6.39601218670578	0.00110959647214737	-6.39601218670578	0.0409208471275974	-3.66107173409324
164000000	0.0246283283007303	-4.62166204912678	0.00114032786284711	-6.31777250815469	0.00114032786284694	-6.31777250815469	0.0414216106807464	-3.54163164300475
166000000	0.0248003871878044	-4.52455132678809	0.00117199836360549	-6.24137615956713	0.00117199836360549	-6.24137615956713	0.0419308764598923	-3.42367580722828
168000000	0.0249721921938754	-4.42921639393319	0.00120464175999372	-6.16675519144253	0.00120464175999389	-6.16675519144253	0.0424490025816049	-3.30712571541532
170000000	0.025143768810241	-4.3355928697442	0.00123829332840161	-6.09384476855219	0.00123829332840161	-6.09384476855219	0.0429763614840234	-3.19190560668684
172000000	0.025315142299369	-4.24361933353149	0.00127298991902981	-6.0225829850356	0.00127298991902999	-6.0225829850356	0.0435133407806074	-3.07794226878314
