!Generated from: C:\Users\al7k7\Desktop\Is tool\via_throughhole.spd
! Port1_ic_port::pwr
! Port2_decap_port1_1::pwr
! Port3_decap_port2_1::pwr
!
!Layout Workbench Version: 24.1.0.10141.541387   000
!Computer Host Name: RSBDG9GT3
!
!TouchstoneFormatFlag = 1
! GNDNET gnd
! NETSLIST 
!
#	Hz	S	RI	R	50
10000	-0.33329377861074	-0.000212327311369071	0.666646607077136	-0.000214538242411564	0.666646967214037	-0.000214527778411823
			0.666646607077136	-0.000214538242411564	-0.333301631157356	-0.000212437532159905	0.666654818739162	-0.000214399169609282
			0.666646967214037	-0.000214527778411823	0.666654818739162	-0.000214399169609282	-0.333301991245316	-0.000212449269641997
13335.2143216332	-0.333293836024549	-0.000283137976290103	0.666646554910931	-0.000286093594359548	0.666646915137446	-0.000286079726971005
			0.666646554910931	-0.000286093594359548	-0.333301685424628	-0.00028328867385729	0.666654763344777	-0.000285904538079114
			0.666646915137446	-0.000286079726971005	0.666654763344777	-0.000285904538079114	-0.333302045656566	-0.000283304287951536
17782.7941003892	-0.333293923998416	-0.000377574908023409	0.666646457059157	-0.00038150990919761	0.666646817473359	-0.000381491344044718
			0.666646457059157	-0.00038150990919761	-0.333301778309684	-0.000377772639670846	0.666654668851964	-0.00038126092755578
			0.666646817473359	-0.000381491344044718	0.666654668851964	-0.00038126092755578	-0.333302138612665	-0.000377793494014056
23713.7370566166	-0.333294082712282	-0.000503508188158143	0.666646284093338	-0.000508749640330541	0.666646644835278	-0.000508724829462407
			0.666646284093338	-0.000508749640330541	-0.333301943923746	-0.000503768885990766	0.66665450030129	-0.000508420527565493
			0.666646644835278	-0.000508724829462407	0.66665450030129	-0.000508420527565493	-0.333302304390493	-0.000503796718738696
31622.7766016838	-0.333294367959628	-0.000671442206155393	0.666645977902156	-0.000678426556116064	0.666646339220688	-0.000678393445804454
			0.666645977902156	-0.000678426556116064	-0.333302239036508	-0.000671787299010317	0.666654199878895	-0.000677990197991049
			0.666646339220688	-0.000678393445804454	0.666654199878895	-0.000677990197991049	-0.333302599837931	-0.000671824423937839
42169.6503428582	-0.333294879187133	-0.000895384530197668	0.666645435269993	-0.000904694260584492	0.666645797609039	-0.000904650124710734
			0.666645435269993	-0.000904694260584492	-0.333302764682978	-0.000895842904453111	0.666653664711354	-0.000904114203093081
			0.666645797609039	-0.000904650124710734	0.666653664711354	-0.000904114203093081	-0.333303126123367	-0.000895892403207435
56234.1325190349	-0.333295793554258	-0.00119401408096065	0.666644472835111	-0.00120642664428919	0.666644836988141	-0.00120636785563997
			0.666644472835111	-0.00120642664428919	-0.333303700678218	-0.00119462476452334	0.666652711767116	-0.00120565376643751
			0.666644836988141	-0.00120636785563997	0.666652711767116	-0.00120565376643751	-0.333304063284155	-0.00119469074553716
74989.4209332456	-0.333297426632966	-0.00159223875914676	0.66664276485652	-0.00160879176861907	0.666643132240795	-0.00160871347641381
			0.66664276485652	-0.00160879176861907	-0.333305367061866	-0.00159305456101375	0.666651015414887	-0.00160775973424991
			0.666643132240795	-0.00160871347641381	0.666651015414887	-0.00160775973424991	-0.333305731726992	-0.00159314250732079
100000	-0.33330034101476	-0.00212327232576982	0.666639732829749	-0.00214534992815636	0.666640105970711	-0.00214524562112449
			0.666639732829749	-0.00214534992815636	-0.333308333504122	-0.0021243646235606	0.666647996291943	-0.0021439690769392
			0.666640105970711	-0.00214524562112449	0.666647996291943	-0.0021439690769392	-0.333308701756	-0.0021244818437765
133352.143216332	-0.333305543272046	-0.0028314029987216	0.66663435042176	-0.00286084929447546	0.666634733822699	-0.00286071059912487
			0.66663435042176	-0.00286084929447546	-0.333313614108705	-0.00283286816982462	0.666642623190418	-0.00285899894762925
			0.666634733822699	-0.00286071059912487	0.666642623190418	-0.00285899894762925	-0.333313988822519	-0.00283302427212944
177827.941003892	-0.333314853137754	-0.00377566285177348	0.666624805984448	-0.00381494810435085	0.666625205463405	-0.00381477014374494
			0.666624805984448	-0.00381494810435085	-0.333323013821622	-0.00377765169228195	0.666633057748362	-0.00381246588740974
			0.666625205463405	-0.00381477014374494	0.666633057748362	-0.00381246588740974	-0.333323402662168	-0.00377785815530357
237137.370566166	-0.333331371729549	-0.00503463722955224	0.666607893590431	-0.00508732390504773	0.666608282026046	-0.00508703810839523
			0.666607893590431	-0.00508732390504773	-0.333339733402512	-0.00503749549354353	0.666616053077517	-0.00508380158583231
			0.666608282026046	-0.00508703810839523	0.666616053077517	-0.00508380158583231	-0.33334018142262	-0.00503774744326621
316227.766016838	-0.333360693103282	-0.00671351964386441	0.666577617940806	-0.00678369188410882	0.666578057401658	-0.00678336343730883
			0.666577617940806	-0.00678369188410882	-0.333369541467594	-0.00671728596651939	0.666585899134392	-0.00677899694335639
			0.666578057401658	-0.00678336343730883	0.666585899134392	-0.00677899694335639	-0.333369932125004	-0.00671765806800268
421696.503428582	-0.333413117156823	-0.0089521207864123	0.666524061955398	-0.009045369013472	0.666524509997211	-0.0090449255735547
			0.666524061955398	-0.009045369013472	-0.333422658165848	-0.00895711846057925	0.666532238424097	-0.00903914817936301
			0.666524509997211	-0.0090449255735547	0.666532238424097	-0.00903914817936301	-0.333423004070589	-0.0089576283067258
562341.325190349	-0.33350662813689	-0.0119366114446903	0.666428984432202	-0.0120602865109076	0.666429455134385	-0.0120596899149873
			0.666428984432202	-0.0120602865109076	-0.333517205671077	-0.0119431218456306	0.666436864241716	-0.0120520520633729
			0.666429455134385	-0.0120596899149873	0.666436864241716	-0.0120520520633729	-0.333517521370324	-0.0119437978978474
749894.209332456	-0.333673262548193	-0.0159144650494562	0.666260177661416	-0.0160782709935095	0.666260688390159	-0.0160774726168012
			0.666260177661416	-0.0160782709935095	-0.333685548616715	-0.0159229082036167	0.666267419947797	-0.0160673938805375
			0.666260688390159	-0.0160774726168012	0.666267419947797	-0.0160673938805375	-0.333685786146047	-0.0159237952303838
1000000	-0.333969932596703	-0.0212137863019369	0.665960478401472	-0.0214306803313008	0.665961060870757	-0.0214296141199767
			0.665960478401472	-0.0214306803313008	-0.333985186757922	-0.0212247831372826	0.665966471701573	-0.0214162855193545
			0.665961060870757	-0.0214296141199767	0.665966471701573	-0.0214162855193545	-0.333985250468589	-0.021225984928403
1500000	-0.334817042807855	-0.0317819190028238	0.665106583344589	-0.0321042637845704	0.665107372459513	-0.032102669262588
			0.665106583344589	-0.0321042637845704	-0.334840707208078	-0.0317977057317846	0.665108848651177	-0.032082688713701
			0.665107372459513	-0.032102669262588	0.665108848651177	-0.032082688713701	-0.334840390532739	-0.0317995691576085
2000000	-0.336000300755934	-0.0423017541995853	0.66391519530231	-0.0427289673803665	0.66391627374737	-0.0427268583207257
			0.66391519530231	-0.0427289673803665	-0.336035498148172	-0.0423217852360188	0.663912206392351	-0.0426999321866782
			0.66391627374737	-0.0427268583207257	0.663912206392351	-0.0426999321866782	-0.336034620036982	-0.0423242999904447
2500000	-0.337515989228353	-0.0527574198286352	0.6623898420923	-0.0532889448893756	0.662391291178058	-0.0532863387717136
			0.6623898420923	-0.0532889448893756	-0.337565850414339	-0.0527810455781822	0.662380127814713	-0.053252115673947
			0.662391291178058	-0.0532863387717136	0.662380127814713	-0.053252115673947	-0.33756424987425	-0.0527842516892704
3000000	-0.339359496337729	-0.0631334165174832	0.660535081298955	-0.0637686469679656	0.660536980919934	-0.063765564998121
			0.660535081298955	-0.0637686469679656	-0.339427128896074	-0.0631598201609913	0.660517203201848	-0.0637236322128286
			0.660536980919934	-0.063765564998121	0.660517203201848	-0.0637236322128286	-0.339424651815677	-0.0631637587279739
3500000	-0.341525297615691	-0.0734146519731919	0.658356434897967	-0.0741529192056037	0.658358863297228	-0.0741493863590061
			0.658356434897967	-0.0741529192056037	-0.341613752709294	-0.0734428606329654	0.658328985397173	-0.0740992664782372
			0.658358863297228	-0.0741493863590061	0.658328985397173	-0.0740992664782372	-0.341610247141038	-0.0734475792637975
4000000	-0.344006978421143	-0.0835865040047803	0.655860338840817	-0.0844270751927273	0.655863372379089	-0.0844231201440703
			0.655860338840817	-0.0844270751927273	-0.344119237167491	-0.0836154005374411	0.655821943225541	-0.084364270877757
			0.655863372379089	-0.0844231201440703	0.655821943225541	-0.084364270877757	-0.344114554425221	-0.0836209541675106
4500000	-0.346797273571184	-0.0936348839043967	0.653054093040172	-0.0945769625470412	0.653057805978777	-0.0945726175312014
			0.653054093040172	-0.0945769625470412	-0.346936238200348	-0.0936632153939381	0.653003412304742	-0.0945044331152529
			0.653057805978777	-0.0945726175312014	0.653003412304742	-0.0945044331152529	-0.346930233578425	-0.0936696659756757
5000000	-0.349888116323641	-0.103546295661775	0.649945807882252	-0.104589023435174	0.649950272180222	-0.104584324066759
			0.649945807882252	-0.104589023435174	-0.350056602647224	-0.103572680751445	0.649881541714993	-0.104506137552159
			0.649950272180222	-0.104584324066759	0.649881541714993	-0.104506137552159	-0.350049135862295	-0.103580096818682
5500000	-0.353270693641344	-0.11330788975527	0.64654434663618	-0.114450349287241	0.646549631764695	-0.11444533435448
			0.64654434663618	-0.114450349287241	-0.353471424180897	-0.113330825879575	0.646465236339146	-0.114356420453956
			0.646549631764695	-0.11444533435448	0.646465236339146	-0.114356420453956	-0.353462359705502	-0.113339282121742
6000000	-0.356935506136357	-0.122907510925684	0.642859264070805	-0.124148729286967	0.642865436848002	-0.124143440530014
			0.642859264070805	-0.124148729286967	-0.357171103858233	-0.122925381819049	0.642764095302198	-0.124043018848792
			0.642865436848002	-0.124143440530014	0.642764095302198	-0.124043018848792	-0.357160311207294	-0.122934958667622
6500000	-0.360872431585927	-0.132333739569613	0.638900741892912	-0.133672692317549	0.638907866340892	-0.133667174198005
			0.638900741892912	-0.133672692317549	-0.361145414301618	-0.132344823136607	0.638788347172456	-0.133554412738179
			0.638907866340892	-0.133667174198005	0.638788347172456	-0.133554412738179	-0.361132768289145	-0.132355606353371
7000000	-0.365070791097981	-0.141575926527774	0.634679521726998	-0.143011542157986	0.63468765895166	-0.143005841624318
			0.634679521726998	-0.143011542157986	-0.365383566591611	-0.141578403040962	0.634548782670448	-0.142879860484364
			0.63468765895166	-0.143005841624318	0.634548782670448	-0.142879860484364	-0.365368947560372	-0.141590483301296
7500000	-0.369519417087497	-0.15062422115622	0.630206836390363	-0.152155385832636	0.630216044483818	-0.15214955208476
			0.630206836390363	-0.152155385832636	-0.369874279011227	-0.150616181700464	0.630056685654775	-0.152009427294368
			0.630216044483818	-0.15214955208476	0.630056685654775	-0.152009427294368	-0.369857573033715	-0.150629654168857
8000000	-0.374206722275215	-0.159469592668909	0.625494340217108	-0.161095155116676	0.625504674181884	-0.161089239372007
			0.625494340217108	-0.161095155116676	-0.374605846829498	-0.15944904773467	0.625323763148252	-0.160934006814302
			0.625504674181884	-0.161089239372007	0.625323763148252	-0.160934006814302	-0.374586945877549	-0.159464011632482
8500000	-0.379120768962305	-0.168103844832199	0.620554039164674	-0.169822621292399	0.62056555085859	-0.169816676555066
			0.620554039164674	-0.169822621292399	-0.379566212356177	-0.168068732958798	0.620362075144489	-0.169645335936153
			0.62056555085859	-0.169816676555066	0.620362075144489	-0.169645335936153	-0.379545014436786	-0.168085291126009
9000000	-0.384249337878138	-0.176519624175835	0.615398221402638	-0.178330403335525	0.615410959503048	-0.178324484170049
			0.615398221402638	-0.178330403335525	-0.384743034546354	-0.176467820551816	0.615183964899297	-0.178136003001352
			0.615410959503048	-0.178324484170049	0.615183964899297	-0.178136003001352	-0.384719443801834	-0.176486079005672
9500000	-0.389579995946629	-0.184710421960703	0.610039389038901	-0.186611969786324	0.610053399024965	-0.186606132096802
			0.610039389038901	-0.186611969786324	-0.390123757485604	-0.184639746899087	0.609801990365585	-0.18639944965977
			0.610053399024965	-0.186606132096802	0.609801990365585	-0.18639944965977	-0.390097684257067	-0.184659814393394
10000000	-0.395100162370676	-0.192670570210571	0.604490191585542	-0.194661634626626	0.604505515737121	-0.194655935442271
			0.604490191585542	-0.194661634626626	-0.395695677143549	-0.192578797430263	0.604228857376756	-0.19442996670835
			0.604505515737121	-0.194655935442271	0.604228857376756	-0.19442996670835	-0.395667037997703	-0.192600785019682
11000000	-0.406658338960153	-0.207880387622492	0.59287165373478	-0.210046678978202	0.592889720344604	-0.210041431363021
			0.59287165373478	-0.210046678978202	-0.407361933975923	-0.207739594070966	0.592560294407475	-0.209773556876461
			0.592889720344604	-0.210041431363021	0.592560294407475	-0.209773556876461	-0.407327937521944	-0.207765762104022
12000000	-0.418822622879397	-0.222120060112502	0.580644382827741	-0.224456460798591	0.580665323233048	-0.224451901331505
			0.580644382827741	-0.224456460798591	-0.419639587897222	-0.221920976860519	0.580280501027193	-0.224137583738765
			0.580665323233048	-0.224451901331505	0.580280501027193	-0.224137583738765	-0.419599974300049	-0.221951786853747
13000000	-0.431493179122293	-0.235372918071786	0.567908721724037	-0.237874309066833	0.567932643001329	-0.237870676349838
			0.567908721724037	-0.237874309066833	-0.432427855542697	-0.235106173180849	0.567490261336138	-0.23750531590676
			0.567932643001329	-0.237870676349838	0.567490261336138	-0.23750531590676	-0.432382412589097	-0.235142091193517
14000000	-0.444573146436541	-0.247633722821147	0.554762019907052	-0.250295026091335	0.554789005884601	-0.250292557869134
			0.554762019907052	-0.250295026091335	-0.445628952599184	-0.247289946851271	0.554287348222273	-0.249871546951659
			0.554789005884601	-0.250292557869134	0.554287348222273	-0.249871546951659	-0.445577513712726	-0.247331439553736
15000000	-0.457969930131541	-0.258907556918233	0.541297317855118	-0.261723792325522	0.541327430597471	-0.26172272352036
			0.541297317855118	-0.261723792325522	-0.459149426031939	-0.258477475845753	0.540765207940712	-0.261241490183233
			0.541327430597471	-0.26172272352036	0.540765207940712	-0.261241490183233	-0.459091867935583	-0.258525004241941
16000000	-0.471596925867918	-0.269208298033515	0.52760291931142	-0.272174959389651	0.527636201602697	-0.272175520118763
			0.52760291931142	-0.272174959389651	-0.472902205124002	-0.26868339463897	0.527012377466941	-0.271629860283037
			0.527636201602697	-0.272175520118763	0.527012377466941	-0.271629860283037	-0.472838445945777	-0.268737410673459
17000000	-0.485371524034545	-0.278558664691336	0.513759223681566	-0.281670729051338	0.513795697667093	-0.281673142685662
			0.513759223681566	-0.281670729051338	-0.486803283797622	-0.277929522300505	0.513109886756316	-0.281058393340454
			0.513795697667093	-0.281673142685662	0.513109886756316	-0.281058393340454	-0.486733276773208	-0.277990465306017
18000000	-0.499219816465658	-0.286986976162767	0.499841781155029	-0.290239939649905	0.499881453041376	-0.290244421768451
			0.499841781155029	-0.290239939649905	-0.500778384957137	-0.286245037769995	0.499133476789779	-0.289556341000919
			0.499881453041376	-0.290244421768451	0.499133476789779	-0.289556341000919	-0.500702118295797	-0.286313331845597
19000000	-0.513074093160174	-0.294527251575973	0.485918597532453	-0.297916779847957	0.485961458582151	-0.297923536464368
			0.485918597532453	-0.297916779847957	-0.514759191518183	-0.293664308725589	0.485151451782383	-0.29715801562071
			0.485961458582151	-0.297923536464368	0.485151451782383	-0.29715801562071	-0.514676680810295	-0.293740359242927
20000000	-0.526873637797086	-0.301217628282443	0.472050666864071	-0.30473965015376	0.472096694401673	-0.304748878379563
			0.472050666864071	-0.30473965015376	-0.52868443502493	-0.300225847708485	0.471225054765616	-0.303902030171686
			0.472096694401673	-0.304748878379563	0.471225054765616	-0.303902030171686	-0.528595726993923	-0.30031004234957
22000000	-0.554100266232797	-0.312215877830056	0.444689732089377	-0.31599158063471	0.444741978940228	-0.316006301884856
			0.444689732089377	-0.31599158063471	-0.556158106746594	-0.310944540467571	0.443749209133163	-0.314985929603172
			0.444741978940228	-0.316006301884856	0.443749209133163	-0.314985929603172	-0.556057237997004	-0.311046105443529
24000000	-0.580548925743354	-0.320332276324187	0.418111230809704	-0.324348090963921	0.418169484587483	-0.324368966170689
			0.418111230809704	-0.324348090963921	-0.582845521685927	-0.318755035727743	0.417059690939379	-0.323161937361019
			0.418169484587483	-0.324368966170689	0.417059690939379	-0.323161937361019	-0.582732925765588	-0.318875269656606
26000000	-0.605965907000465	-0.325926428068115	0.392569901563021	-0.330170579816375	0.392633895902427	-0.330198183779317
			0.392569901563021	-0.330170579816375	-0.608490764655638	-0.324020347242507	0.391412281389387	-0.328793009981033
			0.392633895902427	-0.330198183779317	0.391412281389387	-0.328793009981033	-0.608366982977293	-0.324160375563817
28000000	-0.630180775123001	-0.329348315436369	0.368236838590233	-0.333810743091835	0.368306271905384	-0.333845568209698
			0.368236838590233	-0.333810743091835	-0.632921952318258	-0.327093737288727	0.366978800272926	-0.332232623175998
			0.368306271905384	-0.333845568209698	0.366978800272926	-0.332232623175998	-0.632787597328134	-0.327254519901975
30000000	-0.653091482633138	-0.330925966211046	0.345214448836728	-0.335598190245653	0.345288999572077	-0.335640652596115
			0.345214448836728	-0.335598190245653	-0.656036204664026	-0.328306281976506	0.343862207051023	-0.333811355266724
			0.345288999572077	-0.335640652596115	0.343862207051023	-0.333811355266724	-0.655891929807197	-0.328488625239469
32000000	-0.674650021057687	-0.330958273632089	0.323550866279974	-0.335833238064077	0.323630204840244	-0.335883684790149
			0.323550866279974	-0.335833238064077	-0.677785163665081	-0.327959634948722	0.322110606408561	-0.333831100221612
			0.323630204840244	-0.335883684790149	0.322110606408561	-0.333831100221612	-0.677631639624349	-0.328164206039717
34000000	-0.694849549715302	-0.329711711051327	0.30325288171047	-0.334783616401037	0.303336679458569	-0.33484233361084
			0.30325288171047	-0.334783616401037	-0.698162004438429	-0.326322718462691	0.301730863793034	-0.33256071592023
			0.303336679458569	-0.33484233361084	0.301730863793034	-0.33256071592023	-0.697999900981871	-0.326550060817046
36000000	-0.713713424832263	-0.3274197947691	0.284296962991633	-0.332683933648581	0.284384898775501	-0.332751154271832
			0.284296962991633	-0.332683933648581	-0.717190364782126	-0.323631185743067	0.282699325593383	-0.330235811670659
			0.284384898775501	-0.332751154271832	0.282699325593383	-0.330235811670659	-0.717020337455465	-0.323881734551633
38000000	-0.731286208934378	-0.324284348479395	0.266638285635362	-0.329736950988782	0.266730050305911	-0.329812862230681
			0.266638285635362	-0.329736950988782	-0.734915273291852	-0.320088700125263	0.264970953182495	-0.327060014834682
			0.266730050305911	-0.329812862230681	0.264970953182495	-0.327060014834682	-0.734737954134787	-0.320362797157591
40000000	-0.747626536832491	-0.320477841921873	0.250217898110117	-0.326115934810862	0.250313197454718	-0.3262006849952
			0.250217898110117	-0.326115934810862	-0.751395951089383	-0.315869297392106	0.248486521952527	-0.323207329991456
			0.250313197454718	-0.3262006849952	0.248486521952527	-0.323207329991456	-0.751211942570369	-0.316167204676204
