!Generated from: C:\Users\nkfzm\OneDrive - University of Missouri\Desktop\Research\PowerSI\Board 6 - GGPG\b6.spd
! Port1_ic_port_1::pwr
! Port2_decap_port_1::pwr
!
!Layout Workbench Version: 24.1.0.10141.541387   000
!Computer Host Name: RS29JQCX3
!
!TouchstoneFormatFlag = 1
! GNDNET gnd
! NETSLIST 
!
#	Hz	Z	RI	R	1
10000	-0.10225840274331	-103351.793246973	-0.105253523993779	-103351.793361533	-0.105253523993773	-103351.793361533	-0.090151811477085	-103351.792765276
13335.2143216332	0.54659634329926	-77504.8675738286	0.543035406495912	-77504.8681088484	0.543035406495912	-77504.8681088484	0.557567373182433	-77504.8676956813
17782.7941003892	0.155803140104604	-58119.508538451	0.152595053957422	-58119.5088838652	0.152595053957427	-58119.5088838651	0.167485219881083	-58119.507965117
23713.7370566166	0.00532578872601275	-43583.0587708513	0.00232946501396714	-43583.0590425017	0.00232946501397824	-43583.0590425018	0.0174388087491512	-43583.0576286087
31622.7766016838	-0.030897890770501	-32682.5431698984	-0.0338014500658262	-32682.5434721636	-0.0338014500658373	-32682.5434721636	-0.0185888451778915	-32682.5415269372
42169.6503428582	-0.0199785368287436	-24508.4572966122	-0.0228911631433681	-24508.4577261421	-0.0228911631433792	-24508.4577261421	-0.00767225399478377	-24508.4551587912
56234.1325190349	0.00260861046447181	-18378.8213978489	-0.000394474370257747	-18378.8220418916	-0.000394474370252196	-18378.8220418916	0.0147577635447121	-18378.8186897801
74989.4209332456	0.0181317793103153	-13782.2467998845	0.0149989093336356	-13782.2477254525	0.0149989093336245	-13782.2477254525	0.0300614854106679	-13782.2433226949
100000	0.0177436300288658	-10335.2528811446	0.0145428625559718	-10335.2541137977	0.0145428625559774	-10335.2541137977	0.0296137592463802	-10335.2482432676
133352.143216332	0.00357842590413271	-7750.28702541886	0.000537461005689632	-7750.28855076354	0.000537461005697959	-7750.28855076354	0.0159304200565008	-7750.28061167972
177827.941003892	-0.0044672144797947	-5811.83275667076	-0.00729864557227067	-5811.83469283691	-0.00729864557225679	-5811.83469283691	0.00863389431600137	-5811.82402826131
237137.370566166	0.00199629481890118	-4358.3045354961	-0.00114318557054571	-4358.30723925818	-0.00114318557055126	-4358.30723925818	0.0148789835684227	-4358.29316783059
316227.766016838	0.0029076983557863	-3268.26568756839	-0.000259373686190001	-3268.26928834321	-0.000259373686192776	-3268.26928834321	0.015899752609938	-3268.25053808586
421696.503428582	0.00309638507924315	-2450.85171521607	-8.60570676053385e-05	-2450.85651065737	-8.60570675942363e-05	-2450.85651065737	0.0160955289205233	-2450.83151237066
562341.325190349	0.00314924188899168	-1837.87687484196	-5.58620843277291e-05	-1837.88325785147	-5.5862084322178e-05	-1837.88325785147	0.0161614545573507	-1837.84993348565
749894.209332456	0.00479899132097283	-1378.2066600948	0.00157517477990254	-1378.21519355597	0.00157517477989699	-1378.21519355597	0.0178674073498558	-1378.17081708525
1000000	0.00486741008130509	-1033.50372118003	0.00159202267221437	-1033.51506843656	0.00159202267220326	-1033.51506843656	0.0179578124958724	-1033.45591725968
1500000	0.00381463042063157	-688.994799373201	0.000456434494736091	-689.011701294855	0.000456434494724989	-689.011701294855	0.0170067945332086	-688.922979020356
2000000	0.00349454328698595	-516.737308728577	6.2848975398988e-05	-516.759773608035	6.28489754100903e-05	-516.759773608035	0.0168584039146213	-516.641522416945
2500000	0.00352672840029655	-413.380334559355	1.29615052413268e-05	-413.408368055928	1.29615052357757e-05	-413.408368055928	0.0171042624117934	-413.260624504552
3000000	0.00366761622124512	-344.473826045941	6.24037805152522e-05	-344.507423766696	6.24037805152522e-05	-344.507423766696	0.0174982625400805	-344.33021645028
3500000	0.00382792197886339	-295.25338843068	0.000123648551225708	-295.292542360242	0.00012364855123681	-295.292542360242	0.0179517126415868	-295.085899268727
4000000	0.00397382517173805	-258.33677202749	0.000164220601195364	-258.381473466915	0.000164220601200915	-258.381473466915	0.0184297823672713	-258.145424781799
4500000	0.00409401926444175	-229.622698363735	0.0001736082251097	-229.672938970095	0.000173608225112476	-229.672938970095	0.0189186337848896	-229.407517318411
5000000	0.00420245590996016	-206.650384137924	0.000165815198785446	-206.706156262909	0.000165815198788222	-206.706156262909	0.0194288873372361	-206.411396051071
5500000	0.00432916264898886	-187.85389677215	0.00017028556078269	-187.915192589276	0.00017028556078269	-187.915192589276	0.0199870100776711	-187.591130119552
6000000	0.00447232343959714	-172.189301036795	0.000185593002116624	-172.256111735754	0.000185593002111073	-172.256111735754	0.0205877616229366	-171.902785319711
6500000	0.00461711069061899	-158.933857118316	0.000197986156963426	-159.006173570033	0.00019798615696065	-159.006173570033	0.0212131231068335	-158.623622388824
7000000	0.00475955074177858	-147.571314649657	0.000204356818997442	-147.649127839076	0.000204356819008544	-147.649127839076	0.0218561366196829	-147.237391165318
7500000	0.00490071620551369	-137.723091348074	0.000206474271757795	-137.806392428978	0.000206474271766122	-137.806392428978	0.0225150697819643	-137.365509302207
8000000	0.00504205848952666	-129.105252185894	0.000206425167179058	-129.194032504049	0.000206425167181834	-129.194032504049	0.0231887205627723	-128.724041484774
8500000	0.00518444204294088	-121.500671224533	0.000205663663402356	-121.594922357664	0.000205663663410682	-121.594922357664	0.0238754329201701	-121.095861288419
9000000	0.00532819442163046	-114.740473084488	0.000205053743512762	-114.840186882086	0.000205053743507211	-114.840186882086	0.0245731415901784	-114.312092661609
9500000	0.00547329145630382	-108.691335213295	0.000205048715479217	-108.796503826193	0.000205048715481992	-108.796503826193	0.0252795623148061	-108.239412205251
10000000	0.00561950637443798	-103.246599576492	0.000205840235681376	-103.357215474383	0.000205840235667498	-103.357215474383	0.0259923514124044	-102.771160877905
11000000	0.00591392938230628	-93.8406644977094	0.000209855938121395	-93.9621536786322	0.00020985593812417	-93.9621536786322	0.0274279900217139	-93.318270384612
12000000	0.0062085414562707	-86.0006889281933	0.000216529312085934	-86.1330251513291	0.000216529312088709	-86.1330251513291	0.0288634463456616	-85.4314317602917
13000000	0.00650062589197808	-79.3653018648469	0.000224894964276356	-79.508461344443	0.000224894964276356	-79.508461344443	0.0302850580478686	-78.74926231697
14000000	0.00678799460136215	-73.6763802842051	0.000234070987187307	-73.8303415278941	0.000234070987195634	-73.830341527894	0.0316823456699949	-73.0136268628261
15000000	0.00706902864324455	-68.74463324711	0.000243404324470897	-68.9093768949933	0.000243404324473673	-68.9093768949933	0.0330477917720479	-68.0352223781289
16000000	0.00734262022366594	-64.428091977703	0.000252479287479734	-64.6036006521013	0.000252479287474183	-64.6036006521013	0.0343764284957554	-63.6720685053085
17000000	0.00760808783962785	-60.6181916767573	0.000261075774957154	-60.8044498398245	0.000261075774954378	-60.8044498398245	0.0356653712840743	-59.8155896221941
18000000	0.00786509147458481	-57.2304927234609	0.000269115440276746	-57.4274865371654	0.000269115440287848	-57.4274865371653	0.036913369393976	-56.3813361799482
19000000	0.00811355738008501	-54.1983320158403	0.000276612035160495	-54.4060492004263	0.000276612035174373	-54.4060492004263	0.0381204064270918	-53.3026360878113
20000000	0.00835361555939496	-51.468378900781	0.000283632066658268	-51.686808590807	0.000283632066663819	-51.686808590807	0.0392873630898211	-50.5261506251466
22000000	0.00880976842225767	-46.7502547325999	0.000296621438883315	-46.9900817803206	0.00029662143888054	-46.9900817803206	0.0415074577185731	-45.714954859947
24000000	0.00923712579573299	-42.8151217966985	0.000308946409496857	-43.076316292409	0.000308946409491306	-43.076316292409	0.0435896460376284	-41.6867019659345
26000000	0.00964023199302722	-39.4822877803092	0.000321689881910281	-39.7648268372917	0.000321689881913056	-39.7648268372917	0.0455522837734285	-38.2606618138395
28000000	0.010022609305832	-36.6226856352404	0.0003356578203495	-36.9265516873094	0.000335657820346724	-36.9265516873094	0.0474135684448762	-35.3077374687152
30000000	0.0103861942123862	-34.1416670950918	0.000350511040678181	-34.4668452116601	0.000350511040675405	-34.4668452116601	0.0491896521399027	-32.733254462844
32000000	0.0107333763161771	-31.9682471573335	0.000365719402503628	-32.3147236395855	0.000365719402503628	-32.3147236395855	0.0508942039737503	-30.4662044394732
34000000	0.0110668072403147	-30.048143053618	0.000381177965289026	-30.4159052328502	0.00038117796528625	-30.4159052328502	0.0525388843793162	-28.4522844800849
36000000	0.011388648417146	-28.3391345915035	0.000396924072801341	-28.7281705572835	0.000396924072804117	-28.7281705572835	0.0541335305905638	-26.6492563576723
38000000	0.0117005346895099	-26.8078899422633	0.000412989866063751	-27.2181882293485	0.000412989866060975	-27.2181882293486	0.0556863226574333	-25.0237714056078
40000000	0.0120037172454457	-25.4277435922086	0.000429390900416604	-25.8592929538871	0.000429390900416604	-25.8592929538871	0.0572040194320264	-23.5491479774868
42000000	0.0122991811556089	-24.1771091203452	0.000446136119811036	-24.6298983841543	0.00044613611980826	-24.6298983841543	0.0586921974576091	-22.2037839338598
44000000	0.0125877265540156	-23.0383248510312	0.000463234749202568	-23.5123428251074	0.000463234749203956	-23.5123428251074	0.0601554593752066	-20.9700020989864
46000000	0.012870024188863	-21.9968006464313	0.000480700170371606	-22.4920360516838	0.000480700170371606	-22.4920360516838	0.0615976045516595	-19.833196912979
48000000	0.0131466530667798	-21.0403780064314	0.000498552864536261	-21.5568194199669	0.000498552864534874	-21.5568194199669	0.0630217642728026	-18.7811944279859
50000000	0.0134181252697527	-20.1588437480928	0.000516823376528475	-20.6964795509019	0.000516823376529862	-20.6964795509019	0.0644305069050249	-17.8037659089996
52000000	0.0136843848633536	-19.3435552658836	0.000535669458255617	-19.902373143577	0.000535669458257004	-19.902373143577	0.0658252370954807	-16.8922535913298
54000000	0.0139464601673411	-18.5871514857463	0.000555096909071739	-19.1671397057331	0.000555096909071739	-19.1671397057331	0.0672089426085307	-16.0392797698488
56000000	0.0142045533739768	-17.8833222012986	0.000575035303941596	-18.4844686877056	0.000575035303941596	-18.4844686877056	0.0685832185271032	-15.2385182943725
58000000	0.0144588512185267	-17.2266274981155	0.000595458066358912	-17.8489198423715	0.000595458066358912	-17.8489198423716	0.0699494597062505	-14.4845130869201
60000000	0.0147095276110745	-16.6123527072909	0.00061636815872762	-17.2557781758316	0.00061636815872762	-17.2557781758316	0.0713089085610324	-13.7725330821028
62000000	0.0149567456210559	-16.0363914322336	0.000637787478049989	-16.7009369700654	0.000637787478048601	-16.7009369700654	0.0726626921275772	-13.0984552449188
64000000	0.0152006589654807	-15.4951505076944	0.000659749229035833	-16.1808027373838	0.000659749229037221	-16.1808027373838	0.0740118504471483	-12.4586695228794
66000000	0.0154414131233419	-14.9854722387436	0.000682292620410307	-15.6922174549075	0.000682292620410307	-15.6922174549075	0.0753573580665537	-11.8500010788164
68000000	0.0156791461741856	-14.5045703620706	0.000705459325334862	-15.2323945217359	0.000705459325334168	-15.2323945217359	0.0767001401702189	-11.2696462458807
70000000	0.0159139894380336	-14.04997698515	0.000729291246771152	-14.7988656944881	0.000729291246773234	-14.7988656944881	0.0780410845907777	-10.7151194597605
72000000	0.016146067975744	-13.6194983687007	0.000753829221547542	-14.3894368666828	0.000753829221547542	-14.3894368666828	0.0793810507017399	-10.1842090332632
74000000	0.0163755009942132	-13.211177879396	0.000779112378948565	-14.0021510188926	0.000779112378948565	-14.0021510188926	0.080720875985945	-9.67494010009268
76000000	0.0166024021884037	-12.8232647920024	0.000805177938733442	-13.6352570187936	0.00080517793873483	-13.6352570187936	0.0820613808965483	-9.18554340696584
78000000	0.0168268800425066	-12.4541878910635	0.00083206128964064	-13.2871832211576	0.000832061289642028	-13.2871832211576	0.0834033724835662	-8.71442890420833
80000000	0.0170490381051533	-12.1025330322225	0.000859796233961679	-12.9565150278015	0.000859796233962373	-12.9565150278015	0.0847476471431734	-8.26016329497581
82000000	0.0172689752482739	-11.7670239871594	0.00088841531825784	-12.6419757313998	0.000888415318258534	-12.6419757313998	0.0860949927558988	-7.82145086714056
84000000	0.0174867859149129	-11.4465060248854	0.000917950196278189	-12.3424100958355	0.000917950196277495	-12.3424100958355	0.0874461904092488	-7.39711706065057
86000000	0.0177025603590154	-11.1399317839492	0.000948431989369197	-12.0567702275897	0.000948431989369197	-12.0567702275897	0.0888020158464106	-6.98609432497605
88000000	0.0179163848781388	-10.8463490711014	0.000979891623616863	-11.7841033736665	0.000979891623618251	-11.7841033736665	0.0901632407416968	-6.58740990223742
90000000	0.0181283420391969	-10.564890286752	0.00101236013266767	-11.5235413463511	0.00101236013266698	-11.5235413463511	0.0915306338732949	-6.20017523638892
92000000	0.0183385108966538	-10.2947632296694	0.00104586892183678	-11.2742913272188	0.00104586892183678	-11.2742913272188	0.0929049622417674	-5.82357676093473
94000000	0.0185469672024971	-10.0352430755073	0.00108044999348189	-11.035627844958	0.0010804499934812	-11.035627844958	0.0942869921663318	-5.45686785977906
96000000	0.0187537836072338	-9.78566535797995	0.00111613613622726	-10.8068857558071	0.00111613613622691	-10.8068857558071	0.095677490380016	-5.09936183003606
98000000	0.0189590298512558	-9.54541980944953	0.00115296108217575	-10.5874540833603	0.00115296108217644	-10.5874540833603	0.097077225136568	-4.75042570356348
100000000	0.0191627729462254	-9.31394494061293	0.00119095963686672	-10.3767705974139	0.00119095963686741	-10.3767705974139	0.0984869673369759	-4.40947480689243
102000000	0.0193650773463436	-9.0907232578414	0.00123016778689339	-10.1743170304049	0.00123016778689373	-10.1743170304049	0.0999074916797037	-4.07596795809072
104000000	0.0195660051091298	-8.87527703233663	0.00127062278989509	-9.97961484559574	0.00127062278989475	-9.97961484559574	0.101339577836757	-3.74940321469766
106000000	0.01976561604651	-8.66716454822184	0.00131236325122408	-9.79222148412338	0.00131236325122443	-9.79222148412338	0.102784011656592	-3.42931409981822
108000000	0.0199639678659044	-8.46597676748342	0.00135542919110325	-9.61172702882358	0.00135542919110325	-9.61172702882358	0.104241586394047	-3.11526624425685
110000000	0.0201611163022024	-8.27133435870926	0.0013998621055486	-9.43775123177526	0.00139986210554825	-9.43775123177526	0.105713103967614	-2.80685439159655
112000000	0.0203571152409356	-8.08288504414848	0.00144570502385519	-9.26994086008766	0.00144570502385519	-9.26994086008767	0.107199376244401	-2.5036997207037
114000000	0.0205520168333154	-7.90030122599999	0.00149300256486982	-9.10796732083605	0.00149300256486982	-9.10796732083605	0.108701226353317	-2.20544744651761
116000000	0.0207458716037862	-7.72327785822909	0.00154180099398334	-8.95152453144342	0.00154180099398264	-8.95152453144342	0.110219490027716	-1.91176466537177
118000000	0.0209387285505538	-7.55153053478081	0.00159214828226693	-8.80032700637504	0.00159214828226676	-8.80032700637504	0.111755016978817	-1.62233841565986
120000000	0.021130635239822	-7.38479376894297	0.00164409416898974	-8.65410813489664	0.0016440941689894	-8.65410813489664	0.113308672302125	-1.33687392853966
122000000	0.0213216378944937	-7.22281944192283	0.0016976902283812	-8.51261862795756	0.00169769022838103	-8.51261862795756	0.114881337918962	-1.05509304667561
124000000	0.0215117814775168	-7.06537540153158	0.00175298994140143	-8.3756251150903	0.0017529899414016	-8.3756251150903	0.116473914056353	-0.776732791847273
126000000	0.0217011097706291	-6.91224419429703	0.00181004877304013	-8.24290887464365	0.00181004877304013	-8.24290887464365	0.118087320768237	-0.501544064672826
128000000	0.0218896654491853	-6.76322191640994	0.00186892425560626	-8.11426468275099	0.00186892425560626	-8.11426468275099	0.11972249950191	-0.229290461777775
130000000	0.0220774901530781	-6.61811717070516	0.00192967607834035	-7.98949976823111	0.00192967607834035	-7.98949976823111	0.121380414713805	0.0402528024694489
132000000	0.0222646245544349	-6.47675011843055	0.00199236618364865	-7.8684328621698	0.00199236618364847	-7.8684328621698	0.123062055538871	0.30729988098654
134000000	0.0224511084224673	-6.33895161589922	0.00205705887021176	-7.75089333227284	0.00205705887021141	-7.75089333227284	0.124768437518783	0.572055195764764
136000000	0.0226369806856908	-6.20456242728582	0.00212382090320493	-7.63672039324578	0.00212382090320484	-7.63672039324577	0.126500604393731	0.834714265248738
138000000	0.0228222794919363	-6.07343250584092	0.00219272163189208	-7.52576238546841	0.002192721631892	-7.52576238546841	0.128259629963778	1.09546446513507
140000000	0.0230070422661911	-5.94542033668006	0.00226383311482522	-7.41787611511449	0.0022638331148254	-7.41787611511449	0.130046620025439	1.35448572953955
142000000	0.0231913057668176	-5.82039233507552	0.00233723025294119	-7.31292624963753	0.00233723025294145	-7.31292624963753	0.131862714390108	1.61195119871843
144000000	0.0233751061401267	-5.69822229485297	0.00241299093089046	-7.21078476321754	0.0024129909308908	-7.21078476321754	0.133709088990921	1.86802781886159
146000000	0.0235584789735829	-5.57879088208691	0.00249119616690914	-7.11133042735463	0.00249119616690923	-7.11133042735464	0.135586958085335	2.12287689889182
148000000	0.0237414593478306	-5.461985169808	0.00257193027167358	-7.01444834231416	0.00257193027167358	-7.01444834231416	0.137497576561196	2.37665462869313
150000000	0.0239240818876465	-5.34769820989281	0.00265528101657578	-6.92002950558443	0.00265528101657596	-6.92002950558443	0.139442242354351	2.62951256274274
152000000	0.0241063808119909	-5.23582863870926	0.00274133981191752	-6.82797041391081	0.00274133981191752	-6.82797041391081	0.141422298986688	2.88159807272789
154000000	0.0242883899833037	-5.12628031344699	0.00283020189558577	-6.73817269582467	0.00283020189558595	-6.73817269582467	0.143439138233981	3.13305477238326
156000000	0.0244701429562469	-5.0189619763768	0.00292196653285232	-6.65054277190012	0.00292196653285245	-6.65054277190012	0.145494202933381	3.38402291748066
158000000	0.0246516730257633	-4.9137869445619	0.00301673722797983	-6.56499154024926	0.00301673722797973	-6.56499154024926	0.147588989941455	3.63463978363633
160000000	0.0248330132749146	-4.81067282279175	0.00311462194838347	-6.48143408501377	0.00311462194838366	-6.48143408501378	0.149725053254206	3.8850400243658
162000000	0.0250141966224035	-4.70954123772881	0.00321573336220607	-6.39978940582931	0.00321573336220647	-6.39978940582931	0.151904007301378	4.13535601161082
164000000	0.0251952558698202	-4.61031759145462	0.0033201890902087	-6.31998016643424	0.00332018909020874	-6.31998016643424	0.154127530428284	4.38571816078187
166000000	0.0253762237491248	-4.51293083277631	0.00342811197298085	-6.2419324607681	0.00342811197298063	-6.2419324607681	0.156397368579601	4.63625524220123
168000000	0.0255571329699653	-4.41731324481027	0.00353963035454766	-6.16557559505917	0.00353963035454775	-6.16557559505917	0.158715339200242	4.88709468069372
170000000	0.0257380162673409	-4.32340024749924	0.00365487838358476	-6.09084188453944	0.00365487838358481	-6.09084188453943	0.161083335370101	5.13836284495154
172000000	0.0259189064496738	-4.23113021384395	0.00377399633349628	-6.01766646354814	0.00377399633349621	-6.01766646354814	0.163503330190511	5.39018532819592
174000000	0.0260998364472173	-4.14044429874194	0.00389713094278237	-5.94598710789563	0.00389713094278233	-5.94598710789563	0.165977381441613	5.64268722156831
