!Generated from: C:\Users\nkfzm\OneDrive - University of Missouri\Desktop\Research\PowerSI\Board 6 - GGPG\b6.spd
! Port1_ic_port_1::pwr
! Port2_decap_port_1::pwr
!
!Layout Workbench Version: 24.1.0.10141.541387   000
!Computer Host Name: RS29JQCX3
!
!TouchstoneFormatFlag = 1
! GNDNET gnd
! NETSLIST 
!
#	Hz	Z	RI	R	1
10000	-1.49920501773058	-205210.211022698	-1.50047878937178	-205210.211069002	-1.50047878937178	-205210.211069002	-1.49919407514132	-205210.211020732
13335.2143216332	-1.83150171969052	-153885.83264364	-1.83277557165667	-153885.832705526	-1.83277557165667	-153885.832705526	-1.83149079024396	-153885.832641268
17782.7941003892	-0.812850555419453	-115398.135667724	-0.814124457568546	-115398.135750119	-0.814124457568541	-115398.135750119	-0.812839636609239	-115398.135664324
23713.7370566166	-0.31374486108765	-86536.4136648777	-0.315018866555317	-86536.4137746824	-0.315018866555314	-86536.4137746823	-0.313733958276244	-86536.4136602244
31622.7766016838	-0.0868765061396631	-64893.1639709518	-0.0881507162548617	-64893.1641173499	-0.0881507162548645	-64893.1641173499	-0.0868656354894193	-64893.1639647093
42169.6503428582	0.00222922055356511	-48663.0102526027	0.000954620672791173	-48663.0104478232	0.000954620672782847	-48663.0104478232	0.00224002527774436	-48663.0102442931
56234.1325190349	0.0257980144461378	-36492.1090166498	0.0245226969683016	-36492.1092769755	0.0245226969683238	-36492.1092769755	0.0258086915568029	-36492.1090056066
74989.4209332456	0.0219229371619584	-27365.2196353182	0.02064633759917	-27365.2199824202	0.0206463375991645	-27365.2199824202	0.0219333829093671	-27365.2196206215
100000	0.0101030510121364	-20521.018347947	0.00882422594007393	-20521.0188106413	0.00882422594007115	-20521.0188106413	0.0101131028064916	-20521.0183283351
133352.143216332	-0.000244390422879381	-15388.5924094872	-0.00152696359836668	-15388.5930260407	-0.00152696359836946	-15388.5930260407	-0.00023496977987203	-15388.5923832413
177827.941003892	-0.00516478003652621	-11539.8171233291	-0.00645345495512983	-11539.817944487	-0.00645345495511873	-11539.817944487	-0.00515631146307816	-11539.8170881418
237137.370566166	-0.00373989580280953	-8653.64315533523	-0.00503810754490797	-8653.64424835175	-0.00503810754491629	-8653.64424835175	-0.00373277518620208	-8653.64310820859
316227.766016838	0.00189666782173525	-6489.31489370013	0.000584457981855913	-6489.31634793897	0.000584457981864239	-6489.31634793897	0.00190213133405559	-6489.31483102927
421696.503428582	0.00124360283883518	-4866.29394553991	-8.59505926292803e-05	-4866.29587958772	-8.59505926403825e-05	-4866.29587958773	0.00124847651514215	-4866.29386288885
562341.325190349	0.00220343602723716	-3649.20707264724	0.000854291057231227	-3649.20963752554	0.000854291057231227	-3649.20963752554	0.00220880049724426	-3649.20696088591
749894.209332456	0.003395824365926	-2736.51558514977	0.00201845092385466	-2736.51898247754	0.00201845092386299	-2736.51898247754	0.00340034902930886	-2736.51543588854
1000000	0.00254404671150565	-2052.09410063915	0.00113111685240974	-2052.09860191003	0.00113111685240974	-2052.09860191003	0.00254887721402863	-2052.09390174257
1500000	0.0023793197725247	-1368.05703578628	0.000903150934417063	-1368.06373067981	0.000903150934417063	-1368.06373067981	0.00238466366237755	-1368.05673727234
2000000	0.00246597929589032	-1026.0364544074	0.000931906376064329	-1026.04533226805	0.000931906376078206	-1026.04533226805	0.00247154405689787	-1026.03605635066
2500000	0.00255243587543308	-820.822608725163	0.000962120256906007	-820.833662577402	0.000962120256911558	-820.833662577402	0.0025581427832877	-820.822111167896
3000000	0.00263779501345485	-684.012172839787	0.00099117202902177	-684.02539722206	0.000991172029018994	-684.02539722206	0.00264363734079898	-684.011575800185
3500000	0.00272528819958429	-586.28940964661	0.00102148395940138	-586.30479980392	0.00102148395939583	-586.30479980392	0.00273127946093243	-586.288713137252
4000000	0.00281569690422923	-512.996444937623	0.00105347243736786	-513.013996478125	0.00105347243737064	-513.013996478125	0.00282185373525201	-512.995648969939
4500000	0.00290897220470154	-455.990014220166	0.0010869542786951	-456.009722955056	0.00108695427869787	-456.009722955056	0.00291530918939686	-455.989118804961
5000000	0.00300488629522977	-410.384158731503	0.00112169499591197	-410.406020596652	0.00112169499590087	-410.406020596652	0.00301141498718627	-410.383163878692
5500000	0.00310319792565239	-373.069632083854	0.0011575203427816	-373.093643101435	0.00115752034279271	-373.093643101435	0.00310992727933501	-373.068537802226
6000000	0.0032036764777893	-341.973603443173	0.00119431016968319	-341.999759704226	0.00119431016967209	-341.999759704226	0.0032106136567317	-341.972409740363
6500000	0.0033060953230829	-315.661036137178	0.00123197366076466	-315.689333795592	0.00123197366076744	-315.689333795592	0.00331324650008069	-315.659743019843
7000000	0.00341022350032194	-293.106904002927	0.00127042943968703	-293.137339275711	0.00127042943968148	-293.137339275711	0.00341759451646384	-293.105511477095
7500000	0.00351582115600824	-273.559521200563	0.0013095931638063	-273.592090371392	0.00130959316379797	-273.592090371392	0.0035234180012278	-273.558029272118
8000000	0.00362263809688124	-256.455123352451	0.0013493704483919	-256.489822776594	0.00134937044838079	-256.489822776594	0.00363046721088556	-256.453532027758
8500000	0.00373041370267113	-241.362596520936	0.00138965251932355	-241.399422630205	0.00138965251932632	-241.399422630205	0.00373848210112604	-241.360905807616
9000000	0.0038388761985364	-227.946629865862	0.00143031209161593	-227.98557917244	0.00143031209161593	-227.98557917244	0.00384719141763301	-227.944839773773
9500000	0.00394773892107847	-215.942504311645	0.00147119679746177	-215.983573409669	0.00147119679745622	-215.983573409669	0.00395630873799291	-215.940614854206
10000000	0.00405668999265696	-205.138444622693	0.00151211639572713	-205.181630186167	0.0015121163957188	-205.181630186167	0.00406552180295394	-205.136455818754
11000000	0.00427331658865715	-186.475945119066	0.00159293062673149	-186.523353906555	0.00159293062672594	-186.523353906555	0.00428268544528654	-186.47375771615
12000000	0.00448395352649344	-170.922717691095	0.00166861328347867	-170.974336940204	0.00166861328348422	-170.974336940204	0.0044938136717354	-170.920331941191
13000000	0.00467504573929967	-157.761246316779	0.00172617978270173	-157.817062430978	0.00172617978269618	-157.817062430978	0.00468497314607408	-157.758662825324
14000000	0.00480317354646653	-146.478992130445	0.00172466524299142	-146.538987019565	0.00172466524299697	-146.538987019565	0.00481018092819974	-146.47621160254
15000000	0.00498064693616462	-136.699937114065	0.00180383894142211	-136.764086745431	0.00180383894143044	-136.764086745431	0.00498373775841832	-136.696944302445
16000000	0.00529760142536639	-128.142645633177	0.00203719037033256	-128.21100651355	0.00203719037032701	-128.21100651355	0.00531410060292392	-128.139462323937
17000000	0.0054331712872363	-120.591223786607	0.00204887723984082	-120.663776331462	0.00204887723984359	-120.663776331462	0.00544613168567687	-120.587843546083
18000000	0.00560291022757287	-113.878054080271	0.00209969051185865	-113.954779044052	0.0020996905118531	-113.954779044052	0.00561536545619912	-113.874474352067
19000000	0.00577898778024444	-107.870816171952	0.00216330799337472	-107.951704900935	0.00216330799337472	-107.951704900935	0.00579170647878879	-107.867037083184
20000000	0.00595092823924837	-102.463619762363	0.00222806215661175	-102.548666766124	0.00222806215662008	-102.548666766124	0.00596408085813682	-102.459641412682
22000000	0.00627651458726675	-93.1220501233546	0.00235204965084446	-93.2154020108991	0.00235204965084446	-93.2154020108991	0.00629059542006649	-93.1176732539362
24000000	0.00657940071396579	-85.3351229285414	0.00246728840297139	-85.436768229233	0.00246728840297694	-85.436768229233	0.00659435511504991	-85.3303473085866
26000000	0.00686336572519319	-78.7440725236646	0.00257498036711212	-78.8540027400087	0.0025749803671149	-78.8540027400087	0.00687912752420361	-78.7388977848414
28000000	0.00713177050109537	-73.0926388363593	0.00267651983301698	-73.2108473457981	0.00267651983301698	-73.2108473457981	0.00714829280064888	-73.087064532299
30000000	0.0073873016077558	-68.1928982970666	0.00277303464786272	-68.3193796984909	0.00277303464786827	-68.3193796984909	0.00740455893815661	-68.1869239285122
32000000	0.00763204347221935	-63.903908486106	0.00286538431671923	-64.0386581861506	0.00286538431671923	-64.0386581861506	0.00765002771769552	-63.8975335138614
34000000	0.00786759345275667	-60.1178900395524	0.00295421642231564	-60.2609039956676	0.00295421642231286	-60.2609039956675	0.00788630841164206	-60.1111138911126
36000000	0.00809517685393113	-56.7510146193604	0.00304002320402896	-56.9022891851667	0.00304002320402341	-56.9022891851667	0.00811463323049377	-56.7438366916767
38000000	0.00831574692404802	-53.7371019689966	0.00312318667119726	-53.8966338022617	0.00312318667118894	-53.8966338022617	0.0083359585065973	-53.7295216288731
40000000	0.00853006440124648	-51.0232078705938	0.00320401130496639	-51.1909938758195	0.00320401130497472	-51.1909938758195	0.00855104565139209	-51.0152244537619
42000000	0.00873875657690926	-48.5664726990653	0.00328274661665073	-48.742509986208	0.00328274661663963	-48.742509986208	0.00876052156646434	-48.558085508676
44000000	0.00894235859879855	-46.3318294702887	0.00335960247279943	-46.51611531852	0.0033596024728022	-46.51611531852	0.00896492108973246	-46.3230377753193
46000000	0.00914134070210404	-44.2903097949686	0.0034347597150125	-44.4828416157228	0.00343475971501528	-44.4828416157228	0.00916471511479	-44.2811128288537
48000000	0.00933612501316516	-42.4177733465598	0.00350837791584235	-42.6185486437027	0.00350837791583958	-42.6185486437027	0.00936032802827114	-42.4081703062173
50000000	0.00952709503490856	-40.693942257615	0.00358060141801286	-40.902958584785	0.00358060141801286	-40.902958584785	0.00955214760271217	-40.6839323029473
52000000	0.00971448813240627	-39.1016582634381	0.00365152324992846	-39.3189132778877	0.00365152324993123	-39.3189132778877	0.00974041038679097	-39.0912405192638
54000000	0.00989855717184462	-37.6263050989614	0.00372123850714834	-37.8517965296329	0.00372123850715111	-37.8517965296329	0.00992537078269295	-37.6154786537677
56000000	0.0100794988993708	-36.2553544872778	0.00378982052889054	-36.4890801318958	0.00378982052889332	-36.4890801318958	0.0101072265291213	-36.2441183933929
58000000	0.0102574852224369	-34.9780061707756	0.00385733411786271	-35.2199638932954	0.00385733411786826	-35.2199638932954	0.0102861504684387	-34.9663594442147
60000000	0.0104326677053929	-33.7848999079044	0.00392383673972208	-34.0350876361804	0.00392383673972485	-34.0350876361804	0.0104622950563377	-33.7728415282179
62000000	0.0106051812503977	-32.6678832127071	0.00398937964585788	-32.9262989362181	0.00398937964586343	-32.9262989362181	0.0106357960523107	-32.6554121228306
64000000	0.0107751470843104	-31.6198226433447	0.00405400887555363	-31.8864644108887	0.00405400887555363	-31.8864644108887	0.0108067755137997	-31.6069377494467
66000000	0.0109426751661201	-30.6344494019048	0.00411776612183612	-30.9093153192315	0.0041177661218389	-30.9093153192315	0.0109753442082611	-30.6211495732334
68000000	0.0111078661153785	-29.7062321813729	0.00418068946120564	-29.9893204087485	0.00418068946120842	-29.9893204087485	0.0111416035455919	-29.6925162500987
70000000	0.011270812750408	-28.8302718103062	0.00424281395717263	-29.1215805600206	0.00424281395717263	-29.1215805600206	0.0113056471189615	-28.8161385713606
72000000	0.0114316013106214	-28.0022134567444	0.00430417215145362	-28.3017409905816	0.00430417215145362	-28.3017409905816	0.0114675619291793	-27.9876616676539
74000000	0.0115903124254246	-27.2181730693245	0.00436479445888316	-27.5259176960167	0.00436479445888593	-27.5259176960167	0.0116274293555207	-27.2032014500388
76000000	0.0117470218815141	-26.4746754329443	0.00442470948144591	-26.7906355056323	0.00442470948144313	-26.7906355056323	0.0117853259243655	-26.4592826656589
78000000	0.0119018012305183	-25.768601754303	0.00448394425605902	-26.0927756680219	0.00448394425605625	-26.0927756680219	0.0119413239181548	-25.7527864832761
80000000	0.0120547182711789	-25.0971451095855	0.00454252444891945	-25.4295312987934	0.00454252444892222	-25.4295312987934	0.0120954918587102	-25.0809059409477
82000000	0.0122058374335446	-24.4577724119685	0.00460047450736301	-24.7983693481328	0.00460047450736301	-24.7983693481328	0.0122478948924781	-24.4411079135274
84000000	0.0123552200871013	-23.8481918123113	0.00465781777866242	-24.1969980015628	0.00465781777866381	-24.1969980015628	0.0123985950994568	-23.8311005133486
86000000	0.0125029247900157	-23.2663246485575	0.00471457660328883	-23.6233386294226	0.00471457660328745	-23.6233386294226	0.012547651743558	-23.2488050396195
88000000	0.0126490074934232	-22.710281220189	0.00477077238881934	-23.0755015614063	0.00477077238882351	-23.0755015614063	0.0126951214775045	-22.6923317528712
90000000	0.0127935217112005	-22.178339792727	0.00482642566943803	-22.5517650911513	0.00482642566943803	-22.5517650911513	0.012841058513488	-22.159958879451
92000000	0.0129365186637462	-21.6689283407498	0.00488155615469138	-22.0505572193481	0.00488155615469277	-22.0505572193481	0.0129855147675592	-21.6501143545345
94000000	0.0130780474018974	-21.1806086215674	0.0049361827706873	-21.5704397275066	0.0049361827706873	-21.5704397275066	0.013128539984264	-21.1613598957922
96000000	0.0132181549160726	-20.7120622396648	0.00499032369569996	-21.110094242492	0.00499032369569857	-21.110094242492	0.0132701818464059	-20.6923770678272
98000000	0.0133568862342864	-20.2620784175218	0.00504399639204289	-20.668310007435	0.00504399639204151	-20.668310007435	0.0134104860735562	-20.2419550529868
100000000	0.013494284511617	-19.8295432339175	0.00509721763522486	-20.2439731201263	0.00509721763522486	-20.2439731201263	0.0135494965121288	-19.8089798896611
102000000	0.0136303911134408	-19.4134301283016	0.00515000354139872	-19.8360570374741	0.00515000354139733	-19.8360570374741	0.0136872552190664	-19.3924249766466
104000000	0.0137652456936699	-19.0127915008029	0.00520236959354325	-19.443614175596	0.00520236959354464	-19.443614175596	0.0138238025405149	-18.991342673148
106000000	0.0138988862691355	-18.6267512631681	0.00525433066685538	-19.0657684608386	0.00525433066685677	-19.0657684608386	0.0139591771867245	-18.6048568497096
108000000	0.0140313492908786	-18.2544982173647	0.00530590105350254	-18.7017087084565	0.00530590105349976	-18.7017087084565	0.014093416303658	-18.2321562668107
110000000	0.0141626697128264	-17.8952801565095	0.00535709448691857	-18.3506827236134	0.00535709448691996	-18.3506827236134	0.0142265555420629	-17.8724886757876
112000000	0.014292881057984	-17.548398597833	0.0054079241656832	-18.0119920344161	0.00540792416568181	-18.0119920344161	0.0143586291241546	-17.5251555517899
114000000	0.0144220154827693	-17.2132040700628	0.00545840277691445	-17.6849871793617	0.00545840277691584	-17.6849871793617	0.0144896699080993	-17.1895073811566
116000000	0.01455010383907	-16.8890918883132	0.00550854251929328	-17.3690634822888	0.00550854251929467	-17.3690634822888	0.0146197094505612	-16.8649394362981
118000000	0.014677175734408	-16.5754983586425	0.00555835512547898	-17.0636572569918	0.00555835512547898	-17.0636572569918	0.014748778067164	-16.5508879802462
120000000	0.0148032595901793	-16.2718973621511	0.00560785188406382	-16.768242391372	0.00560785188406382	-16.768242391372	0.0148769048910313	-16.2468268507439
122000000	0.0149283826978347	-15.9777972750662	0.00565704366084913	-16.4823272675723	0.00565704366084635	-16.4823272675723	0.0150041179292487	-15.9522643803227
124000000	0.0150525712730637	-15.6927381868803	0.00570594091949261	-16.2054519801613	0.00570594091949261	-16.2054519801613	0.0151304441174407	-15.666740614433
126000000	0.0151758505079272	-15.4162893834262	0.00575455374144801	-15.9371858192516	0.00575455374144523	-15.9371858192516	0.0152559093721485	-15.3898247945111
128000000	0.0152982446209801	-15.1480470659119	0.00580289184515387	-15.6771249895741	0.00580289184515387	-15.6771249895741	0.0153805386412811	-15.1211130770058
130000000	0.0154197769053108	-14.8876322805042	0.00585096460447576	-15.4248905400981	0.00585096460447715	-15.4248905400981	0.015504355952424	-14.8602264629541
132000000	0.0155404697744832	-14.634689036131	0.00589878106635883	-15.1801264818671	0.00589878106635744	-15.1801264818671	0.0156273844591145	-14.6068089157748
134000000	0.015660344806398	-14.3888825908362	0.00594634996766985	-14.9424980743851	0.00594634996767124	-14.9424980743851	0.0157496464849874	-14.3605256476151
136000000	0.0157794227852004	-14.1498978893386	0.00599367975131215	-14.7116902632042	0.00599367975131146	-14.7116902632042	0.0158711635659989	-14.121061556901
138000000	0.0158977237411075	-13.9174381364535	0.00604077858147173	-14.4874062533718	0.00604077858147173	-14.4874062533718	0.0159919564905152	-13.8881198017501
140000000	0.0160152669882674	-13.691223492792	0.00608765435817019	-14.2693662051543	0.00608765435817088	-14.2693662051543	0.0161120453374825	-13.6614204956619
142000000	0.0161320711606641	-13.4709898806816	0.00613431473101833	-14.0573060399799	0.00613431473101833	-14.0573060399799	0.0162314495127228	-13.4406995134299
144000000	0.0162481542462303	-13.2564878895929	0.00618076711225227	-13.8509763458851	0.00618076711225296	-13.8509763458851	0.0163501877832137	-13.225707396559
146000000	0.0163635336190716	-13.0474817715307	0.00622701868905756	-13.6501413729245	0.00622701868905895	-13.6501413729245	0.0164682783097114	-13.0162083486472
148000000	0.0164782260700012	-12.843748517879	0.0062730764352377	-13.4545781100323	0.00627307643523978	-13.4545781100323	0.0165857386774923	-12.8119793122214
150000000	0.0165922478352794	-12.6450770100976	0.00631894712217959	-13.2640754357346	0.00631894712217959	-13.2640754357346	0.0167025859255772	-12.612809119425
152000000	0.0167056146239186	-12.4512672374688	0.00636463732926404	-13.0784333359097	0.00636463732926335	-13.0784333359097	0.0168188365741569	-12.418497709754
154000000	0.0168183416433286	-12.2621295757975	0.0064101534536315	-12.8974621825018	0.00641015345363219	-12.8974621825018	0.0169345066506781	-12.2288554087486
156000000	0.0169304436235432	-12.0774841215967	0.0064555017194344	-12.7209820677167	0.0064555017194344	-12.7209820677167	0.0170496117142843	-12.0437022621674
158000000	0.0170419348400182	-11.8971600768389	0.00650068818652608	-12.548822188785	0.00650068818652538	-12.548822188785	0.0171641668790072	-11.8628674207298
160000000	0.0171528291352516	-11.7209951798518	0.00654571875866872	-12.3808202788667	0.00654571875866872	-12.3808202788667	0.017278186835662	-11.6861885710011
162000000	0.0172631399389354	-11.548835178369	0.0065905991912911	-12.2168220801104	0.0065905991912911	-12.2168220801104	0.0173916858723436	-11.5135114084326
164000000	0.0173728802871795	-11.3805333411368	0.00663533509876885	-12.0566808552686	0.00663533509876815	-12.0566808552686	0.0175046778939425	-11.3446891489584
166000000	0.0174820628404834	-11.215950004827	0.00667993196133837	-11.900256934617	0.00667993196133837	-11.900256934617	0.0176171764404313	-11.1795820758967
168000000	0.0175906999007026	-11.0549521533113	0.00672439513160136	-11.7474172952354	0.00672439513160136	-11.7474172952354	0.0177291947042219	-11.0180571192142
170000000	0.0176988034270784	-10.8974130266346	0.00676872984066643	-11.5980351699865	0.00676872984066643	-11.5980351699865	0.0178407455464366	-10.8599874644874
172000000	0.0178063850513679	-10.7432117572676	0.00681294120397843	-11.451989683774	0.00681294120397913	-11.451989683774	0.0179518415123973	-10.7052521891445
174000000	0.0179134560920113	-10.5922330314452	0.00685703422683079	-11.3091655148852	0.00685703422683079	-11.3091655148852	0.0180624948461897	-10.5537359237923
