!Generated from: C:\Users\nkfzm\OneDrive - University of Missouri\Desktop\Research\PowerDC\b8_1\b8_1.spd
! Port1_ic_port_1::pwr
! Port2_decap_port_1::pwr
!
!Layout Workbench Version: 24.1.0.10141.541387   000
!Computer Host Name: RS29JQCX3
!
!TouchstoneFormatFlag = 1
! GNDNET gnd
! NETSLIST 
!
#	Hz	Z	RI	R	1
10000	-47.6826457244917	-969990.809360387	-47.6842095344925	-969990.809409208	-47.6842095344925	-969990.809409208	-47.6810599303969	-969990.80931166
13335.2143216332	9.63316601678002	-727383.961172128	9.63158240240664	-727383.961161145	9.63158240240664	-727383.961161145	9.63471249650875	-727383.960955087
17782.7941003892	1.06327013874923	-545463.648449013	1.06169826010566	-545463.648508177	1.06169826010566	-545463.648508177	1.06484021128653	-545463.648307114
23713.7370566166	-2.1607105603822	-409041.281404777	-2.16227460536775	-409041.281520475	-2.16227460536774	-409041.281520475	-2.15912453451223	-409041.28128909
31622.7766016838	-2.83250070348965	-306738.18343459	-2.83406083903385	-306738.183599757	-2.83406083903385	-306738.183599757	-2.83090626172276	-306738.183302059
42169.6503428582	-2.42092802397933	-230021.289200189	-2.42248854005095	-230021.289415078	-2.42248854005096	-230021.289415078	-2.41933317770331	-230021.289012772
56234.1325190349	-1.67254200467735	-172491.559311517	-1.674107357504	-172491.55958579	-1.67410735750402	-172491.55958579	-1.67095465783004	-172491.559037168
74989.4209332456	-0.939816075265795	-129350.312465015	-0.941389335664572	-129350.312821014	-0.941389335664575	-129350.312821014	-0.938240639476454	-129350.312079966
100000	-0.357647404602043	-96998.9950141716	-0.359226479604882	-96998.9954900519	-0.359226479604885	-96998.9954900519	-0.356076848029524	-96998.994503527
133352.143216332	0.056479346536753	-72739.0247902317	0.054906733324156	-72739.0254399074	0.0549067333241476	-72739.0254399074	0.0580740155624676	-72739.0241403883
177827.941003892	0.3308360562777	-54546.6988748343	0.329293258890312	-54546.6997636401	0.329293258890334	-54546.6997636401	0.332508064383633	-54546.6980550956
237137.370566166	0.479354304377516	-40904.4267258875	0.477868605950305	-40904.427933968	0.477868605950307	-40904.427933968	0.48116741089877	-40904.4256829116
316227.766016838	-0.00965782358765266	-30673.7958690668	-0.011259691477844	-30673.7974023774	-0.0112596914778385	-30673.7974023774	-0.00803359100473855	-30673.7943354629
421696.503428582	-0.575682710812106	-23001.9847228052	-0.577405412266102	-23001.9867741914	-0.577405412266116	-23001.9867741914	-0.574265344769337	-23001.9827070613
562341.325190349	0.0009761864668556	-17249.1488243689	-0.000660498584995062	-17249.1515317936	-0.000660498585020042	-17249.1515317936	0.00263584193080368	-17249.1461167752
749894.209332456	0.0136869330500278	-12935.0464186676	0.0120295833308748	-12935.0500110439	0.0120295833308748	-12935.0500110439	0.0153896654928071	-12935.0428303179
1000000	0.000912625115090382	-9699.90943966042	-0.000786220339002441	-9699.91420104427	-0.000786220338994115	-9699.91420104427	0.00263550091147424	-9699.9046789143
1500000	-0.000518509932370681	-6466.60019332621	-0.00228144249320994	-6466.60727751386	-0.00228144249320161	-6466.60727751386	0.00126202935839537	-6466.59310376652
2000000	0.00133474605653605	-4849.94972855446	-0.000483713929227969	-4849.9591305304	-0.000483713929227969	-4849.9591305304	0.00317920356899537	-4849.94032995722
2500000	0.00063609255335495	-3879.95833461569	-0.00124075078178632	-3879.9700476073	-0.00124075078180019	-3879.9700476073	0.00253881364575548	-3879.94663216469
3000000	0.000221546850392995	-3233.29471626044	-0.00171552001431985	-3233.30873226002	-0.00171552001431985	-3233.30873226002	0.00218388148928716	-3233.28070971107
3500000	0.00146680926168263	-2771.39181978883	-0.000531378081305989	-2771.4081336265	-0.000531378081314315	-2771.4081336265	0.00349380653575648	-2771.37551424388
4000000	0.00167125855147221	-2424.96508414415	-0.000390428840491008	-2424.9836919071	-0.000390428840479906	-2424.9836919071	0.00376447534536084	-2424.94648675531
4500000	0.00153294202013543	-2155.52118623809	-0.000595211427048548	-2155.54208339448	-0.000595211427045772	-2155.54208339448	0.00369294196609637	-2155.50030171079
5000000	0.00162097055997623	-1939.96566442393	-0.000576018504544473	-1939.98884607321	-0.000576018504555575	-1939.98884607321	0.00384976758728839	-1939.94249665628
5500000	0.00174264212793318	-1763.60186250045	-0.000525075540516728	-1763.62732400172	-0.000525075540519504	-1763.62732400172	0.00404284795280929	-1763.57641605035
6000000	0.00181290076089746	-1616.63182553897	-0.000527300428812549	-1616.6595624731	-0.000527300428806998	-1616.6595624731	0.00418679194890414	-1616.60410545334
6500000	0.0018364393954029	-1492.27233648237	-0.000577906546830875	-1492.30234447076	-0.000577906546825324	-1492.30234447076	0.00428576572011063	-1492.24234783153
7000000	0.00183899386454467	-1385.67825554295	-0.000650988115785678	-1385.71053017475	-0.000650988115777351	-1385.71053017475	0.00436509724200396	-1385.64600317991
7500000	0.00184262536954138	-1293.29649313368	-0.000724246849612142	-1293.33102997863	-0.000724246849609367	-1293.33102997863	0.00444657990845976	-1293.26198163555
8000000	0.00186134478801503	-1212.4622390317	-0.000783405262574921	-1212.4990336844	-0.000783405262586023	-1212.4990336844	0.00454404545803533	-1212.42547271408
8500000	0.00190268990007125	-1141.13770002996	-0.000820659390274314	-1141.17674815557	-0.000820659390265988	-1141.17674815557	0.0046648961423007	-1141.09868297294
9000000	0.00197018455248832	-1077.73792633202	-0.000832237518127998	-1077.77922370287	-0.000832237518125223	-1077.77922370287	0.00481253691899941	-1077.6966623948
9500000	0.00206526474771651	-1021.01164087463	-0.000816483569354709	-1021.05518339584	-0.000816483569354709	-1021.05518339584	0.0049882859424033	-1020.96813369382
10000000	0.00218830717286234	-969.957820134437	-0.000772833476353485	-970.003603860284	-0.000772833476356261	-970.003603860284	0.00519238919205189	-969.912073110527
11000000	0.00251075731667605	-881.773487467367	-0.000608789154499245	-881.823742418204	-0.000608789154493694	-881.823742418204	0.0056774008456717	-881.723270023417
12000000	0.00283370463632637	-808.285964474248	-0.000442928635127626	-808.340677063701	-0.000442928635124851	-808.340677063701	0.00616123616139774	-808.231289206204
13000000	0.00253611525788677	-746.103889084354	-0.000893920056371789	-746.163048196945	-0.000893920056360686	-746.163048196945	0.00601582109652221	-746.044782985209
14000000	0.00190817495398787	-692.803604606959	-0.00166594160828926	-692.867190500862	-0.00166594160828371	-692.867190500862	0.00549372753771149	-692.740079709736
15000000	0.00272996294319594	-646.610885493849	-0.00096502797622966	-646.678900456831	-0.000965027976240762	-646.678900456831	0.006471562313623	-646.54292807728
16000000	0.00283527400641859	-606.191586915036	-0.000997898510557427	-606.264022766123	-0.000997898510554651	-606.264022766123	0.00672377320964368	-606.119221766836
17000000	0.00293657607607634	-570.52692833845	-0.00103418826528645	-570.603773032209	-0.00103418826529755	-570.603773032209	0.00696493135520504	-570.450160890648
18000000	0.0030366369423801	-538.824636533384	-0.00106760111465432	-538.905882946303	-0.00106760111463766	-538.905882946303	0.0072000806031064	-538.743473189618
19000000	0.0031327542258347	-510.459097857316	-0.00110045005166926	-510.544740385503	-0.00110045005167203	-510.544740385503	0.00742684637879409	-510.373544495997
20000000	0.00322536584403399	-484.929799650905	-0.00113241035621936	-485.019833459296	-0.00113241035622769	-485.019833459296	0.00764580609505516	-484.83986137913
22000000	0.00340134965512995	-440.832877042123	-0.00119329124564638	-440.931681198393	-0.00119329124565193	-440.931681198393	0.00806222047031735	-440.734181584107
24000000	0.00356643452106287	-404.084381643941	-0.00125030981746876	-404.191942997646	-0.00125030981748542	-404.191942997646	0.00845273590257545	-403.97694232734
26000000	0.00372220585858063	-372.988520762332	-0.0013037444108327	-373.104829145925	-0.0013037444108327	-373.104829145925	0.00882074695368606	-372.872347762174
28000000	0.0038700073098058	-346.334016158547	-0.00135396996867876	-346.45906362876	-0.00135396996868153	-346.45906362876	0.00916937849889665	-346.209117415196
30000000	0.00401088744008682	-323.232597548807	-0.00140147710438743	-323.366377781086	-0.0014014771043902	-323.366377781086	0.00950129319418902	-323.098979426502
32000000	0.0041456938399187	-303.018062042098	-0.00144676273722832	-303.160569868489	-0.00144676273723665	-303.160569868489	0.00981873574197878	-302.875729793109
34000000	0.00427516603245526	-285.180960075266	-0.00149023762628653	-285.332191142822	-0.00149023762630318	-285.332191142822	0.0101236230216073	-285.02991816178
36000000	0.00439998058822944	-269.325052863058	-0.00153219291289808	-269.48500338835	-0.0015321929128953	-269.48500338835	0.0104176084051721	-269.165305178028
38000000	0.00452075750427827	-255.137520177065	-0.0015728119933861	-255.306186775115	-0.00157281199337223	-255.306186775115	0.0107021155151571	-254.969070195134
40000000	0.00463804735486295	-242.3681057949	-0.0016122046270689	-242.545485364629	-0.00161220462706335	-242.545485364629	0.0109783537949243	-242.190956675932
42000000	0.00475231401666776	-230.814221379306	-0.00165044606004194	-231.000311031275	-0.00165044606005305	-231.000311031275	0.0112473273500252	-230.6283760404
44000000	0.00486392101538835	-220.310112918408	-0.00168761164884013	-220.504909933738	-0.00168761164884568	-220.504909933738	0.0115098438304123	-220.115574085247
46000000	0.00497312455008669	-210.718853295918	-0.00172380312982723	-210.922355107897	-0.00172380312983555	-210.922355107897	0.0117665261968131	-210.515623540826
48000000	0.00508007338080041	-201.926336705761	-0.00175916599308157	-202.138540897662	-0.00175916599307047	-202.138540897662	0.0120178278410821	-201.714418477327
50000000	0.00518481433635642	-193.836714397425	-0.00179389911917904	-194.057618711663	-0.00179389911917627	-194.057618711663	0.0122640502980248	-193.616110044894
52000000	0.00528759838373805	-186.36888306495	-0.00182793474142184	-186.598485293855	-0.00182793474142739	-186.598485293855	0.0125056568694687	-186.139594813838
54000000	0.00538859145233772	-179.45375492813	-0.00186131773356746	-179.692053005059	-0.00186131773355913	-179.692053005059	0.0127429748646796	-179.215784895162
56000000	0.00548789415318329	-173.032111889738	-0.00189409312876809	-173.279103840077	-0.00189409312876254	-173.279103840077	0.0129762575003939	-172.785462091076
58000000	0.00558559529741098	-167.052903857737	-0.00192629713070547	-167.308587798208	-0.00192629713069992	-167.308587798208	0.0132057246983258	-166.797576212377
60000000	0.00568177382928303	-161.471887411392	-0.001957959669871	-161.736261549325	-0.00195795966987655	-161.736261549325	0.0134315694209436	-161.207883743802
62000000	0.005776500467361	-156.250527951378	-0.00198910621479476	-156.523590583753	-0.00198910621478365	-156.523590583753	0.0136539627899002	-155.977849993786
64000000	0.0058698390804357	-151.35510769676	-0.002019759040231	-151.636857208913	-0.00201975904023932	-151.636857208913	0.0138730581909913	-151.073757091333
66000000	0.00596184782464537	-146.755995864366	-0.0020499381075928	-147.046430728345	-0.00204993810758169	-147.046430728345	0.0140889945419748	-146.465974165421
68000000	0.00605258007301268	-142.427047640036	-0.00207966166980433	-142.72616641264	-0.00207966166980711	-142.72616641264	0.014301898877922	-142.128356316355
70000000	0.00614208516913628	-138.345106183391	-0.00210894668228601	-138.652907503925	-0.00210894668228323	-138.652907503925	0.0145118883863177	-138.037746620653
72000000	0.00623040903496852	-134.489587631795	-0.00213780907761807	-134.806070219612	-0.00213780907761807	-134.806070219612	0.0147190720036328	-134.173561135127
74000000	0.00631759465690995	-130.842133400966	-0.00216626394847486	-131.167296052849	-0.0021662639484693	-131.167296052849	0.0149235516626822	-130.517441197586
76000000	0.00640368247339651	-127.386317385485	-0.00219432566823663	-127.720158972923	-0.00219432566822275	-127.720158972923	0.01512542326563	-127.052960627412
78000000	0.00648871068542056	-124.107398205357	-0.00222200796804739	-124.449917671774	-0.00222200796805017	-124.449917671774	0.0153247774456022	-123.765377972154
80000000	0.00657271550179306	-120.992108615577	-0.00224932398998345	-121.343304973544	-0.00224932398998345	-121.343304973544	0.0155217001600733	-120.641425917096
82000000	0.00665573133766528	-118.028475733788	-0.00227628632059607	-118.388348062265	-0.00227628632058496	-118.388348062265	0.0157162731600741	-117.669131512896
84000000	0.00673779097153104	-115.205666949687	-0.00230290701747071	-115.574214391318	-0.00230290701747626	-115.574214391318	0.0159085743598436	-114.837662084934
86000000	0.0068189256760498	-112.513857335418	-0.00232919762690742	-112.891079093905	-0.00232919762690742	-112.891079093905	0.0160986781363781	-112.137192643651
88000000	0.00689916532204959	-109.944115136362	-0.00235516920242818	-110.33001047393	-0.0023551692024254	-110.33001047393	0.0162866555705327	-109.558791375244
90000000	0.00697853846825247	-107.488302529799	-0.00238083231952624	-107.882870764764	-0.00238083231952069	-107.882870764764	0.0164725746499506	-107.094320400237
92000000	0.00705707243635334	-105.138989328075	-0.00240619709157286	-105.542229832528	-0.00240619709157286	-105.542229832528	0.0166565004403763	-104.736349476545
94000000	0.00713479337614009	-102.889377698381	-0.00243127318636793	-103.301289895987	-0.00243127318636793	-103.301289895987	0.0168384952342782	-102.478080719141
96000000	0.00721172632374978	-100.733236292539	-0.00245606984252966	-101.153819656457	-0.00245606984252966	-101.153819656457	0.0170186186839116	-100.313282729738
98000000	0.00728789525432094	-98.6648424425303	-0.0024805958866031	-99.0940964934436	-0.0024805958866031	-99.0940964934436	0.0171969279220946	-98.2362327921899
100000000	0.00736332312982757	-96.6789312925364	-0.00250485975116232	-97.1168555968065	-0.0025048597511651	-97.1168555968064	0.0173734776733936	-96.241666004436
102000000	0.0074380319442513	-94.7706509154506	-0.00252886949248798	-95.2172450833779	-0.00252886949249354	-95.2172450833779	0.0175483203593341	-94.3247303948931
104000000	0.00751204276623341	-92.9355226082395	-0.0025526328084613	-93.3907862924336	-0.00255263280845575	-93.3907862924336	0.0177215061981567	-92.4809472177151
106000000	0.00758537577998097	-91.1694056821661	-0.00257615705588354	-91.6333385760176	-0.00257615705588077	-91.6333385760176	0.0178930833009433	-90.7061757429122
108000000	0.00765805032373335	-89.4684661652045	-0.00259944926851441	-89.941068001455	-0.00259944926853106	-89.941068001455	0.0180630977632434	-88.9965819586692
110000000	0.00773008492770122	-87.8291489187328	-0.00262251617352827	-88.3104194681357	-0.00262251617352549	-88.3104194681356	0.0182315937546002	-87.3486106879443
112000000	0.00780149735030711	-86.2481527417191	-0.00264536420768735	-86.7380918117872	-0.00264536420769013	-86.7380918117873	0.01839861360515	-85.7589606925689
114000000	0.00787230461320731	-84.7224080955166	-0.00266799953339836	-85.2210155293507	-0.00266799953339281	-85.2210155293507	0.0185641978888929	-84.2245623979592
116000000	0.00794252303532861	-83.2490571329878	-0.00269042805313979	-83.7563328081798	-0.00269042805314257	-83.7563328081798	0.0187283855051068	-82.7425579221638
118000000	0.00801216826539775	-81.8254357585628	-0.00271265542413912	-82.3413795861702	-0.00271265542413357	-82.3413795861702	0.0188912137561975	-81.3102831358494
120000000	0.00808125531385762	-80.44905748229	-0.00273468707127911	-80.973669405875	-0.00273468707128188	-80.9736694058751	0.0190527184237232	-79.9252515162839
122000000	0.00814979858331233	-79.1175988620121	-0.00275652819982652	-79.6508788567416	-0.00275652819982097	-79.6508788567416	0.0192129338410119	-78.5851395894498
124000000	0.00821781189749016	-77.8288863543609	-0.00277818380760575	-78.3708344261631	-0.0027781838076002	-78.3708344261631	0.0193718929630243	-77.2877737809812
126000000	0.00828530852962917	-76.5808844180398	-0.00279965869586229	-77.1315006028126	-0.00279965869586229	-77.1315006028126	0.0195296274335705	-76.0311185193907
128000000	0.00835230122941677	-75.3716847324196	-0.00282095747965172	-75.9309690952879	-0.00282095747965172	-75.9309690952879	0.0196861676497684	-74.8132654546168
130000000	0.00841880224857483	-74.1994964113433	-0.00284208459793989	-74.7674490459608	-0.00284208459793434	-74.7674490459609	0.0198415428232346	-73.6324236717806
132000000	0.00848482336542056	-73.0626371065817	-0.00286304432248474	-73.6392581344749	-0.00286304432248752	-73.6392581344749	0.0199957810388146	-72.4869107945995
134000000	0.00855037590865582	-71.9595249079961	-0.00288384076643777	-72.5448144779457	-0.00288384076642667	-72.5448144779457	0.0201489093105855	-71.3751448855088
136000000	0.00861547077916913	-70.8886709583903	-0.00290447789247639	-71.4826292458498	-0.00290447789246806	-71.4826292458498	0.0203009536347776	-70.2956370604781
138000000	0.00868011847149075	-69.8486727105508	-0.00292495952028682	-70.4512999170969	-0.00292495952028127	-70.4512999170969	0.0204519390401781	-69.246984746016
140000000	0.00874432909393486	-68.8382077622529	-0.00294528933350857	-69.4495041150679	-0.00294528933350302	-69.4495041150679	0.0206018896362431	-68.2278655141451
142000000	0.008808112387515	-67.8560282122538	-0.00296547088640409	-68.4759939636354	-0.00296547088639298	-68.4759939636354	0.020750828658242	-67.2370314383655
144000000	0.00887147774406294	-66.9009554866175	-0.0029855076100288	-67.5295909135162	-0.00298550761002325	-67.5295909135162	0.0208987785102727	-66.2733039199527
146000000	0.00893443422340379	-65.9718755902745	-0.00300540281799044	-66.6091809938553	-0.00300540281798767	-66.6091809938552	0.0210457608059628	-65.3355689394918
148000000	0.00899699056928216	-65.0677347435898	-0.00302515971206396	-65.7137104488165	-0.00302515971206119	-65.7137104488165	0.0211917964066333	-64.4227726934214
150000000	0.00905915522486922	-64.1875353680043	-0.0030447813871487	-64.8421817232461	-0.00304478138714592	-64.8421817232462	0.0213369054578499	-63.5339175796544
152000000	0.00912093634710676	-63.3303323886004	-0.00306427083617278	-63.9936497652581	-0.0030642708361589	-63.9936497652581	0.021481107423596	-62.6680585001217
154000000	0.00918234182011313	-62.4952298247783	-0.00308363095485042	-63.1672186169292	-0.00308363095485042	-63.1672186169292	0.0216244211184297	-61.824299451431
156000000	0.00924337926848096	-61.6813776431886	-0.00310286454560937	-62.3620382672488	-0.00310286454560937	-62.3620382672488	0.0217668647384456	-61.0017903777804
158000000	0.00930405606887064	-60.8879688496817	-0.0031219743221067	-61.5773017440851	-0.0031219743221178	-61.5773017440851	0.0219084558895466	-60.1997242628923
160000000	0.00936437936185919	-60.1142367993619	-0.00314096291288701	-60.8122424242543	-0.00314096291288424	-60.8122424242543	0.022049211614994	-59.417334440051
162000000	0.00942435606247627	-59.3594527058955	-0.00315983286496846	-60.0661315428432	-0.00315983286496568	-60.0661315428432	0.0221891484210118	-58.6538921013973
164000000	0.00948399287055424	-58.6229233330658	-0.00317858664749815	-59.3382758847776	-0.00317858664749815	-59.3382758847776	0.0223282823008958	-57.9087039894691
166000000	0.00954329628023165	-57.9039888532022	-0.00319722665493571	-58.6280156432644	-0.00319722665493571	-58.6280156432644	0.0224666287578668	-57.1811102556186
168000000	0.00960227258911539	-57.2020208585799	-0.00321575521020356	-57.9347224312029	-0.00321575521020079	-57.9347224312029	0.0226042028267842	-56.470482471399
170000000	0.00966092790666562	-56.5164205131903	-0.00323417456776776	-57.2577974329666	-0.00323417456777053	-57.2577974329666	0.0227410190942634	-55.7762217803243
172000000	0.00971926816247248	-55.8466168334578	-0.00325248691631641	-56.5966696851308	-0.00325248691630808	-56.5966696851308	0.0228770917181265	-55.0977571785754
