!Generated from: C:\Users\nkfzm\OneDrive - University of Missouri\Desktop\Research\PowerSI\Board 2.1 - GPGGGG\attempt 2.spd
! Port1_cap_port1_1::pwr
! Port2_cap_port2_1::pwr
! Port3_cap_port3_1::pwr
! Port4_cap_port4_1::pwr
! Port5_ic_port_1::pwr
!
!Layout Workbench Version: 24.1.0.10141.541387   000
!Computer Host Name: RS29JQCX3
!
!TouchstoneFormatFlag = 1
! GNDNET grd
! NETSLIST 
!
#	Hz	Z	RI	R	1
100000	0.0111776921616846	-20251.0289436547	0.0105689452235047	-20251.0291786367	0.00995491080293676	-20251.029416741	0.00991861293186957	-20251.0294301434
				0.00994357752466674	-20251.0294206817
			0.0105689452235033	-20251.0291786367	0.0110809380880469	-20251.0289800713	0.00995899983730064	-20251.0294150962	0.00993219340934826	-20251.0294250031
				0.00997291548211765	-20251.0294099338
			0.00995491080293259	-20251.029416741	0.00995899983730064	-20251.0294150962	0.0150676747517536	-20251.0274294499	0.0121708220409869	-20251.0285796456
				0.010223651326835	-20251.0293118976
			0.0099186129318668	-20251.0294301434	0.00993219340934687	-20251.0294250031	0.0121708220409911	-20251.0285796456	0.0155607476947123	-20251.0272813152
				0.0104629823834246	-20251.0292176381
			0.00994357752467229	-20251.0294206817	0.00997291548212459	-20251.0294099338	0.0102236513268433	-20251.0293118976	0.0104629823834315	-20251.0292176381
				0.0114647273636762	-20251.0288409014
133352.143216332	-1.95199184425688	-15183.4283863762	-1.9538013264509	-15183.4272872014	-1.96204829550014	-15183.4215698252	-1.9620332085972	-15183.4186023808
				-1.95173621446027	-15183.4299717337
			-1.95380132645089	-15183.4272872014	-1.95451174930967	-15183.4256081996	-1.96325291308062	-15183.4201541889	-1.96322759181638	-15183.417182331
				-1.95291962534928	-15183.4285477632
			-1.96204829550014	-15183.4215698252	-1.96325291308062	-15183.4201541889	-1.96572336945388	-15183.4114738468	-1.96856572225569	-15183.4100426257
				-1.96027238989319	-15183.4223852996
			-1.9620332085972	-15183.4186023807	-1.96322759181639	-15183.417182331	-1.9685657222557	-15183.4100426257	-1.96508539620059	-15183.4053076301
				-1.95996831901177	-15183.4192745279
			-1.95173621446027	-15183.4299717337	-1.95291962534928	-15183.4285477632	-1.96027238989319	-15183.4223852996	-1.95996831901177	-15183.4192745279
				-1.94870803136668	-15183.4301623541
177827.941003892	0.00362250898706951	-11387.9869861136	0.00300801128209904	-11387.9874031948	0.00238011935015103	-11387.9878254689	0.00234201755258817	-11387.9878491891
				0.00236666220697901	-11387.987832384
			0.00300801128209349	-11387.9874031948	0.00352246518649929	-11387.9870506113	0.00238454644317515	-11387.9878225616	0.002356276444411	-11387.9878400942
				0.00239699926348896	-11387.9878133556
			0.00238011935014826	-11387.9878254689	0.00238454644317793	-11387.9878225616	0.00755966696733279	-11387.9842991084	0.00463830568869367	-11387.9863414612
				0.00265844749365723	-11387.9876396436
			0.00234201755259095	-11387.9878491891	0.00235627644442071	-11387.9878400942	0.00463830568870061	-11387.9863414612	0.00808032493670036	-11387.9840384653
				0.00290443769040971	-11387.9874724208
			0.00236666220697623	-11387.987832384	0.00239699926349035	-11387.9878133556	0.00265844749365862	-11387.9876396436	0.00290443769040277	-11387.9874724208
				0.0039183624387984	-11387.9868042161
237137.370566166	0.00131690214790064	-8539.78466502837	0.000696075757805614	-8539.78522008739	5.26074486056904e-05	-8539.78578149795	1.24629019354616e-05	-8539.78581295677
				3.67389619518321e-05	-8539.78579058308
			0.000696075757807002	-8539.78522008738	0.00121315314378506	-8539.78475064476	5.74211402148972e-05	-8539.78577765056	2.748982011469e-05	-8539.78580089901
				6.81976290370367e-05	-8539.78576533309
			5.26074486043027e-05	-8539.78578149795	5.74211402135094e-05	-8539.78577765056	0.00530629435108593	-8539.78109007121	0.00235786459457654	-8539.78380924694
				0.000341794065451817	-8539.78553463871
			1.24629019382372e-05	-8539.78581295677	2.74898201202411e-05	-8539.78580089901	0.00235786459458348	-8539.78380924693	0.00585778388034752	-8539.78074658826
				0.000595330494428115	-8539.7853122496
			3.67389619476688e-05	-8539.78579058308	6.8197629035649e-05	-8539.78576533309	0.000341794065451817	-8539.78553463871	0.000595330494419788	-8539.7853122496
				0.00162262435876026	-8539.78442367357
316227.766016838	1.5926514888683	-6405.51337620372	1.59206440348119	-6405.51407718834	1.59793459462003	-6405.51086309122	1.59448994119148	-6405.51210798468
				1.59457207118311	-6405.51007169926
			1.59206440348119	-6405.51407718834	1.5926168092677	-6405.51340528408	1.59797409737605	-6405.51081581993	1.59453964482976	-6405.51204954183
				1.5946384511692	-6405.50999563192
			1.59793459462003	-6405.51086309122	1.59797409737604	-6405.51081581994	1.60974431313123	-6405.50053506571	1.60339002755399	-6405.50541769367
				1.60140355967391	-6405.50571380819
			1.59448994119148	-6405.51210798468	1.59453964482976	-6405.51204954183	1.60339002755399	-6405.50541769367	1.60348715873639	-6405.50251849797
				1.59826154552817	-6405.50661164371
			1.59457207118311	-6405.51007169926	1.5946384511692	-6405.50999563193	1.60140355967391	-6405.50571380819	1.59826154552816	-6405.50661164371
				1.59936110877083	-6405.50342886149
421696.503428582	-0.117715986349239	-4802.21426110301	-0.118346986811181	-4802.2152367661	-0.119026089134996	-4802.21627524919	-0.119019431127158	-4802.21673228604
				-0.119491960319519	-4802.21732549455
			-0.118346986811181	-4802.2152367661	-0.117819604770653	-4802.21439623818	-0.119021251099929	-4802.21625929631	-0.119004355131494	-4802.21670163073
				-0.119460058844573	-4802.21727142114
			-0.119026089134998	-4802.21627524919	-0.119021251099931	-4802.21625929631	-0.113738185306561	-4802.20796298437	-0.116682114864843	-4802.21318971235
				-0.119216878999098	-4802.21689784109
			-0.119019431127157	-4802.21673228604	-0.119004355131493	-4802.21670163073	-0.116682114864838	-4802.21318971235	-0.113092217544736	-4802.20814393474
				-0.118914985065378	-4802.21689888548
			-0.119491960319529	-4802.21732549455	-0.11946005884458	-4802.21727142114	-0.119216878999105	-4802.21689784109	-0.118914985065387	-4802.21689888548
				-0.118376003354997	-4802.21595101453
562341.325190349	0.00111186307896749	-3601.19573222418	0.000468688939606055	-3601.19703712117	-0.000182028691082803	-3601.19837129876	-0.000221380379157587	-3601.19844730545
				-0.00019480445686143	-3601.19839583468
			0.000468688939603279	-3601.19703712117	0.0010077042044157	-3601.195936871	-0.000177639415337161	-3601.19836172378	-0.000206670761425387	-3601.19841815049
				-0.000162988130286701	-3601.1983356099
			-0.000182028691084191	-3601.19837129876	-0.000177639415337161	-3601.19836172378	0.00521621571846625	-3601.18729976319	0.00217291071978321	-3601.19369729557
				0.000103947480453725	-3601.19777899595
			-0.000221380379157587	-3601.19844730545	-0.000206670761421224	-3601.19841815049	0.00217291071978737	-3601.19369729558	0.00576745576297139	-3601.18646414487
				0.000356485973190823	-3601.19724806777
			-0.000194804456860043	-3601.19839583468	-0.000162988130283925	-3601.1983356099	0.000103947480456501	-3601.19777899595	0.000356485973189435	-3601.19724806777
				0.0014196487596152	-3601.19515522859
749894.209332456	0.000548323150932617	-2700.5165812357	-0.000108964687534074	-2700.51831264424	-0.000765172130839931	-2700.52009980623	-0.000802547691990119	-2700.52018177733
				-0.000738280667417213	-2700.52004490115
			-0.000108964687527136	-2700.51831264424	0.000444190517033538	-2700.51685810796	-0.000760892071628716	-2700.52008863374	-0.000787861481482688	-2700.52014450629
				-0.000706076015588586	-2700.5199664886
			-0.000765172130830216	-2700.52009980623	-0.000760892071623165	-2700.52008863373	0.00472548753392282	-2700.50541138011	0.00162308676168454	-2700.51387766849
				-0.00044491571590255	-2700.51922885345
			-0.000802547691987343	-2700.52018177733	-0.000787861481485463	-2700.52014450629	0.00162308676167483	-2700.51387766849	0.00528038871730058	-2700.50425284297
				-0.000191642557260951	-2700.51849951442
			-0.000738280667413049	-2700.52004490115	-0.000706076015589974	-2700.5199664886	-0.000444915715909489	-2700.51922885345	-0.000191642557259564	-2700.51849951442
				0.000931863994529936	-2700.51565606106
1000000	0.000101353995027309	-2025.09928557052	-0.000573105997657419	-2025.10157954124	-0.00123315778864513	-2025.10395260649	-0.00127154973924293	-2025.10408026165
				-0.00122269358499849	-2025.10395272946
			-0.00057310599765048	-2025.10157954124	-3.76461603418532e-06	-2025.09965243099	-0.00122942489611394	-2025.10393617274	-0.00125730977146715	-2025.10402905606
				-0.0011904044393593	-2025.10384707634
			-0.00123315778864097	-2025.10395260649	-0.00122942489611533	-2025.10393617274	0.00437173469176044	-2025.08444142273	0.00119619639221691	-2025.09569169172
				-0.000931134084541929	-2025.10285072621
			-0.0012715497392457	-2025.10408026165	-0.00125730977147964	-2025.10402905606	0.00119619639220719	-2025.09569169172	0.00492575666815182	-2025.08292926717
				-0.000679822391574936	-2025.10189414549
			-0.00122269358499155	-2025.10395272946	-0.00119040443936208	-2025.10384707634	-0.000931134084541929	-2025.10285072621	-0.000679822391565221	-2025.10189414549
				0.000454151084364196	-2025.0981773967
1500000	0.00110802872639731	-1350.06272360452	0.000403742568197418	-1350.06613553452	-0.000270614795981616	-1350.06967944097	-0.000308266270816759	-1350.06988582138
				-0.000275913565954411	-1350.06975616598
			0.000403742568205745	-1350.06613553452	0.00100178449777832	-1350.06326998722	-0.000267291238023604	-1350.06965230767	-0.000294229085584519	-1350.06980663077
				-0.000242874770098322	-1350.0695961453
			-0.000270614795983004	-1350.06967944097	-0.000267291238030543	-1350.06965230767	0.00553616525460071	-1350.04057347745	0.00223302185361485	-1350.05734891951
				9.50089695944678e-06	-1350.06808313122
			-0.000308266270815372	-1350.06988582138	-0.000294229085594233	-1350.06980663077	0.00223302185361346	-1350.05734891951	0.00609651382714321	-1350.03833083449
				0.000261191305087061	-1350.06665926449
			-0.000275913565957187	-1350.06975616598	-0.000242874770106649	-1350.0695961453	9.500896958059e-06	-1350.06808313122	0.000261191305085673	-1350.06665926449
				0.0014246510998156	-1350.0611863864
2000000	0.00130503757903855	-1012.5438405751	0.000573292955075022	-1012.54836615487	-0.000115719759236077	-1012.55308354	-0.000152858345556228	-1012.5533606824
				-0.00012124486859777	-1012.55319572235
			0.000573292955077798	-1012.54836615487	0.00119739605590058	-1012.54456829767	-0.00011265721903686	-1012.55304663673	-0.000138849461164825	-1012.55325448222
				-8.73792544459073e-05	-1012.5529824816
			-0.000115719759234689	-1012.55308354	-0.000112657219038248	-1012.55304663673	0.00588346305382681	-1012.51442486995	0.00246114465286967	-1012.53669487217
				0.00016110604206393	-1012.55095639017
			-0.000152858345563167	-1012.5533606824	-0.000138849461177315	-1012.55325448222	0.00246114465286135	-1012.53669487217	0.00645231084082931	-1012.51143704024
				0.000414629137202027	-1012.54905716731
			-0.000121244868590831	-1012.55319572235	-8.7379254441744e-05	-1012.5529824816	0.000161106042070869	-1012.55095639017	0.000414629137215905	-1012.54905716731
				0.00162038055577934	-1012.54180364886
2500000	0.00125630091595413	-810.031794787462	0.000497645900100763	-810.037430918854	-0.000206296386687232	-810.043321529208	-0.00024347160476057	-810.043667992532
				-0.000208450425627504	-810.043459726611
			0.000497645900096599	-810.037430918855	0.0011466475061131	-810.032704338788	-0.000203559398086195	-810.043275147027	-0.000229528014457359	-810.043535106243
				-0.000173839476265425	-810.043193701311
			-0.000206296386691396	-810.043321529208	-0.000203559398084807	-810.043275147027	0.00598614709382411	-809.99513572023	0.00244596024894655	-810.022884072945
				7.36268068388113e-05	-810.04065531688
			-0.000243471604777223	-810.043667992532	-0.000229528014469849	-810.043535106243	0.00244596024893545	-810.022884072945	0.00656472636009348	-809.991400863345
				0.000329836650148074	-810.038279419467
			-0.000208450425641382	-810.043459726611	-0.000173839476273752	-810.043193701311	7.36268068318724e-05	-810.04065531688	0.000329836650152238	-810.038279419467
				0.00158129593364614	-810.029242832147
3000000	0.00121979909725456	-675.023151894049	0.000434132789532693	-675.029895971071	-0.00028613742379946	-675.036958473516	-0.000323591768831843	-675.037374247477
				-0.000284926804705599	-675.037122884463
			0.000434132789532693	-675.029895971071	0.0011077371788154	-675.024243099923	-0.000283707933215749	-675.036902591733	-0.000309670407860896	-675.037214681582
				-0.000249540702530748	-675.036804163911
			-0.000286137423802235	-675.036958473516	-0.000283707933218524	-675.036902591733	0.00610421258646493	-674.979264370701	0.00244467822347189	-675.012479684391
				-1.39464381709864e-06	-675.033753434839
			-0.000323591768831843	-675.037374247477	-0.000309670407859508	-675.037214681582	0.00244467822347189	-675.012479684391	0.00669418221835444	-674.974783535115
				0.000258479845791082	-675.030901107988
			-0.000284926804706986	-675.037122884463	-0.000249540702532136	-675.036804163912	-1.39464381571086e-06	-675.033753434839	0.000258479845791082	-675.030901107988
				0.00155614211121424	-675.020085844802
3500000	0.00123193804922039	-578.587893039176	0.000418861780586421	-578.595742764703	-0.000319555796028659	-578.603975468796	-0.000357409458752456	-578.604460802531
				-0.000315991232086033	-578.604168121177
			0.000418861780603075	-578.595742764703	0.00111722727837438	-578.589165557577	-0.000317357065295065	-578.603909998666	-0.000343410718921244	-578.60427449339
				-0.000279726470056585	-578.603796709355
			-0.000319555796003679	-578.603975468796	-0.000317357065285351	-578.603909998666	0.00627521946808679	-578.536789213602	0.00249348567926549	-578.575461914771
				-2.97344453170645e-05	-578.600233479275
			-0.000357409458751068	-578.604460802531	-0.000343410718933734	-578.60427449339	0.00249348567924607	-578.575461914771	0.00687832782325648	-578.531564046695
				0.000234779226930548	-578.596905326969
			-0.000315991232080481	-578.604168121178	-0.000279726470070463	-578.603796709355	-2.97344453378812e-05	-578.600233479275	0.00023477922692916	-578.596905326969
				0.00157851463245678	-578.584316691058
4000000	0.00127838914627254	-506.261006615056	0.000437347294689194	-506.269959889578	-0.000321025689616061	-506.279361001219	-0.000359387788644028	-506.2799161181
				-0.000316225875590659	-506.279583586482
			0.000437347294686419	-506.269959889578	0.00116084566477992	-506.262460111587	-0.000318968873583292	-506.279285871343	-0.000345201412217666	-506.2797030188
				-0.000278959512484134	-506.279159496449
			-0.000321025689623	-506.279361001219	-0.00031896887358468	-506.279285871343	0.00648559556907097	-506.202697722208	0.00257813357916747	-506.246818931748
				-2.61208158255921e-05	-506.275083724332
			-0.000359387788659293	-506.2799161181	-0.000345201412230156	-506.2797030188	0.00257813357915637	-506.246818931748	0.00710347058341665	-506.196729914676
				0.00024392151931063	-506.271280409374
			-0.000316225875594822	-506.279583586482	-0.000278959512484134	-506.279159496449	-2.61208158214288e-05	-506.275083724332	0.00024392151932312	-506.271280409374
				0.00163373693596869	-506.256923079638
4500000	0.00134107632360908	-450.006371048428	0.000471434946915095	-450.016425891398	-0.000308518249171608	-450.026993617506	-0.000347519412248476	-450.027618644313
				-0.000303372283057268	-450.02724707459
			0.000471434946908156	-450.016425891398	0.0012205166854351	-450.008005235207	-0.000306528942392581	-450.026908791496	-0.000333050643006039	-450.027378743129
				-0.000264993313631168	-450.026770351047
			-0.000308518249193812	-450.026993617506	-0.000306528942405071	-450.026908791496	0.00671763784115403	-449.940868175367	0.00268066634549896	-449.990429233317
				-8.342096842473e-06	-450.022182171776
			-0.000347519412251251	-450.027618644313	-0.000333050643000488	-450.027378743129	0.00268066634551561	-449.990429233317	0.00735172537924406	-449.934159319592
				0.000268013869730854	-450.017904334867
			-0.000303372283054493	-450.02724707459	-0.000264993313621453	-450.026770351047	-8.34209681749298e-06	-450.022182171776	0.000268013869737793	-450.017904334867
				0.00170427720392469	-450.001782195907
5000000	0.00140745406960463	-405.002310841332	0.000508555535683186	-405.01346533816	-0.000294378030180065	-405.025197933308	-0.000334166706179861	-405.025892891668
				-0.000289438535019948	-405.025482546047
			0.000508555535673472	-405.01346533816	0.001283674994422	-405.004125468707	-0.000292405800861317	-405.025103404008	-0.000319345709842711	-405.025626206716
				-0.000249860750994868	-405.024953262043
			-0.000294378030177289	-405.025197933308	-0.000292405800851603	-405.025103404008	0.00695882515144852	-404.929625235453	0.00278859416359828	-404.984617498242
				1.15555081489638e-05	-405.019852989959
			-0.000334166706170147	-405.025892891668	-0.000319345709826058	-405.025626206717	0.00278859416360522	-404.984617498242	0.00761039575968292	-404.922176800943
				0.000294913894509363	-405.015101231429
			-0.000289438535010234	-405.025482546047	-0.000249860750978215	-405.024953262044	1.15555081531271e-05	-405.019852989959	0.000294913894506588	-405.015101231429
				0.00177836082878302	-404.997217568132
5500000	0.00147055892154718	-368.180485801396	0.000541763640235504	-368.19273807114	-0.00028533951357268	-368.20563385528	-0.000326066545658366	-368.206398674781
				-0.000280825050473499	-368.205949465342
			0.000541763640221626	-368.19273807114	0.00134333808970988	-368.182480638766	-0.00028335731759449	-368.205529633531	-0.000310847898192523	-368.206105242985
				-0.000239988815896319	-368.205367712003
			-0.00028533951357268	-368.20563385528	-0.000283357317586164	-368.205529633531	0.00720193267040731	-368.100628955438	0.00289491902373956	-368.161043726209
				2.71130489323812e-05	-368.199755820775
			-0.000326066545665304	-368.206398674781	-0.000310847898186972	-368.206105242985	0.00289491902373817	-368.161043726209	0.00787211046077846	-368.092442303403
				0.000318082822532706	-368.194530703251
			-0.000280825050472111	-368.205949465342	-0.000239988815883829	-368.205367712003	2.71130489379323e-05	-368.199755820775	0.000318082822541033	-368.194530703251
				0.00184973140251593	-368.174888441149
6000000	0.00152738815199921	-337.495335402445	0.000568106900830645	-337.508683581522	-0.000284176197602737	-337.522740940835	-0.000325979264462206	-337.523575480301
				-0.000280026226949504	-337.523087148774
			0.000568106900820931	-337.508683581522	0.00139649519876606	-337.49751022178	-0.000282174821289449	-337.522627045567	-0.000310336570058523	-337.523255347518
				-0.000237894500303149	-337.522453025363
			-0.000284176197618002	-337.522740940835	-0.000282174821293613	-337.522627045567	0.00744348143671275	-337.408319025329	0.00299652146341228	-337.474147554786
				3.5753950872186e-05	-337.516330117471
			-0.000325979264484411	-337.523575480301	-0.000310336570065461	-337.523255347518	0.00299652146340673	-337.474147554786	0.00813327348210269	-337.399395437212
				0.000334879745395034	-337.510632176047
			-0.000280026226971708	-337.523087148774	-0.000237894500310087	-337.522453025362	3.57539508666349e-05	-337.516330117471	0.000334879745397809	-337.510632176047
				0.00191591203195784	-337.489234073305
6500000	0.00157739397623619	-311.5307024456	0.000587111980258903	-311.545144683279	-0.000291215974640435	-311.560362061015	-0.000334208652313928	-311.561266131969
				-0.000287167293672175	-311.56073837999
			0.000587111980251964	-311.545144683279	0.00144260461532736	-311.533057011759	-0.000289196894183441	-311.560238512735	-0.000318127614734598	-311.560919346379
				-0.000243719351702976	-311.560051986778
			-0.00029121597463766	-311.560362061015	-0.000289196894179278	-311.560238512735	0.00768230027163308	-311.436538375346	0.00309267454017409	-311.507771900315
