!Generated from: C:\Users\nkfzm\OneDrive - University of Missouri\Desktop\Research\Code\PDN\input files\board 2\b2.spd
! Port1_ic_port_1::pwr
! Port2_decap_port1_1::pwr
! Port3_decap_port2_1::pwr
! Port4_decap_port3_1::pwr
! Port5_decap_port4_1::pwr
!
!Layout Workbench Version: 24.1.0.10141.541387   000
!Computer Host Name: RS29JQCX3
!
!TouchstoneFormatFlag = 1
! GNDNET gnd
! NETSLIST 
!
#	Hz	Z	RI	R	1
100000	0.0114647343398791	-20251.0288409013	0.00994358450092797	-20251.0294206817	0.00997292245832754	-20251.0294099338	0.0102236583030282	-20251.0293118976
				0.0104629893596192	-20251.0292176381
			0.00994358450092936	-20251.0294206817	0.0111776991380055	-20251.0289436546	0.0105689521997798	-20251.0291786366	0.00995491777918828	-20251.029416741
				0.00991861990812248	-20251.0294301434
			0.00997292245832615	-20251.0294099338	0.010568952199777	-20251.0291786366	0.0110809450642679	-20251.0289800712	0.00995900681350081	-20251.0294150962
				0.00993220038554704	-20251.029425003
			0.0102236583030393	-20251.0293118976	0.00995491777919799	-20251.029416741	0.0099590068135133	-20251.0294150962	0.0150676817279469	-20251.0274294499
				0.0121708290171843	-20251.0285796456
			0.010462989359615	-20251.0292176381	0.0099186199081211	-20251.0294301434	0.00993220038555259	-20251.029425003	0.012170829017176	-20251.0285796456
				0.0155607546708972	-20251.0272813152
133352.143216332	4.51297636080469	-15184.1289839684	4.51597045861626	-15184.1277472706	4.51571887863317	-15184.1287320457	4.51681805898045	-15184.135692556
				4.51676552103638	-15184.1375521633
			4.51597045861626	-15184.1277472706	4.52193287010732	-15184.1250602706	4.52101389320012	-15184.1263676791	4.52114410624853	-15184.1338072414
				4.5207799571451	-15184.1358202295
			4.51571887863317	-15184.1287320457	4.52101389320012	-15184.1263676791	4.52124499091427	-15184.127108734	4.52086098117126	-15184.1348028511
				4.52050691209236	-15184.1368105535
			4.51681805898045	-15184.135692556	4.52114410624853	-15184.1338072414	4.52086098117125	-15184.1348028511	4.52697225943338	-15184.1392679043
				4.52370074592109	-15184.1427868458
			4.51676552103639	-15184.1375521633	4.5207799571451	-15184.1358202295	4.52050691209236	-15184.1368105535	4.5237007459211	-15184.1427868458
				4.52693848475707	-15184.1430368047
177827.941003892	0.00391836490410136	-11387.986804216	0.00236666467225699	-11387.987832384	0.00239700172877805	-11387.9878133556	0.00265844995896158	-11387.9876396436
				0.00290444015571129	-11387.9874724208
			0.00236666467225699	-11387.987832384	0.00362251145233361	-11387.9869861136	0.0030080137473687	-11387.9874031948	0.00238012181543318	-11387.9878254689
				0.00234202001787864	-11387.9878491891
			0.00239700172877388	-11387.9878133556	0.00300801374736454	-11387.9874031948	0.00352246765177588	-11387.9870506113	0.00238454890846562	-11387.9878225616
				0.00235627890970563	-11387.9878400942
			0.00265844995896436	-11387.9876396436	0.00238012181543734	-11387.9878254689	0.00238454890847256	-11387.9878225616	0.00755966943264269	-11387.9842991084
				0.00463830815400912	-11387.9863414612
			0.00290444015570851	-11387.9874724208	0.00234202001787587	-11387.9878491891	0.00235627890970841	-11387.9878400942	0.00463830815400357	-11387.9863414612
				0.00808032740201026	-11387.9840384653
237137.370566166	0.00162262376896122	-8539.7844236736	3.67383720459302e-05	-8539.78579058312	6.81970391713804e-05	-8539.78576533312	0.000341793475576446	-8539.78553463874
				0.000595329904562458	-8539.78531224964
			3.67383720417669e-05	-8539.78579058312	0.0013169015578976	-8539.7846650284	0.000696075167834487	-8539.78522008742	5.26068586220729e-05	-8539.78578149799
				1.2462311971273e-05	-8539.7858129568
			6.8197039161666e-05	-8539.78576533312	0.000696075167830323	-8539.78522008742	0.00121315255384308	-8539.7847506448	5.7420550260423e-05	-8539.78577765059
				2.74892301796448e-05	-8539.78580089905
			0.000341793475581997	-8539.78553463875	5.26068586345629e-05	-8539.78578149799	5.74205502743008e-05	-8539.7857776506	0.00530629376113978	-8539.78109007124
				0.00235786400464566	-8539.78380924697
			0.000595329904563846	-8539.78531224964	1.24623119754363e-05	-8539.7858129568	2.74892301865837e-05	-8539.78580089905	0.00235786400464011	-8539.78380924697
				0.00585778329042219	-8539.78074658829
316227.766016838	0.000797002362298849	-6403.93361403338	-0.000797404813357439	-6403.93543798484	-0.000765781097808449	-6403.93540422717	-0.000492370248816876	-6403.93509506947
				-0.000238303766704473	-6403.93479790809
			-0.000797404813358826	-6403.93543798484	0.000490110558565293	-6403.93393695517	-0.000135657055617966	-6403.93467591166	-0.000781917911230057	-6403.93542543841
				-0.000822094352002922	-6403.9354676241
			-0.000765781097811224	-6403.93540422717	-0.00013565705561519	-6403.93467591166	0.000385966202337551	-6403.9340514639	-0.000777152563954941	-6403.93542023849
				-0.000807061421953525	-6403.93545145038
			-0.0004923702488141	-6403.93509506947	-0.000781917911223118	-6403.93542543841	-0.000777152563950778	-6403.93542023849	0.00450635788745157	-6403.92917317513
				0.00153670310339277	-6403.93279339563
			-0.000238303766703085	-6403.93479790809	-0.000822094351997371	-6403.9354676241	-0.00080706142195075	-6403.93545145038	0.00153670310339138	-6403.93279339563
				0.00505998662885809	-6403.92871064635
421696.503428582	0.00334787409579512	-4802.2687305686	0.00173641063929975	-4802.27115341776	0.00176867373875012	-4802.27110797912	0.00205622204618172	-4802.27070217588
				0.0023145560847565	-4802.27030372528
			0.0017364106393053	-4802.27115341776	0.00302264554005033	-4802.2691436262	0.00239023740179062	-4802.27012602839	0.00175913969185648	-4802.27113509045
				0.00172423178410597	-4802.27119038566
			0.0017686737387515	-4802.27110797912	0.00239023740178507	-4802.27012602839	0.00291966428453694	-4802.26929609663	0.0017643178944704	-4802.27112772606
				0.0017396924755414	-4802.27116836592
			0.00205622204620115	-4802.27070217588	0.00175913969187036	-4802.27113509045	0.00176431789449261	-4802.27112772606	0.00710960098749824	-4802.26281892902
				0.00411457955331734	-4802.26763284842
			0.00231455608476483	-4802.27030372528	0.00172423178411013	-4802.27119038566	0.00173969247554973	-4802.27116836592	0.00411457955330624	-4802.26763284842
				0.00767166226543214	-4802.26219413152
562341.325190349	0.0014196489623558	-3601.19515522858	-0.000194804254116665	-3601.19839583468	-0.000162987927540548	-3601.19833560989	0.000103947683198491	-3601.19777899594
				0.000356486175925874	-3601.19724806776
			-0.000194804254115277	-3601.19839583468	0.00111186328171919	-3601.19573222417	0.000468689142359147	-3601.19703712117	-0.000182028488332486	-3601.19837129876
				-0.000221380176408659	-3601.19844730545
			-0.000162987927541935	-3601.1983356099	0.000468689142353595	-3601.19703712117	0.00100770440716325	-3601.195936871	-0.000177639212591008	-3601.19836172378
				-0.000206670558676458	-3601.19841815049
			0.00010394768320543	-3601.19777899594	-0.000182028488328323	-3601.19837129875	-0.000177639212578518	-3601.19836172378	0.00521621592121796	-3601.18729976319
				0.0021729109225363	-3601.19369729557
			0.000356486175930038	-3601.19724806776	-0.000221380176408659	-3601.19844730545	-0.000206670558672295	-3601.19841815049	0.00217291092253075	-3601.19369729557
				0.00576745596571893	-3601.18646414487
749894.209332456	-0.00125376976880254	-2700.51334310731	-0.00289849225889177	-2700.5176693195	-0.00286723495564051	-2700.51758891707	-0.00259970419695249	-2700.51682156589
				-0.00235292113314467	-2700.51610677912
			-0.002898492258889	-2700.5176693195	-0.00158758851903779	-2700.51413921154	-0.00224520587353283	-2700.51586997605	-0.00289589002345769	-2700.51762749455
				-0.00293989068034933	-2700.51772421817
			-0.00286723495563773	-2700.51758891707	-0.00224520587353005	-2700.51586997605	-0.00169361121697825	-2700.51441218736	-0.00289253392514316	-2700.51761435166
				-0.00292611974993529	-2700.51768496687
			-0.00259970419695943	-2700.51682156589	-0.00289589002346463	-2700.51762749455	-0.00289253392515565	-2700.51761435166	0.00259648311402294	-2700.50289859793
				-0.000510227917192851	-2700.51138469001
			-0.00235292113315022	-2700.51610677912	-0.00293989068035211	-2700.51772421817	-0.00292611974994361	-2700.51768496687	-0.000510227917190076	-2700.51138469001
				0.00313854788950019	-2700.50176908224
1000000	0.000185482982975604	-2025.09630642388	-0.00148674396524134	-2025.10204235986	-0.00145510781975611	-2025.10193494468	-0.00118321060731813	-2025.10092282768
				-0.000932258704369748	-2025.09996761258
			-0.00148674396523579	-2025.10204235986	-0.00015793776901446	-2025.09733243401	-0.000832957263655065	-2025.09962602759	-0.00148114807677763	-2025.10198324891
				-0.00152008838933126	-2025.10211230569
			-0.00145510781975056	-2025.10193494468	-0.000832957263655065	-2025.09962602759	-0.000264374184830163	-2025.09769583277	-0.00147803143538405	-2025.10196508664
				-0.00150645661540771	-2025.10205938971
			-0.00118321060731813	-2025.10092282768	-0.00148114807678318	-2025.10198324891	-0.00147803143539099	-2025.10196508664	0.00413467599169881	-2025.08244624245
				0.00095948896768755	-2025.0937028089
			-0.000932258704365585	-2025.09996761258	-0.00152008838933404	-2025.10211230569	-0.0015064566154091	-2025.10205938971	0.000959488967693101	-2025.0937028089
				0.00468839189888409	-2025.08093670322
1500000	0.00142465113965873	-1350.0611863864	-0.000275913526108507	-1350.06975616598	-0.000242874730267684	-1350.06959614529	9.5009368011878e-06	-1350.06808313122
				0.000261191344927414	-1350.06665926449
			-0.000275913526111282	-1350.06975616598	0.00110802876624183	-1350.06272360452	0.000403742608046098	-1350.06613553452	-0.000270614756134324	-1350.06967944097
				-0.000308266230968079	-1350.06988582138
			-0.000242874730267684	-1350.06959614529	0.000403742608050262	-1350.06613553452	0.00100178453762423	-1350.06326998722	-0.000267291198174924	-1350.06965230767
				-0.00029422904574139	-1350.06980663077
			9.50093677204444e-06	-1350.06808313122	-0.00027061475616208	-1350.06967944097	-0.00026729119820823	-1350.06965230767	0.00553616529442441	-1350.04057347745
				0.00223302189343577	-1350.05734891951
			0.000261191344932965	-1350.06665926449	-0.000308266230959753	-1350.06988582138	-0.000294229045737227	-1350.06980663077	0.00223302189347324	-1350.05734891951
				0.00609651386700022	-1350.03833083449
2000000	0.00132662859764487	-1012.54190389793	-0.000418925885464771	-1012.55330309585	-0.000385274331379803	-1012.55309025196	-0.000137484315247682	-1012.55106309281
				0.000114485037383538	-1012.54916248657
			-0.000418925885478649	-1012.55330309585	0.0010029026821623	-1012.54395564826	0.000271175914579036	-1012.54848137816	-0.000418342938039717	-1012.55319781592
				-0.000457102759211792	-1012.55347361987
			-0.000385274331395069	-1012.55309025196	0.000271175914577648	-1012.54848137816	0.000894852457553053	-1012.54468413099	-0.000415474762067991	-1012.55316127857
				-0.000443276423751915	-1012.55336778848
			-0.000137484315257397	-1012.55106309281	-0.000418342938035554	-1012.55319781592	-0.000415474762061052	-1012.55316127857	0.00557858998642136	-1012.51454022326
				0.00215545594690475	-1012.53680772104
			0.000114485037383538	-1012.54916248657	-0.000457102759200689	-1012.55347361987	-0.000443276423738037	-1012.55336778848	0.00215545594691169	-1012.53680772104
				0.00614424025890126	-1012.51154950654
2500000	0.00144874858735156	-810.029239178469	-0.0003434194810914	-810.043459099187	-0.000308956308422981	-810.043193247512	-6.12406153066569e-05	-810.040654457172
				0.000194488611522659	-810.038277654909
			-0.0003434194810914	-810.043459099187	0.0011185857401258	-810.03179745865	0.00035992396725526	-810.037433652413	-0.00034366153052745	-810.043323944161
				-0.000381368078759825	-810.043669503897
			-0.000308956308427144	-810.043193247512	0.000359923967249709	-810.037433652413	0.00100865238313597	-810.032707342019	-0.000341055707984983	-810.04327772443
				-0.000367550525544325	-810.043536783336
			-6.12406152983302e-05	-810.040654457172	-0.000343661530524675	-810.043323944161	-0.000341055707973881	-810.043277724431	0.00584801165328386	-809.995138703761
				0.00230784965084552	-810.022885617531
			0.000194488611512944	-810.038277654909	-0.000381368078769539	-810.043669503897	-0.000367550525549876	-810.043536783336	0.00230784965082886	-810.022885617531
				0.0064256032747248	-809.991401969671
3000000	0.00155614210978483	-675.020085844802	-0.000284926806143337	-675.037122884463	-0.000249540703968487	-675.036804163911	-1.39464524512301e-06	-675.033753434839
				0.000258479844363058	-675.030901107988
			-0.000284926806157215	-675.037122884463	0.00121979909581127	-675.023151894048	0.000434132788086627	-675.029895971071	-0.000286137425245525	-675.036958473516
				-0.000323591770276521	-675.037374247477
			-0.000249540703967099	-675.036804163911	0.000434132788099117	-675.029895971071	0.00110773717738044	-675.024243099923	-0.000283707934649324	-675.036902591733
				-0.000309670409290308	-675.037214681582
			-1.39464525344968e-06	-675.033753434839	-0.00028613742524275	-675.036958473516	-0.000283707934657651	-675.036902591733	0.0061042125850258	-674.979264370701
				0.00244467822202998	-675.012479684391
			0.000258479844365833	-675.030901107988	-0.000323591770261256	-675.037374247477	-0.000309670409290308	-675.037214681582	0.00244467822204109	-675.012479684391
				0.0066941822169278	-674.974783535115
3500000	0.00161352042594293	-578.584332093071	-0.000279861573820872	-578.604182544229	-0.000243524046421306	-578.60381107884	6.22296900953945e-06	-578.600247809664
				0.000270787421391416	-578.596920013893
			-0.000279861573826423	-578.604182544229	0.0012693601192923	-578.587906359956	0.000456287195067795	-578.595756081349	-0.000282429989324762	-578.603988686532
				-0.000320211087735667	-578.604474389017
			-0.000243524046426857	-578.60381107884	0.000456287195069183	-578.595756081349	0.0011547866927572	-578.58917877735	-0.000280166568454587	-578.603923165169
				-0.000306149673076628	-578.604288026885
			6.22296899704944e-06	-578.600247809664	-0.000282429989333088	-578.603988686532	-0.000280166568464302	-578.603923165169	0.00631261387284837	-578.536801992859
				0.00253066666202201	-578.575475278416
			0.000270787421390029	-578.596920013893	-0.000320211087732891	-578.604474389017	-0.000306149673073852	-578.604288026885	0.00253066666203172	-578.575475278416
				0.0069158295925742	-578.53157756566
4000000	0.00165726877050243	-506.256936181554	-0.000291734827671808	-506.279595953101	-0.000254407614622143	-506.279171822962	-1.78336132111712e-06	-506.275095955074
				0.000268275772483118	-506.271292917658
			-0.000291734827671808	-506.279595953101	0.00130399353406863	-506.261018130973	0.000462950252010097	-506.269971412476	-0.000295686079515578	-506.279372367958
				-0.000334014141539773	-506.279927775112
			-0.000254407614640184	-506.279171822962	0.000462950251994831	-506.269971412476	0.00118656434167363	-506.26247155294	-0.000293575345776398	-506.279297199811
				-0.000319775638345232	-506.279714635962
			-1.78336132250489e-06	-506.275095955074	-0.000295686079515578	-506.279372367958	-0.00029357534576252	-506.279297199811	0.00651117738074691	-506.202708627001
				0.00260349599753157	-506.246830325802
			0.00026827577248173	-506.271292917658	-0.000334014141536998	-506.279927775112	-0.000319775638331354	-506.279714635962	0.00260349599753018	-506.246830325802
				0.00712909056702488	-506.19674139628
4500000	0.00170427720271177	-450.001782195907	-0.000303372284264636	-450.02724707459	-0.000264993314831596	-450.026770351047	-8.34209802763608e-06	-450.022182171776
				0.000268013868523487	-450.017904334867
			-0.00030337228424937	-450.02724707459	0.00134107632241559	-450.006371048429	0.000471434945720217	-450.016425891398	-0.000308518250366485	-450.026993617506
				-0.000347519413441966	-450.027618644313
			-0.000264993314824657	-450.026770351047	0.000471434945709115	-450.016425891398	0.00122051668423884	-450.008005235207	-0.000306528943587459	-450.026908791496
				-0.000333050644199528	-450.027378743129
			-8.34209802486052e-06	-450.022182171776	-0.000308518250380363	-450.026993617506	-0.000306528943591622	-450.026908791496	0.00671763783996748	-449.940868175367
				0.00268066634431241	-449.990429233317
			0.000268013868537365	-450.017904334867	-0.000347519413447517	-450.027618644313	-0.000333050644196753	-450.027378743129	0.00268066634431935	-449.990429233317
				0.00735172537805057	-449.934159319592
5000000	0.00175666066699609	-404.997202466591	-0.000312408315866763	-405.025468201142	-0.000272906977939746	-405.024938962162	-1.12391027845549e-05	-405.019838946292
				0.0002721285045304	-405.015086867156
			-0.000312408315865376	-405.025468201142	0.00138297066988868	-405.002297450083	0.000484092663316504	-405.013451908086	-0.000318521550003725	-405.02518486608
				-0.000358321563545538	-405.025879484853
			-0.00027290697794391	-405.024938962162	0.000484092663309565	-405.013451908086	0.00125905054139119	-405.004112158281	-0.000316615637116491	-405.025090378792
				-0.000343564154599296	-405.025612844271
			-1.12391027790038e-05	-405.019838946292	-0.000318521549996786	-405.02518486608	-0.000316615637101225	-405.025090378792	0.00693423751125383	-404.929613045793
				0.00276438073310986	-404.984604620528
			0.000272128504524849	-405.015086867156	-0.000358321563553865	-405.025879484853	-0.00034356415460346	-405.025612844271	0.00276438073309321	-404.984604620528
				0.00758582070198854	-404.922163943387
5500000	0.00181274283653499	-368.174860986056	-0.000320287924489293	-368.205923296656	-0.000279597233862616	-368.205341626941	-1.20651304488795e-05	-368.199730334624
				0.000278938615738689	-368.19450461822
			-0.000320287924487905	-368.205923296656	0.00142808909240622	-368.180461361589	0.000499360147536432	-368.192713523399	-0.000327181230314055	-368.205610142232
				-0.000367913822875432	-368.20637432608
			-0.000279597233873718	-368.205341626941	0.000499360147522554	-368.192713523399	0.00130060319794428	-368.182456346432	-0.000325323006913902	-368.205505997341
				-0.00035281336540488	-368.206080976078
			-1.20651304530428e-05	-368.199730334623	-0.000327181230318219	-368.205610142232	-0.000325323006905576	-368.205505997341	0.0071590153388118	-368.100607240367
				0.002852833675282	-368.161020578152
			0.000278938615741464	-368.19450461822	-0.000367913822875432	-368.20637432608	-0.000352813365391003	-368.206080976078	0.00285283367529032	-368.161020578152
				0.00782924938529383	-368.092419341367
6000000	0.00187093391568888	-337.489198919092	-0.000328365142207576	-337.523053499204	-0.000286426960516284	-337.52241948635	-1.22913485806064e-05	-337.516297510268
				0.000286897579372669	-337.510598777792
			-0.000328365142192311	-337.523053499204	0.00147486543435188	-337.495303953922	0.000515719671079218	-337.508651938015	-0.000335901135894989	-337.522710589472
				-0.000377695733493055	-337.523544289737
			-0.000286426960510733	-337.52241948635	0.000515719671068116	-337.508651938015	0.00134362557418638	-337.497478965187	-0.000334060752635312	-337.522596794293
				-0.000362205444776054	-337.523224264293
			-1.22913485722798e-05	-337.516297510268	-0.000335901135901928	-337.522710589472	-0.000334060752631149	-337.522596794293	0.00738992373599257	-337.408291813484
				0.00294427023591198	-337.474118227527
			0.000286897579386547	-337.510598777792	-0.000377695733491668	-337.523544289737	-0.000362205444766339	-337.523224264293	0.00294427023592031	-337.474118227527
				0.00807982476252467	-337.399366581742
6500000	0.00193037038994093	-311.524059500668	-0.000337255833324224	-311.560702027839	-0.000294021955464518	-311.560015758949	-1.2623194342587e-05	-311.553383703564
				0.000295237734081188	-311.547212579983
			-0.000337255833313121	-311.560702027839	0.00152244408802155	-311.530668442763	0.000532379556178464	-311.545110399188	-0.000345331803641713	-311.560329403533
				-0.0003883018376033	-311.561232545821
