!Generated from: C:\Users\nkfzm\OneDrive - University of Missouri\Desktop\Research\PowerSI\Board 2.1 - GPGGGG\attempt 2.spd
! Port1_ic_port_1::pwr
! Port2_decap_port1_1::pwr
! Port3_decap_port2_1::pwr
! Port4_decap_port3_1::pwr
! Port5_decap_port4_1::pwr
!
!Layout Workbench Version: 24.1.0.10141.541387   000
!Computer Host Name: RS29JQCX3
!
!TouchstoneFormatFlag = 1
! GNDNET gnd
! NETSLIST 
!
#	Hz	S	RI	R	50
10000	-0.599942024347822	-1.75268571010886e-05	0.40000165136955	-1.96977579271989e-05	0.400003199629446	-1.96395691588234e-05	0.39996647831839	-2.10510055713757e-05
				0.399970689521196	-2.08492254511892e-05
			0.40000165136955	-1.96977579271989e-05	-0.599945435306834	-1.76365682940124e-05	0.400030716343578	-1.85621942069792e-05	0.399959859785565	-2.13197853680853e-05
				0.399953202336221	-2.15490854921754e-05
			0.400003199629446	-1.96395691588234e-05	0.400030716343578	-1.85621942069792e-05	-0.599948458068051	-1.77522651735835e-05	0.399960410389862	-2.12980848890707e-05
				0.399954126236972	-2.15133749651218e-05
			0.39996647831839	-2.10510055713757e-05	0.399959859785565	-2.13197853680853e-05	0.399960410389862	-2.12980848890707e-05	-0.599883053306364	-1.51530161708086e-05
				0.399996298898986	-1.99321021555341e-05
			0.399970689521196	-2.08492254511892e-05	0.399953202336221	-2.15490854921754e-05	0.399954126236972	-2.15133749651218e-05	0.399996298898986	-1.99321021555341e-05
				-0.599874322950293	-1.49089125763392e-05
13335.2143216332	-0.599942030070411	-2.33784063091056e-05	0.400001651275396	-2.62641336442132e-05	0.400003199500642	-2.61869571237907e-05	0.399966478557849	-2.8070893003377e-05
				0.39997068962099	-2.78021829015881e-05
			0.400001651275396	-2.62641336442132e-05	-0.599945441753054	-2.3525364986765e-05	0.400030707491777	-2.47590291984646e-05	0.3999598623964	-2.84264695971327e-05
				0.399953208873386	-2.87289473022324e-05
			0.400003199500642	-2.61869571237907e-05	0.400030707491777	-2.47590291984646e-05	-0.599948463234339	-2.36784420921362e-05	0.399960412721922	-2.83978006824594e-05
				0.399954132243593	-2.86816951597786e-05
			0.399966478557849	-2.8070893003377e-05	0.3999598623964	-2.84264695971327e-05	0.399960412721922	-2.83978006824594e-05	-0.599883058557748	-2.02123881404368e-05
				0.399996297352057	-2.65825990137737e-05
			0.39997068962099	-2.78021829015881e-05	0.399953208873386	-2.87289473022324e-05	0.399954132243593	-2.86816951597786e-05	0.399996297352057	-2.65825990137737e-05
				-0.59987433440689	-1.98933010500181e-05
17782.7941003892	-0.599942020930801	-3.11707665226908e-05	0.400001648797633	-3.50264700648234e-05	0.400003197458873	-3.49232085792791e-05	0.399966473618451	-3.7433978974684e-05
				0.399970684863222	-3.70753364961492e-05
			0.400001648797633	-3.50264700648234e-05	-0.599945432338316	-3.1366187887278e-05	0.400030716226684	-3.30118442979905e-05	0.399959854539419	-3.79104914870496e-05
				0.399953196377983	-3.83165519124518e-05
			0.400003197458873	-3.49232085792791e-05	0.400030716226684	-3.30118442979905e-05	-0.599948455376768	-3.15713093030411e-05	0.399960405200292	-3.78720398547498e-05
				0.399954120322474	-3.8253238296726e-05
			0.399966473618451	-3.7433978974684e-05	0.399959854539419	-3.79104914870496e-05	0.399960405200292	-3.78720398547498e-05	-0.599883046142825	-2.69492392943167e-05
				0.39999629752935	-3.54462368317117e-05
			0.399970684863222	-3.70753364961492e-05	0.399953196377983	-3.83165519124518e-05	0.399954120322474	-3.8253238296726e-05	0.39999629752935	-3.54462368317117e-05
				-0.599874313834093	-2.65184678305004e-05
23713.7370566166	-0.599942008087206	-4.156303980044e-05	0.400001644784424	-4.67107530421222e-05	0.400003194134667	-4.65727782920988e-05	0.399966465701968	-4.99196507384561e-05
				0.399970677195413	-4.9441128246649e-05
			0.400001644784424	-4.67107530421222e-05	-0.599945419265932	-4.18231721480505e-05	0.400030727528946	-4.40180859131218e-05	0.399959842659168	-5.05569916638107e-05
				0.399953178232394	-5.11006641821262e-05
			0.400003194134667	-4.65727782920988e-05	0.400030727528946	-4.40180859131218e-05	-0.599948444418321	-4.20975081166861e-05	0.399960393774151	-5.05055360157873e-05
				0.399954102940542	-5.10159890144572e-05
			0.399966465701968	-4.99196507384561e-05	0.399959842659168	-5.05569916638107e-05	0.399960393774151	-5.05055360157873e-05	-0.599883027920007	-3.59339433577692e-05
				0.399996297239815	-4.72665089079994e-05
			0.399970677195413	-4.9441128246649e-05	0.399953178232394	-5.11006641821262e-05	0.399954102940542	-5.10159890144572e-05	0.399996297239815	-4.72665089079994e-05
				-0.59987428439684	-3.5355269747267e-05
31622.7766016838	-0.599941989589517	-5.54231399472977e-05	0.400001638103945	-6.22911520802772e-05	0.400003188571133	-6.21070086900116e-05	0.39996645272198	-6.65691766676198e-05
				0.399970664564023	-6.59308687813743e-05
			0.400001638103945	-6.22911520802772e-05	-0.599945400698543	-5.57697095473985e-05	0.400030742194217	-5.86968113981386e-05	0.399959824195206	-6.74202143078451e-05
				0.399953151169134	-6.81464802151083e-05
			0.400003188571133	-6.21070086900116e-05	0.400030742194217	-5.86968113981386e-05	-0.599948428771021	-5.61360137254571e-05	0.399960375935771	-6.73514904679075e-05
				0.399954076904188	-6.80334194952248e-05
			0.39996645272198	-6.65691766676198e-05	0.399959824195206	-6.74202143078451e-05	0.399960375935771	-6.73514904679075e-05	-0.599883000406276	-4.79170157493142e-05
				0.399996295973591	-6.30298373176771e-05
			0.399970664564023	-6.59308687813743e-05	0.399953151169134	-6.81464802151083e-05	0.399954076904188	-6.80334194952248e-05	0.399996295973591	-6.30298373176771e-05
				-0.599874241150748	-4.71429281567117e-05
42169.6503428582	-0.599941961926692	-7.39090234030523e-05	0.400001626655971	-8.30665241035347e-05	0.400003178978676	-8.2821015991811e-05	0.399966430951339	-8.87709508890999e-05
				0.399970643304213	-8.79196841456307e-05
			0.400001626655971	-8.30665241035347e-05	-0.599945373327867	-7.43710921897749e-05	0.400030761620709	-7.82741324185749e-05	0.399959794565141	-8.99056472995147e-05
				0.399953109346286	-9.08738162295533e-05
			0.400003178978676	-8.2821015991811e-05	0.400030761620709	-7.82741324185749e-05	-0.59994840557256	-7.48594662957613e-05	0.399960347197439	-8.98140215278028e-05
				0.399954036501633	-9.07230779613987e-05
			0.399966430951339	-8.87709508890999e-05	0.399959794565141	-8.99056472995147e-05	0.399960347197439	-8.98140215278028e-05	-0.599882957341154	-6.38999315390952e-05
				0.39999629286832	-8.40518461968929e-05
			0.399970643304213	-8.79196841456307e-05	0.399953109346286	-9.08738162295533e-05	0.399954036501633	-9.07230779613987e-05	0.39999629286832	-8.40518461968929e-05
				-0.599874175214897	-6.28683886081115e-05
56234.1325190349	-0.599941918148088	-9.85656410162434e-05	0.400001606441215	-0.000110768754876589	0.400003161916625	-0.000110441732363492	0.399966393583076	-0.00011837615221184
				0.399970606744518	-0.00011724104819104
			0.400001606441215	-0.000110768754876589	-0.599945330511613	-9.91820671918376e-05	0.400030789047852	-0.000104385816923339	0.399959745180718	-0.000119887038317442
				0.399953041558035	-0.000121175174517422
			0.400003161916625	-0.000110441732363492	0.400030789047852	-0.000104385816923339	-0.599948369103194	-9.98322924628496e-05	0.399960299168321	-0.000119765075541477
				0.399953970804552	-0.000120974482655511
			0.399966393583076	-0.00011837615221184	0.399959745180718	-0.000119887038317442	0.399960299168321	-0.000119765075541477	-0.599882886780825	-8.52191773732041e-05
				0.399996286601423	-0.000112087169885355
			0.399970606744518	-0.00011724104819104	0.399953041558035	-0.000121175174517422	0.399953970804552	-0.000120974482655511	0.399996286601423	-0.000112087169885355
				-0.599874069325287	-8.38494142515182e-05
74989.4209332456	-0.599941843133731	-0.000131453490909519	0.400001569835111	-0.000147707922581351	0.400003130798277	-0.000147272642010875	0.399966327864775	-0.000157853008659589
				0.399970542459461	-0.000156339448307848
			0.400001569835111	-0.000147707922581351	-0.599945257427281	-0.000132276046160131	0.400030833649731	-0.000139213305441114	0.399959659074849	-0.000159862933565824
				0.399952924551509	-0.00016157416077137
			0.400003130798277	-0.000147272642010875	0.400030833649731	-0.000139213305441114	-0.599948306728059	-0.000133140854370251	0.399960215352755	-0.00015970078317992
				0.399953857263955	-0.000161307256171653
			0.399966327864775	-0.000157853008659589	0.399959659074849	-0.000159862933565824	0.399960215352755	-0.00015970078317992	-0.599882764443208	-0.00011365784671449
				0.399996275421486	-0.000149475414275804
			0.399970542459461	-0.000156339448307848	0.399952924551509	-0.00016157416077137	0.399953857263955	-0.000161307256171653	0.399996275421486	-0.000149475414275804
				-0.599873887028169	-0.000111843975417708
100000	-0.59994170200336	-0.000175315913943241	0.400001503525291	-0.000196968348156459	0.400003074426933	-0.000196389010486965	0.3999662093685	-0.000210493008708724
				0.3999704268262	-0.000208474105909676
			0.400001503525291	-0.000196968348156459	-0.59994511888129	-0.000176412569264082	0.400030923096706	-0.000185660089850702	0.399959501254307	-0.000213168145492616
				0.399952707001162	-0.000215442142126228
			0.400003074426933	-0.000196389010486965	0.400030923096706	-0.000185660089850702	-0.599948188834251	-0.000177563151208488	0.399960061962201	-0.000212952463625216
				0.399953646506316	-0.000215087085802955
			0.3999662093685	-0.000210493008708724	0.399959501254307	-0.000213168145492616	0.399960061962201	-0.000212952463625216	-0.599882538577537	-0.00015159108369043
				0.399996257167772	-0.000199333752147749
			0.3999704268262	-0.000208474105909676	0.399952707001162	-0.000215442142126228	0.399953646506316	-0.000215087085802955	0.399996257167772	-0.000199333752147749
				-0.599873546751418	-0.000149187961478723
133352.143216332	-0.599941418324278	-0.000233789598872036	0.400001390572042	-0.000262674868683458	0.400002980298926	-0.000261901579497904	0.399965992044305	-0.000280687645622653
				0.399970215553337	-0.000277991494156948
			0.400001390572042	-0.000262674868683458	-0.599944835932936	-0.000235245881136722	0.400031132590226	-0.000247570116632075	0.399959201154668	-0.000284263922340248
				0.399952278370578	-0.000287303882765983
			0.400002980298926	-0.000261901579497904	0.400031132590226	-0.000247570116632075	-0.599947949851518	-0.000236783430373618	0.399959771306767	-0.000283975501716756
				0.399953233071898	-0.000286829366318148
			0.399965992044305	-0.000280687645622653	0.399959201154668	-0.000284263922340248	0.399959771306767	-0.000283975501716756	-0.599882102742541	-0.000202169364226249
				0.399996226605592	-0.000265808247952073
			0.399970215553337	-0.000277991494156948	0.399952278370578	-0.000287303882765983	0.399953233071898	-0.000286829366318148	0.399996226605592	-0.000265808247952073
				-0.599872872892951	-0.000198953762700259
177827.941003892	-0.59994087477076	-0.000311714650396396	0.400001210037991	-0.00035035582928059	0.400002836076034	-0.000349319470292031	0.399965603582502	-0.000374293336010454
				0.399969839437097	-0.000370686187593137
			0.400001210037991	-0.00035035582928059	-0.59994428440857	-0.000313638060199842	0.40003158503256	-0.000330068065742754	0.399958644251993	-0.000379106169554203
				0.399951456194457	-0.000383204201497609
			0.400002836076034	-0.000349319470292031	0.40003158503256	-0.000330068065742754	-0.599947488477329	-0.000315705736508812	0.399959233797069	-0.000378717439835018
				0.399952443163638	-0.000382566239928358
			0.399965603582502	-0.000374293336010454	0.399958644251993	-0.000379106169554203	0.399959233797069	-0.000378717439835018	-0.599881301004396	-0.000269587954940551
				0.399996171907838	-0.000354409057916561
			0.399969839437097	-0.000370686187593137	0.399951456194457	-0.000383204201497609	0.399952443163638	-0.000382566239928358	0.399996171907838	-0.000354409057916561
				-0.599871594544292	-0.000265220589241832
237137.370566166	-0.599940223177835	-0.00041581900362289	0.400000767194963	-0.000467195662630983	0.400002443171873	-0.000465795433046584	0.39996500915064	-0.000499074094877263
				0.399969264000701	-0.0004942583443686
			0.400000767194963	-0.000467195662630983	-0.599943634460512	-0.000418386807437575	0.40003200063824	-0.000440289589908787	0.39995784215432	-0.000505456687523449
				0.399950355547535	-0.00051085701579771
			0.400002443171873	-0.000465795433046584	0.40003200063824	-0.000440289589908787	-0.599946943327331	-0.000421122752884358	0.399958454411604	-0.000504942585084619
				0.399951376552081	-0.000510014119450181
			0.39996500915064	-0.000499074094877263	0.39995784215432	-0.000505456687523449	0.399958454411604	-0.000504942585084619	-0.599880266140958	-0.000359691473033102
				0.39999609045695	-0.000472633936291261
			0.399969264000701	-0.0004942583443686	0.399950355547535	-0.00051085701579771	0.399951376552081	-0.000510014119450181	0.39999609045695	-0.000472633936291261
				-0.599869991182391	-0.000353973769415984
316227.766016838	-0.599940159368122	-0.000554727499570657	0.400000472199089	-0.000622931917549569	0.400002159677522	-0.000621107341980573	0.399964275379829	-0.000665421256771743
				0.399968528937012	-0.000659016649610007
			0.400000472199089	-0.000622931917549569	-0.599943618023152	-0.000558146243305301	0.400031773648375	-0.000587229222549594	0.399957101316008	-0.000673882670818509
				0.399949584761837	-0.000681049031725755
			0.400002159677522	-0.000621107341980573	0.400031773648375	-0.000587229222549594	-0.599946938827354	-0.0005617772944238	0.399957714474284	-0.000673200502199477
				0.399950608633717	-0.000679928023621828
			0.399964275379829	-0.000665421256771743	0.399957101316008	-0.000673882670818509	0.399957714474284	-0.000673200502199477	-0.599879758465739	-0.000480042588790756
				0.399995542363847	-0.000630314188342767
			0.399968528937012	-0.000659016649610007	0.399949584761837	-0.000681049031725755	0.399950608633717	-0.000679928023621828	0.399995542363847	-0.000630314188342767
				-0.599869432412636	-0.000472507174495761
421696.503428582	-0.599940409606542	-0.000739825239565076	0.399999889015035	-0.00083075449445702	0.400001580727147	-0.000828316358499271	0.399963154039138	-0.000887244420346233
				0.399967385595879	-0.000878713770791092
			0.399999889015035	-0.00083075449445702	-0.599943934562011	-0.000744360526343332	0.40003117725862	-0.000783033852544376	0.399956014394628	-0.00089856465565297
				0.399948520004379	-0.000908186335692256
			0.400001580727147	-0.000828316358499271	0.40003117725862	-0.000783033852544376	-0.599947248534288	-0.000749220012676226	0.399956623173815	-0.000897649476541686
				0.399949540080437	-0.000906684584045106
			0.399963154039138	-0.000887244420346233	0.399956014394628	-0.00089856465565297	0.399956623173815	-0.000897649476541686	-0.599879505505996	-0.000640491019026477
				0.39999460029975	-0.000840441960504695
			0.399967385595879	-0.000878713770791092	0.399948520004379	-0.000908186335692256	0.399949540080437	-0.000906684584045106	0.39999460029975	-0.000840441960504695
				-0.599869236180999	-0.000630303430595345
562341.325190349	-0.599940955257234	-0.000986865315266505	0.399998805895245	-0.00110793585081178	0.400000506960696	-0.0011046826751545	0.399961255237995	-0.00118290211644492
				0.399965447769426	-0.00117152278700496
			0.399998805895245	-0.00110793585081178	-0.599944575505976	-0.000992854169266258	0.400030124550072	-0.00104420403549587	0.399954155695879	-0.00119804109031784
				0.399946668610936	-0.00121093393940492
			0.400000506960696	-0.0011046826751545	0.400030124550072	-0.00104420403549587	-0.599947886049188	-0.000999350309057306	0.399954759818817	-0.00119681407938108
				0.39994768569123	-0.0012089239310336
			0.399961255237995	-0.00118290211644492	0.399954155695879	-0.00119804109031784	0.399954759818817	-0.00119681407938108	-0.599879352708761	-0.000854899955975106
				0.399992977791957	-0.00112062454768951
			0.399965447769426	-0.00117152278700496	0.399946668610936	-0.00121093393940492	0.39994768569123	-0.0012089239310336	0.399992977791957	-0.00112062454768951
				-0.599869120844499	-0.000841194501189095
749894.209332456	-0.599942218494787	-0.00131660794848258	0.399996796249352	-0.00147762605224375	0.399998512066444	-0.00147329063894653	0.399958102856911	-0.00157694701667687
				0.399962237636689	-0.00156175044141885
			0.399996796249352	-0.00147762605224375	-0.599945954972582	-0.00132448440645478	0.400028199131509	-0.00139257354096261	0.399951051878544	-0.00159718688870566
				0.399943553042297	-0.00161443343404682
			0.399998512066444	-0.00147329063894653	0.400028199131509	-0.00139257354096261	-0.599949265117703	-0.00133315941619131	0.399951651408178	-0.00159554276313685
				0.399944568593225	-0.00161174551298215
			0.399958102856911	-0.00157694701667687	0.399951051878544	-0.00159718688870566	0.399951651408178	-0.00159554276313685	-0.599879776233952	-0.0011414802890929
				0.39999016245109	-0.00149421118379667
			0.399962237636689	-0.00156175044141885	0.399943553042297	-0.00161443343404682	0.399944568593225	-0.00161174551298215	0.39999016245109	-0.00149421118379667
				-0.599869575712486	-0.00112311515100904
1000000	-0.599944968386272	-0.00175663758267594	0.399993087831004	-0.00197067641713728	0.399994825696094	-0.00196490329583245	0.399952870161817	-0.00210217925495232
				0.399956927737667	-0.00208187283250325
			0.399993087831004	-0.00197067641713728	-0.599948822741202	-0.00176697700889035	0.400024656370449	-0.00185721584279379	0.399945872781718	-0.00212923058844223
				0.399938330899571	-0.00215228073289078
			0.399994825696094	-0.00196490329583245	0.400024656370449	-0.00185721584279379	-0.599952136514962	-0.00177855567202484	0.399946469088241	-0.00212702823689826
				0.399939347634803	-0.00214868792872128
			0.399952870161817	-0.00210217925495232	0.399945872781718	-0.00212923058844223	0.399946469088241	-0.00212702823689826	-0.599881686144486	-0.00152431829857927
				0.399985256733348	-0.0019923420745279
			0.399956927737667	-0.00208187283250325	0.399938330899571	-0.00215228073289078	0.399939347634803	-0.00214868792872128	0.399985256733348	-0.0019923420745279
				-0.599871516495931	-0.00149976206979084
1500000	-0.599954101926047	-0.0026368092671892	0.399982176622771	-0.00295641969720498	0.399983962403202	-0.00294778228006957	0.399938853000795	-0.00315177765617041
				0.399942757752613	-0.00312122695344592
			0.399982176622771	-0.00295641969720498	-0.599958069116615	-0.00265198596117282	0.400014217120348	-0.00278622107061612	0.39993194230963	-0.00319245448746768
				0.399924238593534	-0.00322709867037903
			0.399983962403202	-0.00294778228006957	0.400014217120348	-0.00278622107061612	-0.59996139879758	-0.00266936445383348	0.399932540834476	-0.00318913325885554
				0.399925266975065	-0.00322169585205283
			0.399938853000795	-0.00315177765617041	0.39993194230963	-0.00319245448746768	0.399932540834476	-0.00318913325885554	-0.599890017155664	-0.00229073550537367
				0.399971473217069	-0.00298805078164181
			0.399942757752613	-0.00312122695344592	0.399924238593534	-0.00322709867037903	0.399925266975065	-0.00322169585205283	0.399971473217069	-0.00298805078164181
				-0.599879921462643	-0.00225384825817913
2000000	-0.599967912604463	-0.00351726109421283	0.399966657694843	-0.00394214175819348	0.399968497078751	-0.00393064678939096	0.399919960600117	-0.00420102041260059
				0.399923704214466	-0.00416020959997199
			0.399966657694843	-0.00394214175819348	-0.599971861746462	-0.00353722125854481	0.399999334831549	-0.00371526186050004	0.399913127365642	-0.00425532588712485
				0.399905178035789	-0.0043015500897842
			0.399968497078751	-0.00393064678939096	0.399999334831549	-0.00371526186050004	-0.599975214249006	-0.00356039370676095	0.399913737204799	-0.00425088464510361
				0.399906228275353	-0.00429433781759399
			0.399919960600117	-0.00420102041260059	0.399913127365642	-0.00425532588712485	0.399913737204799	-0.00425088464510361	-0.599903941294501	-0.00305781180333217
				0.399952347853662	-0.00398359242983668
