!Generated from: C:\Users\nkfzm\OneDrive - University of Missouri\Desktop\Research\PowerSI\Board 2.2 - GPGGGG\b2_2.spd
! Port1_ic_port_1::pwr
! Port2_decap_port_1::pwr
!
!Layout Workbench Version: 24.1.0.10141.541387   000
!Computer Host Name: RS29JQCX3
!
!TouchstoneFormatFlag = 1
! GNDNET gnd
! NETSLIST 
!
#	Hz	Z	RI	R	1
10000	-0.00585920484083569	-202510.195553643	-0.00695644854473987	-202510.195595114	-0.00695644854474819	-202510.195595114	-0.00179459785747682	-202510.19539738
13335.2143216332	3.15425515011408	-151863.348329551	3.15321887079284	-151863.348690928	3.15321887079284	-151863.348690928	3.15844202833854	-151863.348734059
17782.7941003892	1.07383148656597	-113880.475058748	1.07275794392991	-113880.47524681	1.07275794392991	-113880.475246809	1.07794443233241	-113880.475009876
23713.7370566166	0.19963507610235	-85397.8951717637	0.198537563710594	-85397.8952701025	0.198537563710594	-85397.8952701025	0.203701128675454	-85397.8948012326
31622.7766016838	-0.0739389137111496	-64039.2664071674	-0.0750485937021927	-64039.2664887257	-0.0750485937021761	-64039.2664887257	-0.0698953393072049	-64039.2658136627
42169.6503428582	-0.0733976322786073	-48022.6915074835	-0.0745079403373511	-48022.6916372412	-0.0745079403373622	-48022.6916372412	-0.0693519962755129	-48022.690758165
56234.1325190349	0.0226847873954883	-36011.9959387457	0.0215857690085142	-36011.9961718709	0.0215857690085031	-36011.9961718709	0.026758955522721	-36011.9950603835
74989.4209332456	0.108868227631226	-27005.2271772367	0.107790263669999	-27005.2275486688	0.10779026367001	-27005.2275486688	0.112995174609473	-27005.2261283963
100000	0.114251422922135	-20251.0614945469	0.11318794777338	-20251.0619954323	0.113187947773372	-20251.0619954323	0.118426234846208	-20251.0601088427
133352.143216332	0.00333326775734388	-15186.1283941652	0.00222590742152695	-15186.1289460238	0.00222590742151862	-15186.1289460238	0.00745260686834393	-15186.1263152043
177827.941003892	-0.175532608891413	-11387.9660837098	-0.17677084389203	-11387.9665724869	-0.176770843892049	-11387.9665724869	-0.171623330729509	-11387.9628159634
237137.370566166	-0.216276952527769	-8539.67252351853	-0.217421363340839	-8539.67308926559	-0.217421363340831	-8539.67308926558	-0.212105310004387	-8539.66799716068
316227.766016838	0.000824028722862247	-6403.93465781959	-0.000313468116414084	-6403.93595935207	-0.000313468116419635	-6403.93595935207	0.00508651685222072	-6403.92975133612
421696.503428582	-0.0259187011666273	-4802.27740354948	-0.0271326360708729	-4802.27912205726	-0.0271326360708729	-4802.27912205726	-0.0217534540209369	-4802.27084478406
562341.325190349	0.0013888395302919	-3601.1950880559	0.00021851385106908	-3601.19738731573	0.000218513851080182	-3601.19738731573	0.00573611187008605	-3601.18639130511
749894.209332456	0.00137008124360405	-2700.51363931015	0.000173238317976998	-2700.51668773708	0.000173238317979774	-2700.51668773708	0.00578875084502328	-2700.50208470385
1000000	-0.000724788839953638	-2025.09673216	-0.00195810649888384	-2025.10076126718	-0.00195810649886718	-2025.10076126718	0.00377406716530748	-2025.08137227845
1500000	0.000447234327566326	-1350.06082609377	-0.000839619257875235	-1350.06682382502	-0.000839619257872459	-1350.06682382501	0.00511592295373842	-1350.03794327119
2000000	0.00153179433416695	-1012.54142959825	0.000193010601376442	-1012.54938916283	0.000193010601373667	-1012.54938916283	0.00635660940477012	-1012.51105477425
2500000	0.00167352554516775	-810.028747054938	0.000283671725914703	-810.038657935758	0.000283671725909151	-810.038657935758	0.00665230378903425	-809.990888190019
3000000	0.00165984003700215	-675.019546061077	0.000219509155532926	-675.03140152502	0.0002195091555246	-675.03140152502	0.00679697897434939	-674.974214308587
3500000	0.00167720065766541	-578.583720080036	0.000185968296462224	-578.597515832176	0.000185968296459449	-578.597515832176	0.00697843773320717	-578.530929030996
4000000	0.00172296667742544	-506.256245256985	0.000179807222483452	-506.271977769953	0.00017980722249733	-506.271977769953	0.00719414046258249	-506.196008624277
4500000	0.00178048805493658	-450.001010175767	0.000184209816672665	-450.018675980814	0.00018420981667544	-450.018675980814	0.00742743898871912	-449.933340976318
5000000	0.00184077300679208	-404.99634773582	0.000190249797799025	-405.015943289814	0.0001902497978018	-405.015943289814	0.00766930674762634	-404.921258349488
5500000	0.00190081764938899	-368.173922126723	0.000195053792101385	-368.19544387663	0.000195053792112487	-368.19544387663	0.00791654396624653	-368.09142459769
6000000	0.0019606804446709	-337.488174814756	0.000198789827374202	-337.511619278911	0.000198789827374202	-337.511619278911	0.00816878715483305	-337.398281098212
6500000	0.00202159191166063	-311.522949545013	0.000202755148978606	-311.548313353434	0.000202755148970279	-311.548313353434	0.00842663735279581	-311.425671616948
7000000	0.00208488986545019	-289.266706370269	0.000208326722042629	-289.293986262651	0.000208326722031527	-289.293986262651	0.00869066587001477	-289.162056216003
7500000	0.00215145399893868	-269.977649772953	0.000216426003096792	-270.006842572769	0.000216426003099568	-270.006842572769	0.00896093697384248	-269.86563930138
8000000	0.00222144258501811	-253.099433496069	0.000227285818057976	-253.130536081716	0.000227285818060752	-253.130536081716	0.00923682619991539	-252.980074426376
8500000	0.00229423463606326	-238.206616424006	0.000240414093505281	-238.239625713142	0.000240414093519159	-238.239625713142	0.00951702492479889	-238.079920178739
9000000	0.00236853220400846	-224.968299716881	0.00025470539855299	-225.00321267283	0.000254705398561317	-225.00321267283	0.00979968259523512	-224.834277339369
9500000	0.00244258631270644	-213.123246919265	0.000268663856850537	-213.160060580768	0.000268663856853313	-213.160060580768	0.0100826536061804	-212.981909019285
10000000	0.00251448639131679	-202.462468098053	0.00028068076436405	-202.501179626521	0.000280680764366825	-202.501179626521	0.0103637964042586	-202.31382481883
11000000	0.00264476076100306	-184.047759640805	0.000293202495180167	-184.090259132323	0.000293202495185718	-184.090259132323	0.0109134916753989	-183.88453402194
12000000	0.00274650375151342	-168.701380405132	0.000282524758418723	-168.747658938177	0.00028252475842705	-168.747658938178	0.0114377983832875	-168.523606315084
13000000	0.00281252182246228	-155.715253593276	0.000244436899832223	-155.765302787115	0.000244436899821121	-155.765302787115	0.0119320929728828	-155.522958464475
14000000	0.00300366007217889	-144.583692094327	0.000314911381424365	-144.637502608631	0.000314911381432692	-144.637502608631	0.0125023930496349	-144.376920260802
15000000	0.00302249016941036	-134.935832928589	0.000235266582596094	-134.993382455985	0.000235266582587768	-134.993382455985	0.0127820405282891	-134.714588908046
16000000	0.0032209081089779	-126.493126486262	0.00035528938105156	-126.554442542035	0.000355289381054336	-126.554442542035	0.0133900898804107	-126.257457375197
17000000	0.00333743298526201	-119.043260416651	0.000370217296025155	-119.108320290256	0.00037021729602793	-119.108320290256	0.0138721184773177	-118.793175480257
18000000	0.00345017700546235	-112.420647568624	0.00038463647688558	-112.489446647447	0.000384636476893907	-112.489446647447	0.014338475555481	-112.156164051588
19000000	0.00356083483510072	-106.49466595674	0.000401185036844054	-106.56720070593	0.000401185036835727	-106.56720070593	0.0147924673852412	-106.215798921797
20000000	0.00366787560628079	-101.160823362163	0.000417455699208702	-101.237090349047	0.000417455699203151	-101.237090349047	0.0152318359107423	-100.867585546821
22000000	0.00387002343078813	-91.946574527347	0.000446008985166557	-92.0302969211458	0.000446008985158231	-92.0302969211458	0.0160653885796613	-91.6246267868101
24000000	0.00405782334225446	-84.2665091779589	0.000469348122444924	-84.3576772904146	0.000469348122439373	-84.3576772904146	0.0168433050658778	-83.9158853376213
26000000	0.00423376737306025	-77.7665833576674	0.00048920849367029	-77.8651899419393	0.00048920849367029	-77.8651899419393	0.0175734902371133	-77.3873093232573
28000000	0.00440000277128205	-72.1939084705167	0.000507149500034165	-72.2999480742064	0.000507149500036941	-72.2999480742064	0.0182636151784377	-71.7860040939118
30000000	0.00455824044459652	-67.3630334440077	0.000524179664873614	-67.4765018997092	0.00052417966487639	-67.4765018997092	0.0189202266241251	-66.9265140951969
32000000	0.00470980966690016	-63.1348704548421	0.000540830924458668	-63.2557645084569	0.000540830924461444	-63.2557645084569	0.0195486320748922	-62.6697482839126
34000000	0.00485572192226447	-59.4030585242909	0.000557302543435778	-59.531375562893	0.000557302543435778	-59.531375562893	0.0201530218209123	-58.9093434071119
36000000	0.00499673854081062	-56.0848725980693	0.000573596424083278	-56.2206104536289	0.000573596424088829	-56.2206104536289	0.020736664627613	-55.5625728071177
38000000	0.00513343650567488	-53.1150034784945	0.000589623828653463	-53.2581602928607	0.000589623828645136	-53.2581602928607	0.0213021124606999	-52.5641261381191
40000000	0.00526626616485781	-50.4412038071179	0.000605280283250131	-50.5917779463803	0.000605280283247356	-50.5917779463803	0.0218513864004288	-49.8617551900557
42000000	0.00539559761319197	-48.021178073939	0.000620492279324036	-48.1791680809368	0.000620492279326812	-48.1791680809368	0.0223861333419534	-47.4131637858834
44000000	0.00552175537560651	-45.8203208204554	0.000635241908999995	-45.985725394878	0.000635241908997219	-45.985725394878	0.022907751792553	-45.183745908479
46000000	0.00564504266633847	-43.8100448860694	0.000649575788300161	-43.9828628827876	0.000649575788302936	-43.9828628827876	0.0234174891565408	-43.1449138971618
48000000	0.00576575714086869	-41.9665275986794	0.000663603758457865	-42.1467580365502	0.000663603758457865	-42.1467580365502	0.0239165144934744	-41.272844607126
50000000	0.00588420013821478	-40.2697578829458	0.000677491735867619	-40.4573999580393	0.000677491735864844	-40.4573999580393	0.0244059711909717	-39.5475264994426
52000000	0.00599801856979443	-38.7027985772689	0.000684717898444265	-38.8978531336214	0.00068471789844704	-38.8978531336214	0.0248807295664455	-37.9520237262235
54000000	0.00611129107901676	-37.2512322229575	0.000694116461272265	-37.4536975502961	0.000694116461269489	-37.4536975502961	0.0253491825020907	-36.4719158498536
56000000	0.00622354825362548	-35.9026950590718	0.000705056068112109	-36.1125699409649	0.000705056068114884	-36.1125699409649	0.0258112192824511	-35.0948390450682
58000000	0.00633449819001097	-34.64652866376	0.000717059176741364	-34.8638122881161	0.000717059176738588	-34.8638122881161	0.0262668246348657	-33.8101347640064
60000000	0.00644397317086653	-33.4734957387299	0.000729764587548143	-33.6981876222555	0.000729764587545367	-33.6981876222555	0.0267160503851116	-32.6085655313868
62000000	0.00655189115963406	-32.3755509000013	0.000742899832009702	-32.6076508256973	0.000742899832018029	-32.6076508256973	0.0271589951070295	-31.4820857455301
64000000	0.00665822808476324	-31.345654443231	0.00075626056449396	-31.5851624096454	0.000756260564496736	-31.5851624096454	0.0275957894012718	-30.4236554530266
66000000	0.00676299800357327	-30.3776199684575	0.000769694992874825	-30.6245361492485	0.000769694992874825	-30.6245361492484	0.0280265851890255	-29.4270879816644
68000000	0.00686623902482753	-29.4659888936834	0.000783091983758144	-29.7203136060184	0.00078309198376092	-29.7203136060184	0.0284515479025665	-28.4869244609737
70000000	0.00696800343587545	-28.6059264798683	0.000796371883340918	-28.8676601602447	0.000796371883335367	-28.8676601602447	0.0288708507854785	-27.5983298529992
72000000	0.00706835088954139	-27.7931351847965	0.000809479373342636	-28.0622783709776	0.000809479373345412	-28.0622783709776	0.0292846707423217	-26.7570063108587
74000000	0.00716734380638573	-27.0237820675463	0.000822377872194968	-27.3003353854466	0.000822377872189417	-27.3003353854466	0.0296931853320803	-25.9591205869378
76000000	0.00726504436877051	-26.2944376554042	0.000835045124866762	-26.5784018099037	0.000835045124866762	-26.5784018099037	0.0300965706100775	-25.2012429026928
78000000	0.0073615126464921	-25.6020242159303	0.00084746971793781	-25.8933999847471	0.000847469717935034	-25.8933999847471	0.030494999600339	-24.4802952228971
80000000	0.00745680551596517	-24.9437717883163	0.000859648322425188	-25.2425600182078	0.000859648322426576	-25.2425600182078	0.0308886412364567	-23.7935072885925
82000000	0.00755097612527289	-24.3171806493012	0.000871583514440444	-24.62338225399	0.000871583514440444	-24.62338225399	0.0312776596508274	-23.1383790841154
84000000	0.00764407372486064	-23.719989141227	0.00088328205742616	-24.0336051005656	0.000883282057423385	-24.0336051005656	0.0316622137213729	-22.5126486658768
86000000	0.00773614373457826	-23.150145989327	0.000894753555656658	-23.4711773493119	0.000894753555660821	-23.4711773493119	0.0320424568082539	-21.9142644800664
88000000	0.00782722795440172	-22.6057863940444	0.000906009406982655	-22.9342342673785	0.000906009406982655	-22.9342342673785	0.0324185366296567	-21.3413614551489
90000000	0.00791736485458439	-22.0852113111458	0.00091706199691205	-22.4210768781175	0.000917061996913437	-22.4210768781175	0.0327905952387131	-20.792240281972
92000000	0.00800658990070535	-21.5868694345181	0.000927924087848475	-21.9301539440256	0.0009279240878457	-21.9301539440256	0.0331587690727261	-20.2653493964209
94000000	0.00809493588449506	-21.1093414791102	0.000938608365021187	-21.4600462497084	0.000938608365022575	-21.4600462497084	0.0335231890538565	-19.7592692621206
96000000	0.00818243324143125	-20.6513264285711	0.000949127108225423	-21.0094528494547	0.000949127108224035	-21.0094528494547	0.033883980725255	-19.2726986177645
98000000	0.00826911034432359	-20.2116294669021	0.000959491963692383	-20.5771789987714	0.000959491963692383	-20.5771789987714	0.034241264411175	-18.8044424084136
100000000	0.00835499376690974	-19.7891513583517	0.000969713794980731	-20.1621255341298	0.000969713794980731	-20.1621255341298	0.0345951553925111	-18.3534011650124
102000000	0.00844010851551724	-19.3828790767674	0.000979802595636736	-19.7632795021536	0.000979802595639512	-19.7632795021536	0.0349457640914319	-17.9185616333503
104000000	0.00852447822902586	-18.9918775161998	0.000989767449416368	-19.379705870059	0.00098976744941498	-19.379705870059	0.03529319626078	-17.4989884842743
106000000	0.00860812534893285	-18.6152821399465	0.000999616526381475	-19.0105401745421	0.000999616526380087	-19.0105401745421	0.0356375531749484	-17.0938169623499
108000000	0.00869107126219709	-18.2522924463815	0.0010093571055525	-18.6549819874658	0.0010093571055525	-18.6549819874658	0.03597893181983	-16.7022463513195
110000000	0.00877333641997463	-17.9021661476113	0.00101899561636559	-18.31228909439	0.00101899561636698	-18.31228909439	0.0363174250803094	-16.3235341524052
112000000	0.00885494043534746	-17.5642139718506	0.00102853769300554	-17.9817722968411	0.00102853769300415	-17.9817722968411	0.0366531219241489	-15.9569908863508
114000000	0.00893590216335532	-17.2377950129185	0.00103798823660739	-17.6627907617222	0.00103798823661017	-17.6627907617222	0.0369861075814312	-15.6019754426048
116000000	0.00901623976602289	-16.9223125608213	0.00104735148171303	-17.354747851828	0.00104735148171303	-17.354747851828	0.0373164637190296	-15.2578909096123
118000000	0.00909597076515084	-16.6172103563423	0.00105663106400589	-17.0570873803859	0.00105663106400589	-17.0570873803859	0.0376442686097142	-14.9241808291344
120000000	0.009175112085201	-16.3219692201698	0.00106583008716854	-16.769290240152	0.00106583008716993	-16.769290240152	0.03796959729572	-14.6003258251279
122000000	0.00925368008823646	-16.0361040135836	0.00107495118729234	-16.4908713640798	0.00107495118729095	-16.4908713640798	0.0382925217464983	-14.2858405642027
124000000	0.00933169060265832	-15.7591608932646	0.00108399659367875	-16.2213769801259	0.00108399659367875	-16.2213769801259	0.0386131110107227	-13.9802710102219
126000000	0.00940915894710875	-15.4907148275473	0.00109296818536081	-15.9603821275093	0.00109296818535942	-15.9603821275093	0.0389314313623323	-13.6831919403629
128000000	0.00948609995085475	-15.2303673455202	0.00110186754285341	-15.7074884058283	0.0011018675428548	-15.7074884058283	0.0392475464407793	-13.3942046940428
130000000	0.00956252797145452	-14.9777444938976	0.00111069599494362	-15.4623219319566	0.00111069599494085	-15.4623219319566	0.0395615173853413	-13.1129351296301
132000000	0.00963845691050735	-14.7324949796263	0.00111945466052255	-15.2245314826801	0.00111945466052532	-15.2245314826801	0.0398734029636291	-12.8390317669068
134000000	0.00971390022807272	-14.4942884788237	0.00112814448557305	-14.9937868036702	0.00112814448557305	-14.9937868036702	0.0401832596944436	-12.5721640958734
136000000	0.0097888709563107	-14.2628140949231	0.00113676627545856	-14.7697770676675	0.00113676627545786	-14.7697770676675	0.040491141964779	-12.3120210347734
138000000	0.00986338171242995	-14.0377789508914	0.00114532072286663	-14.5522094667404	0.00114532072286455	-14.5522094667404	0.040797102141503	-12.0583095222009
140000000	0.00993744471144628	-13.8189069021105	0.00115380843168922	-14.3408079252095	0.00115380843168852	-14.3408079252095	0.0411011906773839	-11.8107532298807
142000000	0.0100110717786879	-13.6059373580276	0.0011622299372023	-14.1353119213403	0.0011622299372023	-14.1353119213403	0.0414034562119033	-11.5690913842269
144000000	0.0100842743623202	-13.3986242019989	0.00117058572287332	-13.935475407231	0.00117058572287332	-13.935475407231	0.041703945666878	-11.3330776861016
146000000	0.0101570635458716	-13.1967347999119	0.00117887623414595	-13.7410658174765	0.00117887623414664	-13.7410658174765	0.0420027043370651	-11.1024793193592
148000000	0.01022945006071	-13.0000490891873	0.0011871018896055	-13.5518631582137	0.00118710188960619	-13.5518631582137	0.0422997759758764	-10.8770760397766
150000000	0.0103014442986382	-12.8083587406598	0.00119526308977672	-13.3676591690423	0.0011952630897781	-13.3676591690423	0.0425952028764519	-10.656659336868
152000000	0.0103730563243705	-12.6214663866253	0.00120336022388923	-13.1882565511114	0.00120336022388853	-13.1882565511114	0.0428890259480924	-10.4410316618695
154000000	0.0104442958880867	-12.4391849090387	0.00121139367491377	-13.0134682553554	0.00121139367491238	-13.0134682553554	0.04318128478863	-10.2300057158798
156000000	0.0105151724377479	-12.2613367824644	0.0012193638231274	-12.8431168254809	0.0012193638231274	-12.8431168254809	0.0434720177522267	-10.023403792757
158000000	0.0105856951314709	-12.0877534669293	0.0012272710484075	-12.6770337908542	0.0012272710484082	-12.6770337908542	0.0437612620137078	-9.82105717192072
160000000	0.0106558728495638	-11.9182748463104	0.00123511573150645	-12.5150591049218	0.00123511573150645	-12.5150591049218	0.0440490536285976	-9.62280555669188
162000000	0.0107257142063964	-11.7527487083228	0.00124289825447349	-12.3570406252296	0.0012428982544728	-12.3570406252296	0.0443354275900761	-9.42849655423573
164000000	0.0107952275620986	-11.5910302625567	0.00125061900042231	-12.2028336314896	0.00125061900042162	-12.2028336314896	0.0446204178821435	-9.2379851935555
166000000	0.0108644210338335	-11.4329816933544	0.00125827835273373	-12.0523003784849	0.00125827835273443	-12.0523003784849	0.0449040575297051	-9.05113347832846
168000000	0.0109333025068249	-11.2784717446244	0.00126587669389833	-11.9053096809106	0.00126587669389694	-11.9053096809106	0.0451863786457098	-8.86780997168023
170000000	0.011001879645027	-11.1273753339617	0.00127341440401552	-11.7617365275196	0.00127341440401621	-11.7617365275196	0.0454674124752377	-8.68788941026737
172000000	0.011070159901401	-10.9795731936902	0.00128089185913727	-11.6214617221882	0.00128089185913727	-11.6214617221882	0.0457471894370141	-8.51125234528244
174000000	0.0111381505278445	-10.8349515366591	0.0012883094294272	-11.4843715497366	0.0012883094294272	-11.4843715497366	0.04602573916241	-8.33778480821552
