!Generated from: C:\Users\nkfzm\OneDrive - University of Missouri\Desktop\Research\PowerSI\Board 10 - anchors\b10.spd
! Port1_ic_port_1::pwr
! Port2_decap_port_1::pwr
!
!Layout Workbench Version: 24.1.0.10141.541387   000
!Computer Host Name: RS29JQCX3
!
!TouchstoneFormatFlag = 1
! GNDNET gnd
! NETSLIST 
!
#	Hz	Z	RI	R	1
10000	0.345915916862866	-170131.491171592	0.34531921449934	-170131.491197969	0.34531921449934	-170131.491197969	0.345956751807383	-170131.491169913
13335.2143216332	0.31706194015223	-127580.567747193	0.316465175683694	-127580.567782345	0.316465175683711	-127580.567782345	0.317102412923803	-127580.567745414
17782.7941003892	0.159021329151393	-95671.9437089544	0.158424395241857	-95671.9437558163	0.158424395241855	-95671.9437558163	0.159062037119595	-95671.9437061449
23713.7370566166	0.0760570546194661	-71743.8447089213	0.0754597731759343	-71743.8447714538	0.0754597731759205	-71743.8447714538	0.0760979086438296	-71743.8447049393
31622.7766016838	0.0338174056987328	-53800.2980042371	0.0332195263401946	-53800.2980876619	0.0332195263401974	-53800.2980876619	0.0338583355506156	-53800.2979988432
42169.6503428582	0.0133290099925798	-40344.5339290178	0.0127301424536375	-40344.5340402208	0.0127301424536513	-40344.5340402208	0.0133699656345104	-40344.5339218535
56234.1325190349	0.00414391493548938	-30254.1328563639	0.00354339358910605	-30254.1330044212	0.00354339358911715	-30254.1330044212	0.00418487706360937	-30254.1328469143
74989.4209332456	0.000485188142310133	-22687.3984190142	-0.000118211098437682	-22687.3986159044	-0.000118211098443233	-22687.3986159044	0.000526194170222261	-22687.3984065375
100000	-0.000894055955233397	-17013.1472885186	-0.001502685492627	-17013.1475501829	-0.00150268549263533	-17013.1475501829	-0.000852872235376778	-17013.1472719032
133352.143216332	-0.00165651025952895	-12758.058994636	-0.00227474190780119	-12758.059342754	-0.00227474190778454	-12758.059342754	-0.00161490800284769	-12758.058972145
177827.941003892	-0.0017512596440783	-9567.19349591436	-0.00238567244179033	-9567.19396026583	-0.00238567244177923	-9567.19396026583	-0.00170887814469334	-9567.19346508864
237137.370566166	-0.000187794938899533	-7174.38294904607	-0.000841980539412202	-7174.38356685455	-0.000841980539417753	-7174.38356685455	-0.000143983436740047	-7174.38290806642
316227.766016838	0.000801851185294744	-5380.02862760466	0.00014090380024423	-5380.02945055652	0.000140903800235903	-5380.02945055652	0.000845644159003234	-5380.02857465898
421696.503428582	0.000979223330094259	-4034.45169873842	0.000316888431872719	-4034.45280829906	0.000316888431869944	-4034.45280829906	0.00102304492940741	-4034.4516287055
562341.325190349	0.00098443976492002	-3025.41101734535	0.000314536734263848	-3025.41250630502	0.000314536734247195	-3025.41250630502	0.00102840840758012	-3025.41092454443
749894.209332456	0.000958298094225207	-2268.7369747181	0.000276591491019107	-2268.73896167865	0.000276591491027434	-2268.73896167865	0.00100235976842611	-2268.73685133273
1000000	0.000958064179434892	-1701.31110897336	0.000261075232804719	-1701.31375313901	0.000261075232804719	-1701.31375313901	0.00100226636672307	-1701.31094467575
1500000	0.000992122820164809	-1134.20435837768	0.000266878974405915	-1134.20830633036	0.000266878974408691	-1134.20830633036	0.00103672661463661	-1134.20411222138
2000000	0.00102919980411453	-850.650078830556	0.000277275640378494	-850.655324226968	0.000277275640381269	-850.655324226968	0.00107435895420893	-850.649750811495
2500000	0.00106471238295047	-680.516789312079	0.000286438019228563	-680.523328446485	0.000286438019214685	-680.523328446485	0.0011105779580578	-680.516379455736
3000000	0.00110006072919777	-567.093996405116	0.000295144536333058	-567.101826458537	0.000295144536344161	-567.101826458536	0.0011467792966402	-567.093504759053
3500000	0.00113622641436939	-486.07720287256	0.000304085283181488	-486.086321401358	0.000304085283184263	-486.086321401358	0.00118393692964402	-486.076629502099
4000000	0.00117363580705299	-425.314160058476	0.000313564520701415	-425.324564807537	0.000313564520695864	-425.324564807537	0.00122246778359314	-425.313505042688
4500000	0.00121240002265988	-378.053618677615	0.000323660581211249	-378.065307503673	0.000323660581214025	-378.065307503673	0.0012624726648286	-378.052882106013
5000000	0.00125246788479916	-340.244829122514	0.000334336945179148	-340.257799961649	0.000334336945179148	-340.257799961649	0.0013038898443285	-340.244011092359
5500000	0.00129370121882966	-309.310041596532	0.000345493556414	-309.324292452065	0.000345493556425103	-309.324292452065	0.0013465708568805	-309.309142210576
6000000	0.0013358996404006	-283.530756169662	0.000356975679757787	-283.54628511148	0.000356975679755012	-283.54628511148	0.00139030592070377	-283.529775534122
6500000	0.0013787767515705	-261.717242015623	0.000368536292166821	-261.734047188932	0.000368536292175148	-261.734047188932	0.00143480134143503	-261.716180238164
7000000	0.00142183975304355	-243.019691203055	0.000379698170008269	-243.037770850824	0.00037969817001382	-243.037770850824	0.00147956222316115	-243.018548390372
7500000	0.00146395463242743	-226.814910811729	0.000389287265409322	-226.834263328403	0.000389287265425975	-226.834263328403	0.00152346759416666	-226.813687065769
8000000	0.00150152817277593	-212.63550504692	0.000393542008317316	-212.656129127075	0.000393542008325642	-212.656129127075	0.00156299349572397	-212.634200457318
8500000	0.00151814778069637	-200.124050941595	0.000375577363079249	-200.145946101203	0.000375577363076474	-200.145946101204	0.00158210465939224	-200.122665575993
9000000	0.00138367355262126	-189.002566186082	0.000204499543771108	-189.025735259706	0.000204499543779435	-189.025735259706	0.00145490542126647	-189.001100778463
9500000	0.00161793334914895	-179.050198178312	0.000454291774990012	-179.074531153989	0.000454291774998339	-179.074531153989	0.00170785430402554	-179.048536433021
10000000	0.00161610315285721	-170.095331669008	0.000402417723208148	-170.121015479127	0.000402417723208148	-170.121015479127	0.00168987536988685	-170.09370332501
11000000	0.00173831468666397	-154.625478161753	0.000451273816678976	-154.653686765744	0.000451273816684528	-154.653686765744	0.0018119569727193	-154.623690994888
12000000	0.00184095566308495	-141.733229676053	0.000488161514605734	-141.763957113137	0.000488161514605734	-141.763957113137	0.00191787568041279	-141.731282558533
13000000	0.00193362247420947	-130.823856021266	0.000517518126333383	-130.857097259492	0.000517518126341709	-130.857097259492	0.00201412360142372	-130.821749202883
14000000	0.00202145212113147	-121.472464680292	0.000543819915205246	-121.508215236333	0.000543819915191368	-121.508215236333	0.00210556326060152	-121.470198446184
15000000	0.0021058434053367	-113.367461477361	0.000568377546400489	-113.405717361841	0.000568377546397714	-113.405717361841	0.00219351785435418	-113.3650360923
16000000	0.00218727360783155	-106.275149566474	0.000591684979342477	-106.315907238813	0.000591684979345253	-106.315907238813	0.00227843220529933	-106.272565267617
17000000	0.00226595098357096	-100.016819206639	0.000613974343266488	-100.060075535924	0.000613974343260937	-100.060075535924	0.00236049806214	-100.014076203436
18000000	0.00234200205288526	-94.4534737590884	0.000635378657634633	-94.4992259870656	0.000635378657631858	-94.4992259870656	0.00243983359732025	-94.4505722350463
19000000	0.0024155329930442	-89.4753789394702	0.000655988413159059	-89.5236246445784	0.000655988413172937	-89.5236246445784	0.00251654163719028	-89.4723190545223
20000000	0.00248665022885841	-84.9947472608133	0.000675873636593605	-85.0454843232683	0.000675873636601931	-85.0454843232683	0.00259072858425913	-84.9915291538806
22000000	0.00262209959200344	-77.2545300102451	0.000713698819512776	-77.3102444693205	0.000713698819507225	-77.3102444693205	0.00273200576091648	-77.2509958046526
24000000	0.00274931209233165	-70.8031948960746	0.000749250885664909	-70.8638810917536	0.000749250885656583	-70.8638810917536	0.00286466050281597	-70.7993449562541
26000000	0.00286927953712379	-65.3433075968879	0.000782856161621326	-65.4089612104015	0.000782856161621326	-65.4089612104015	0.00298972844434697	-65.3391421998794
28000000	0.00298295613760657	-60.6624149756894	0.000814788238212572	-60.7330326702322	0.000814788238212572	-60.7330326702322	0.00310820930762845	-60.6579343366912
30000000	0.00309121270379575	-56.6047180718326	0.0008452773964579	-56.6802972095178	0.000845277396463451	-56.6802972095178	0.00322101651763496	-56.5999223633973
32000000	0.00319481365704255	-53.0533676945727	0.000874518263455082	-53.1339061224052	0.000874518263457857	-53.1339061224052	0.00332895213891182	-53.04825706051
34000000	0.00329441102065176	-49.9190086151484	0.000902676316894002	-50.0045045096727	0.000902676316894002	-50.0045045096727	0.00343270025490172	-49.9135831802978
36000000	0.00339054932645688	-47.1321423529437	0.000929893026488382	-47.2225941122691	0.000929893026493933	-47.2225941122691	0.00353283206124266	-47.1264022298635
38000000	0.00348367665967408	-44.6379017092531	0.000956289585329895	-44.7333078815788	0.000956289585335446	-44.7333078815788	0.00362981748099345	-44.6318470026853
40000000	0.00357415846506393	-42.3923929394937	0.000981969420393858	-42.4927521784548	0.000981969420391082	-42.4927521784548	0.00372403967994206	-42.3860237492694
42000000	0.0036622918995588	-40.3600830192098	0.0010070197974138	-40.4653940579085	0.0010070197974138	-40.4653940579085	0.00381581013228771	-40.3533994420886
44000000	0.00374831938847464	-38.5118994748375	0.00103151285698877	-38.6221611120496	0.00103151285698599	-38.6221611120496	0.00390538282671327	-38.5049016056336
46000000	0.00383244065704502	-36.8238259120555	0.00105550637259366	-36.939037005635	0.00105550637259089	-36.939037005635	0.00399296685716644	-36.8165138443019
48000000	0.00391482292380896	-35.2758486633494	0.00107904444824614	-35.3960081272045	0.00107904444824614	-35.3960081272045	0.00407873708061501	-35.2682224896679
50000000	0.00399560921554298	-33.8511562413427	0.00110215829481619	-33.9762630434975	0.00110215829481619	-33.9762630434975	0.00416284280466972	-33.8432160536358
52000000	0.00407474414227116	-32.5355234614023	0.00112465515232918	-32.6655765823612	0.00112465515232918	-32.6655765823612	0.0042452368244017	-32.5272693447963
54000000	0.0041526055499258	-31.3168327500051	0.00114694084853983	-31.4518312429436	0.00114694084853706	-31.4518312429435	0.00432629694945286	-31.3082647995839
56000000	0.00422922973874196	-30.1846974963377	0.00116897572481622	-30.3246404577682	0.00116897572481622	-30.3246404577682	0.00440606298084678	-30.1758158054258
58000000	0.0043046580018663	-29.1301637180523	0.00119073702165018	-29.2750502826545	0.00119073702165018	-29.2750502826545	0.00448457934209834	-29.1209683785809
60000000	0.00437893374051757	-28.1454712906516	0.00121221395344706	-28.2953006279329	0.00121221395344706	-28.2953006279329	0.00456189222945991	-28.1359623934515
62000000	0.00445210065261603	-27.2238613902818	0.00123340406166239	-27.378632702467	0.00123340406166239	-27.378632702467	0.00463804783766009	-27.2140390253177
64000000	0.00452420163706835	-26.3594200408522	0.00125431052665215	-26.5191325615513	0.00125431052665492	-26.5191325615513	0.00471309130028463	-26.3492842974113
66000000	0.00459527816751848	-25.5469501070506	0.00127494020056018	-25.711603100381	0.00127494020055741	-25.711603100381	0.00478706609762791	-25.5365010738966
68000000	0.00466536996866079	-24.7818658767832	0.00129530218284934	-24.9514586367203	0.00129530218285351	-24.9514586367203	0.00486001376404505	-24.7711036422829
70000000	0.004734514882479	-24.0601057151749	0.0013154068040061	-24.2346375649819	0.00131540680400472	-24.234637564982	0.00493197378218652	-24.0490303674051
72000000	0.00480274884986226	-23.3780592762259	0.00133526491428448	-23.5575295678718	0.00133526491428448	-23.5575295678718	0.00500298358891843	-23.366670903065
74000000	0.00487010595836695	-22.7325065179792	0.00135488739983619	-22.9169146314915	0.0013548873998348	-22.9169146314915	0.00507307864428125	-22.7208052071875
76000000	0.00493661852524335	-22.1205663468676	0.00137428486597646	-22.3099116896011	0.00137428486597369	-22.3099116896011	0.00514229253272269	-22.1085521861599
78000000	0.00500231719603866	-21.5396531629279	0.00139346744244678	-21.7339351687438	0.00139346744244401	-21.7339351687438	0.00521065707697332	-21.5273262400391
80000000	0.00506723104730239	-20.987439923227	0.00141244467576074	-21.1866580515937	0.00141244467575796	-21.1866580515937	0.00527820245374983	-20.9748003259742
82000000	0.0051313876869144	-20.461826610636	0.00143122548274532	-20.665980345666	0.00143122548274394	-20.665980345666	0.00534495730472595	-20.4488744269768
84000000	0.00519481334857047	-19.9609132070571	0.00144981814560463	-20.1700020565004	0.00144981814560463	-20.1700020565004	0.00541094883989152	-19.9476485251455
86000000	0.00525753297919984	-19.4829764378223	0.00146823033406601	-19.6969999320336	0.00146823033406462	-19.6969999320336	0.00547620293237239	-19.4693993460628
88000000	0.0053195703191164	-19.0264496873019	0.0014864691439867	-19.2454073782013	0.0014864691439867	-19.2454073782013	0.00554074420434647	-19.0125602744017
90000000	0.00538094797511574	-18.5899055924252	0.00150454114486859	-18.8137970524676	0.00150454114486859	-18.8137970524676	0.00560459610509101	-18.5757039474453
92000000	0.00544168748743135	-18.1720409066038	0.0015224524309132	-18.4008657277698	0.00152245243091181	-18.4008657277698	0.0056677809816788	-18.1575271190085
94000000	0.00550180939110911	-17.7716632959135	0.00154020867205729	-18.0054210887337	0.00154020867205729	-18.0054210887337	0.00573032014364039	-17.7568374556189
96000000	0.00556133327264396	-17.3876797857466	0.00155781516256448	-17.6263701783657	0.00155781516256448	-17.6263701783657	0.00579223392201678	-17.3725419831676
98000000	0.00562027782246982	-17.0190866221552	0.0015752768658589	-17.2627092594426	0.00157527686586167	-17.2627092594426	0.00585354172384644	-17.0036369482512
100000000	0.00567866088394403	-16.6649603498266	0.00159259845482901	-16.9135148925364	0.0015925984548304	-16.9135148925364	0.00591426208285117	-16.649198896146
102000000	0.00573649949912325	-16.3244499397053	0.00160978434728121	-16.577936063688	0.00160978434728259	-16.577936063688	0.00597441270648452	-16.3083767984286
104000000	0.00579380995182482	-15.9967698249617	0.00162683873669162	-16.255187220427	0.00162683873669162	-16.255187220427	0.00603401052012148	-15.9803850889428
106000000	0.00585060780824431	-15.6811937253385	0.00164376561845175	-15.9445420961692	0.00164376561845175	-15.9445420961692	0.00609307170855028	-15.664497488145
108000000	0.00590690795523874	-15.3770491576773	0.00166056881199944	-15.6453282207926	0.00166056881200083	-15.6453282207926	0.00615161175508971	-15.360041513629
110000000	0.00596272463660869	-15.0837125452948	0.00167725197930957	-15.3569220300601	0.00167725197930957	-15.3569220300601	0.00620964547850128	-15.0663935895007
112000000	0.00601807148730565	-14.8006048513518	0.00169381864015411	-15.0787444990329	0.00169381864015272	-15.0787444990329	0.00626718706791957	-14.782974679746
114000000	0.00607296156594911	-14.5271876718658	0.00171027218466985	-14.8102572351243	0.00171027218467124	-14.8102572351243	0.00632425011581894	-14.5092463812412
116000000	0.00612740738543532	-14.2629597328929	0.00172661588360851	-14.55095897532	0.0017266158836092	-14.55095897532	0.00638084764928229	-14.244707420934
118000000	0.00618142094196972	-14.0074537439271	0.00174285289666204	-14.3003824396123	0.00174285289666204	-14.3003824396123	0.00643699215951907	-13.9888905092413
120000000	0.00623501374241442	-13.7602335659588	0.00175898627926482	-14.0580914990911	0.00175898627926552	-14.0580914990911	0.00649269562980545	-13.7413595081058
122000000	0.00628819683021822	-13.5208916580831	0.0017750189881427	-13.8236786225816	0.0017750189881427	-13.8236786225816	0.00654796956185422	-13.5017068776037
124000000	0.00634098080975892	-13.2890467712102	0.00179095388587666	-13.5967625703811	0.00179095388587736	-13.5967625703811	0.00660282500075174	-13.2695513696535
126000000	0.00639337586929786	-13.0643418614217	0.00180679374472623	-13.3769863076396	0.00180679374472692	-13.3769863076396	0.00665727255844545	-13.0445359413706
128000000	0.00644539180268341	-12.8464421989484	0.00182254124986847	-13.1640151133597	0.00182254124986778	-13.1640151133597	0.00671132243598715	-12.8263258640446
130000000	0.00649703802971732	-12.635033651704	0.00183819900222426	-12.9575348639497	0.00183819900222357	-12.9575348639497	0.00676498444442189	-12.6146070066718
132000000	0.00654832361527483	-12.4298211248603	0.00185376952099026	-12.757250472817	0.00185376952099026	-12.757250472817	0.0068182680244902	-12.4090842755289
134000000	0.00659925728736729	-12.2305271401614	0.00186925524596482	-12.5628844696984	0.00186925524596412	-12.5628844696984	0.00687118226523897	-12.2094801934865
136000000	0.00664984745411476	-12.0368905405921	0.0018846585397414	-12.374175705343	0.00188465853974279	-12.374175705343	0.0069237359214859	-12.015533604677
138000000	0.00670010221966166	-11.848665307684	0.00189998168982561	-12.1908781688314	0.00189998168982561	-12.1908781688314	0.00697593743035976	-11.8269984917988
140000000	0.00675002939913572	-11.6656194801936	0.0019152269107113	-12.0127599062666	0.001915226910712	-12.0127599062666	0.0070277949267894	-11.6436428947947
142000000	0.00679963653279422	-11.4875341641606	0.00193039634597061	-11.8396020308427	0.00193039634597131	-11.8396020308427	0.00707931625812536	-11.465247920909
144000000	0.00684893089925032	-11.314202625461	0.00194549207030645	-11.6711978154081	0.00194549207030645	-11.6711978154081	0.00713050899792539	-11.2916068372394
146000000	0.00689791952793797	-11.1454294569432	0.00196051609166262	-11.5073518596113	0.00196051609166192	-11.5073518596113	0.00718138045900166	-11.1225242378738
148000000	0.00694660921089427	-10.9810298130953	0.00197547035332632	-11.347879324576	0.00197547035332701	-11.347879324576	0.00723193770558045	-10.9578152785555
150000000	0.006995006513804	-10.8208287059369	0.00199035673606324	-11.1926052288018	0.00199035673606462	-11.1926052288018	0.00728218756495744	-10.7973049725759
152000000	0.00704311778639902	-10.6646603564997	0.00200517706026027	-11.0413637996509	0.00200517706025957	-11.0413637996509	0.00733213663830154	-10.6408275422533
154000000	0.00709094917234962	-10.5123675968403	0.00201993308805715	-10.8939978753692	0.00201993308805715	-10.8939978753692	0.00738179131099109	-10.4882258209464
156000000	0.00713850661849674	-10.3638013180536	0.00203462652551972	-10.7503583531044	0.00203462652551972	-10.7503583531044	0.0074311577624199	-10.3393507010665
158000000	0.0071857958836602	-10.2188199602069	0.00204925902476671	-10.6103036788477	0.00204925902476671	-10.6103036788477	0.00748024197502542	-10.1940606240118
160000000	0.00723282254687999	-10.077289040531	0.00206383218607498	-10.4736993756294	0.00206383218607428	-10.4736993756294	0.0075290497431546	-10.0522211083577
162000000	0.00727959201529821	-9.93908071655797	0.00207834755999933	-10.3404176066628	0.00207834755999933	-10.3404176066628	0.00757758668121014	-9.91370431299492
164000000	0.0073261095315337	-9.80407338122554	0.00209280664941747	-10.2103367704531	0.00209280664941885	-10.2103367704531	0.00762585823142481	-9.77838863223297
166000000	0.00737238018075972	-9.67215128725039	0.00210721091154845	-10.0833411251757	0.00210721091154845	-10.0833411251757	0.00767386967132147	-9.64615832017363
168000000	0.00741840889731671	-9.54320419833188	0.00212156175992545	-9.9593204398845	0.00212156175992476	-9.9593204398845	0.00772162612067417	-9.51690314191433
170000000	0.00746420047105026	-9.41712706497645	0.0021358605663109	-9.83816967034083	0.0021358605663109	-9.83816967034084	0.00776913254811953	-9.39051804937244
172000000	0.00750975955333341	-9.29381972293898	0.00215010866256027	-9.71978865745863	0.00215010866256027	-9.71978865745863	0.00781639377754398	-9.26690287972643
