!Generated from: C:\Users\nkfzm\OneDrive - University of Missouri\Desktop\Research\PowerSI\Board 5 - 6P\b5.spd
! Port1_DF1::pwr
! Port2_DF1::pwr1
! Port3_DF1::pwr2
! Port4_DF1::pwr3
! Port5_DF1::pwr4
! Port6_DF1::pwr5
!
!Layout Workbench Version: 24.1.0.10141.541387   000
!Computer Host Name: RS29JQCX3
!
!TouchstoneFormatFlag = 1
! GNDNET GND
! NETSLIST 
!
#	Hz	S	RI	R	50
100000	0.999998945442532	-0.000328778880400374	-5.67696635687468e-13	-8.46622122025504e-15	-6.91584985771202e-13	1.92509220506062e-17	-7.16015028939829e-15	-1.76414639498786e-16
				1.8901503080007e-14	2.11745360523037e-15	-7.34821210479134e-14	-1.65534353026107e-15
			-5.67696635687468e-13	-8.46622122025504e-15	0.999998889265733	-0.000469452401973277	-5.41389308025982e-14	-7.04890160914327e-16	-1.1473052943123e-14	-1.22189118497202e-16
				-3.6041783360839e-14	-3.62877948361949e-16	3.97218406145913e-13	3.88499901761255e-16
			-6.91584985771202e-13	1.92509220506062e-17	-5.41389308025982e-14	-7.04890160914327e-16	0.999998970276803	-0.000242468673573802	-1.74741732738081e-13	-7.82775349798301e-16
				2.33814067332612e-13	-2.46226013697571e-15	8.98628114544868e-12	-3.83062053141491e-13
			-7.16015028939829e-15	-1.76414639498786e-16	-1.1473052943123e-14	-1.22189118497202e-16	-1.74741732738081e-13	-7.82775349798301e-16	0.999998950309203	-0.000315248303121395
				-1.57681236589035e-12	-2.07763037384797e-14	1.38932321470647e-13	9.44848743229943e-16
			1.8901503080007e-14	2.11745360523037e-15	-3.6041783360839e-14	-3.62877948361949e-16	2.33814067332612e-13	-2.46226013697571e-15	-1.57681236589035e-12	-2.07763037384797e-14
				0.999998905946102	-0.000427261987049293	2.91222486636462e-08	7.05148410301731e-05
			-7.34821210479134e-14	-1.65534353026107e-15	3.97218406145913e-13	3.88499901761255e-16	8.98628114544868e-12	-3.83062053141491e-13	1.38932321470647e-13	9.44848743229943e-16
				2.91222486636462e-08	7.05148410301731e-05	0.999998915740412	-0.000402903836080101
133352.143216332	0.999998903842807	-0.000438433637165134	-1.00925884242342e-12	-1.90576896693034e-14	3.41510381876584e-13	-1.56131907647926e-14	-4.55627124161516e-15	5.63086344643056e-16
				-2.05444103652272e-14	-1.5890355957326e-14	-6.11231871778991e-15	1.1728283293243e-14
			-1.00925884242342e-12	-1.90576896693034e-14	0.999998802695576	-0.000626024851508862	-9.6230261009748e-14	-1.64898336238352e-15	-1.65753431458931e-14	-3.91933228227513e-15
				-6.44641375259567e-14	-1.13961013861373e-14	-2.95823201381945e-13	-2.60216389101592e-14
			3.41510381876584e-13	-1.56131907647926e-14	-9.6230261009748e-14	-1.64898336238352e-15	0.999998947552813	-0.000323337295670868	-4.80507286836119e-13	6.83880813260451e-15
				-3.73365133536303e-14	-3.75850507275041e-14	4.52079554787987e-13	-3.9457953439824e-13
			-4.55627124161516e-15	5.63086344643056e-16	-1.65753431458931e-14	-3.91933228227513e-15	-4.80507286836119e-13	6.83880813260451e-15	0.999998910094824	-0.00042039036790568
				-2.95625638572209e-12	-2.52363209690767e-14	2.52518342473267e-13	-1.18704865439031e-14
			-2.05444103652272e-14	-1.5890355957326e-14	-6.44641375259567e-14	-1.13961013861373e-14	-3.73365133536303e-14	-3.75850507275041e-14	-2.95625638572209e-12	-2.52363209690767e-14
				0.999998831227729	-0.000569763515265282	5.22933990218954e-08	9.40330302237002e-05
			-6.11231871778991e-15	1.1728283293243e-14	-2.95823201381945e-13	-2.60216389101592e-14	4.52079554787987e-13	-3.9457953439824e-13	2.52518342473267e-13	-1.18704865439031e-14
				5.22933990218954e-08	9.40330302237002e-05	0.999998850942752	-0.000537278007863934
177827.941003892	0.999998829058204	-0.000584660657219391	-1.79450953178574e-12	-4.71353958914594e-14	2.46384346951039e-13	-1.31315383733138e-14	-1.04881521642921e-14	2.44178551858016e-17
				-3.99484702989625e-14	-9.45590336682545e-15	-3.1529591908367e-14	5.58297731135814e-15
			-1.79450953178574e-12	-4.71353958914594e-14	0.999998650273342	-0.000834817452252266	-1.71132353486951e-13	-3.95268805565253e-15	-3.45404260849407e-14	-2.63524974323331e-15
				-1.14454748438074e-13	-7.11501054874378e-15	-4.80064707114997e-13	-2.17436152525202e-14
			2.46384346951039e-13	-1.31315383733138e-14	-1.71132353486951e-13	-3.95268805565253e-15	0.999998906861958	-0.000431177101243574	-4.81694504084197e-13	2.68263359046007e-15
				4.19407862746891e-16	-1.81415396503514e-14	-1.1560590785836e-12	-2.4642809760423e-13
			-1.04881521642921e-14	2.44178551858016e-17	-3.45404260849407e-14	-2.63524974323331e-15	-4.81694504084197e-13	2.68263359046007e-15	0.999998841340844	-0.000560599539846579
				-5.17528054145194e-12	-1.05560849236149e-13	4.62337309377028e-13	1.21102384683125e-15
			-3.99484702989625e-14	-9.45590336682545e-15	-1.14454748438074e-13	-7.11501054874378e-15	4.19407862746891e-16	-1.81415396503514e-14	-5.17528054145194e-12	-1.05560849236149e-13
				0.999998701804897	-0.000759791331019701	9.28114050528415e-08	0.000125395037366156
			-3.1529591908367e-14	5.58297731135814e-15	-4.80064707114997e-13	-2.17436152525202e-14	-1.1560590785836e-12	-2.4642809760423e-13	4.62337309377028e-13	1.21102384683125e-15
				9.28114050528415e-08	0.000125395037366156	0.999998736161435	-0.000716473930098683
237137.370566166	0.999998696066743	-0.000779657497677546	-3.19096394387334e-12	-1.12950851017064e-13	1.10689124783918e-13	-9.62708308823263e-15	-2.08311038073032e-14	-7.36730196540315e-16
				-7.24123098546486e-14	-2.02029548891589e-15	-7.61564216997267e-14	-2.91260473648263e-15
			-3.19096394387334e-12	-1.12950851017064e-13	0.999998379180312	-0.00111324678227566	-3.04332643173135e-13	-9.39975746037568e-15	-6.45114647683775e-14	-1.62992458603369e-15
				-2.02707795660653e-13	-5.08874529082628e-15	-7.76710444867635e-13	-1.779405117116e-14
			1.10689124783918e-13	-9.62708308823263e-15	-3.04332643173135e-13	-9.39975746037568e-15	0.999998834560987	-0.000574983790191398	-5.05457658215881e-13	-3.65161221190989e-15
				6.03797862996292e-14	4.09836699764045e-15	-3.72412525578883e-12	-1.20162113979414e-13
			-2.08311038073032e-14	-7.36730196540315e-16	-6.45114647683775e-14	-1.62992458603369e-15	-5.05457658215881e-13	-3.65161221190989e-15	0.999998719067878	-0.000747571448299063
				-9.13622715100902e-12	-2.83576696045634e-13	8.35213213252621e-13	2.26992129746493e-14
			-7.24123098546486e-14	-2.02029548891589e-15	-2.02707795660653e-13	-5.08874529082628e-15	6.03797862996292e-14	4.09836699764045e-15	-9.13622715100902e-12	-2.83576696045634e-13
				0.999998471456804	-0.00101319760998929	1.64861337213778e-07	0.0001672169159777
			-7.61564216997267e-14	-2.91260473648263e-15	-7.76710444867635e-13	-1.779405117116e-14	-3.72412525578883e-12	-1.20162113979414e-13	8.35213213252621e-13	2.26992129746493e-14
				1.64861337213778e-07	0.0001672169159777	0.999998529724288	-0.000955435348729912
316227.766016838	0.999998459571917	-0.00103968991136618	-5.67444287598708e-12	-2.68195154068503e-13	-8.72680193450783e-14	-5.09261423503773e-15	-3.8936435922334e-14	-1.91640613775085e-15
				-1.27634304494962e-13	5.02543682228195e-15	-1.54485417604301e-13	-1.48330878263116e-14
			-5.67444287598708e-12	-2.68195154068503e-13	0.999997897041608	-0.00148453806878052	-5.41215067198693e-13	-2.22978529286954e-14	-1.1558282283008e-13	-2.16577354887314e-15
				-3.59603075375868e-13	-8.84640598246864e-15	-1.26301747152708e-12	-1.78702231969762e-14
			-8.72680193450783e-14	-5.09261423503773e-15	-5.41215067198693e-13	-2.22978529286954e-14	0.999998705987508	-0.00076675314398893	-5.76183338175811e-13	-1.41188269268063e-14
				1.56611176329997e-13	2.67910332956105e-14	-7.89799611427256e-12	-1.0564656236323e-13
			-3.8936435922334e-14	-1.91640613775085e-15	-1.1558282283008e-13	-2.16577354887314e-15	-5.76183338175811e-13	-1.41188269268063e-14	0.999998501620207	-0.000996902429853988
				-1.61990202314111e-11	-6.89051433853249e-13	1.49723761411144e-12	6.23813486248447e-14
			-1.27634304494962e-13	5.02543682228195e-15	-3.59603075375868e-13	-8.84640598246864e-15	1.56611176329997e-13	2.67910332956105e-14	-1.61990202314111e-11	-6.89051433853249e-13
				0.999998061514483	-0.00135112033579999	2.92983061266779e-07	0.000222987215954949
			-1.54485417604301e-13	-1.48330878263116e-14	-1.26301747152708e-12	-1.78702231969762e-14	-7.89799611427256e-12	-1.0564656236323e-13	1.49723761411144e-12	6.23813486248447e-14
				2.92983061266779e-07	0.000222987215954949	0.999998162595562	-0.00127409367221196
421696.503428582	0.999998039051243	-0.00138644866969701	-1.00914048337807e-11	-6.35553486910547e-13	-3.85727361093168e-13	-6.1095406444742e-16	-7.11206625061544e-14	-2.28710139484195e-15
				-2.2250747948488e-13	6.54875542352318e-15	-2.92047743133236e-13	-3.11679984320911e-14
			-1.00914048337807e-11	-6.35553486910547e-13	0.999997039583293	-0.00197966248717009	-9.62801680163667e-13	-5.24794841131894e-14	-2.02930326780185e-13	-3.0503400672891e-15
				-6.39548353386936e-13	-2.52005854523909e-14	-2.07299569661276e-12	-3.26508826552797e-14
			-3.85727361093168e-13	-6.1095406444742e-16	-9.62801680163667e-13	-5.24794841131894e-14	0.999998477251441	-0.00102248166245028	-7.38810834864395e-13	-3.28423519970766e-14
				3.10708713791402e-13	4.37540536798987e-14	-1.47817025312275e-11	-4.24855918245816e-13
			-7.11206625061544e-14	-2.28710139484195e-15	-2.02930326780185e-13	-3.0503400672891e-15	-7.38810834864395e-13	-3.28423519970766e-14	0.999998114922053	-0.00132939047374647
				-2.87818363007941e-11	-1.62868580961596e-12	2.67154733942011e-12	1.44413682037038e-13
			-2.2250747948488e-13	6.54875542352318e-15	-6.39548353386936e-13	-2.52005854523909e-14	3.10708713791402e-13	4.37540536798987e-14	-2.87818363007941e-11	-1.62868580961596e-12
				0.999997332120035	-0.00180174727763146	5.20814954783911e-07	0.000297357936714693
			-2.92047743133236e-13	-3.11679984320911e-14	-2.07299569661276e-12	-3.26508826552797e-14	-1.47817025312275e-11	-4.24855918245816e-13	2.67154733942011e-12	1.44413682037038e-13
				5.20814954783911e-07	0.000297357936714693	0.999997510964507	-0.00169903040851279
562341.325190349	0.999997290040188	-0.00184885794441476	-1.79481162352314e-11	-1.5061370678458e-12	-8.62012723331804e-13	-1.94982215459936e-15	-1.26588609786512e-13	-8.15050048676812e-15
				-3.8227992376311e-13	-1.40780980546376e-14	-5.37236689550211e-13	-4.97999565292136e-14
			-1.79481162352314e-11	-1.5061370678458e-12	0.999995514674723	-0.00263992037402596	-1.71209749997306e-12	-1.25350198482633e-13	-3.6261839008729e-13	-2.17799390461759e-14
				-1.13911129503057e-12	-6.78061829414502e-14	-3.44005509454953e-12	-9.04038075868979e-14
			-8.62012723331804e-13	-1.94982215459936e-15	-1.71209749997306e-12	-1.25350198482633e-13	0.999998070431221	-0.00136350094806502	-1.07389698395112e-12	-6.74514404170528e-14
				5.49693604186536e-13	4.31806499296194e-14	-2.62467344331383e-11	-1.60394605324392e-12
			-1.26588609786512e-13	-8.15050048676812e-15	-3.6261839008729e-13	-2.17799390461759e-14	-1.07389698395112e-12	-6.74514404170528e-14	0.999997428340683	-0.00177277014501056
				-5.11816689425107e-11	-3.83045169890796e-12	4.75314217378761e-12	3.29100759997945e-13
			-3.8227992376311e-13	-1.40780980546376e-14	-1.13911129503057e-12	-6.78061829414502e-14	5.49693604186536e-13	4.31806499296194e-14	-5.11816689425107e-11	-3.83045169890796e-12
				0.999996034642405	-0.00240266708560285	9.25956853561701e-07	0.000396532486073075
			-5.37236689550211e-13	-4.97999565292136e-14	-3.44005509454953e-12	-9.04038075868979e-14	-2.62467344331383e-11	-1.60394605324392e-12	4.75314217378761e-12	3.29100759997945e-13
				9.25956853561701e-07	0.000396532486073075	0.999996352934548	-0.00226569183602386
749894.209332456	0.999995960465919	-0.00246549000048138	-3.19263946815761e-11	-3.57043708196069e-12	-1.73420312230487e-12	-4.7691179075331e-14	-2.18566953594792e-13	-2.1885532142928e-14
				-6.20459363723774e-13	-8.71946411539481e-14	-1.0424595353845e-12	-1.30256903987116e-13
			-3.19263946815761e-11	-3.57043708196069e-12	0.999992802824424	-0.00352038568653024	-3.04545996466766e-12	-2.97635011509946e-13	-6.48339323631562e-13	-5.70207628577052e-14
				-2.02841025640198e-12	-1.66510873303462e-13	-5.76955430449509e-12	-2.62099670458845e-13
			-1.73420312230487e-12	-4.7691179075331e-14	-3.04545996466766e-12	-2.97635011509946e-13	0.999997346970076	-0.00181825707513637	-1.72113515875045e-12	-1.20738456249181e-13
				8.89833112107041e-13	2.63962418508874e-14	-4.536441294696e-11	-4.82142745077746e-12
			-2.18566953594792e-13	-2.1885532142928e-14	-6.48339323631562e-13	-5.70207628577052e-14	-1.72113515875045e-12	-1.20738456249181e-13	0.999996204333159	-0.00236402560007324
				-9.10293260945824e-11	-9.03123111298423e-12	8.44319770548877e-12	7.66417916319869e-13
			-6.20459363723774e-13	-8.71946411539481e-14	-2.02841025640198e-12	-1.66510873303462e-13	8.89833112107041e-13	2.63962418508874e-14	-9.10293260945824e-11	-9.03123111298423e-12
				0.999993727015534	-0.0032040042908194	1.64639214520439e-06	0.000528782931167562
			-1.0424595353845e-12	-1.30256903987116e-13	-5.76955430449509e-12	-2.62099670458845e-13	-4.536441294696e-11	-4.82142745077746e-12	8.44319770548877e-12	7.66417916319869e-13
				1.64639214520439e-06	0.000528782931167562	0.999994293990908	-0.00302134518948024
1000000	0.999993595134322	-0.00328777997114427	-5.68053649470091e-11	-8.46547033244908e-12	-4.38790607344468e-12	-1.67605052691721e-12	-3.88517159764838e-13	-4.86135684883259e-14
				-9.61896563334794e-13	-1.75898661194859e-13	-1.88368367119673e-12	-1.91049649777478e-13
			-5.68053649470091e-11	-8.46547033244908e-12	0.999987980243741	-0.0046944985312938	-5.42011194469149e-12	-7.05297487236702e-13	-1.15191709467613e-12	-1.30476713001399e-13
				-3.60678181004361e-12	-3.91720267292991e-13	-9.74277097634945e-12	-7.20940836835467e-13
			-4.38790607344468e-12	-1.67605052691721e-12	-5.42011194469149e-12	-7.05297487236702e-13	0.999996060450231	-0.00242468320545614	-3.00471987110013e-12	-2.58890542301808e-14
				1.3652381918139e-12	1.16297546879087e-13	-7.68236265620584e-11	-1.21963087066127e-11
			-3.88517159764838e-13	-4.86135684883259e-14	-1.15191709467613e-12	-1.30476713001399e-13	-3.00471987110013e-12	-2.58890542301808e-14	0.999994029609906	-0.00315247533910486
				-1.61883929833918e-10	-2.13981011546116e-11	1.49933929687018e-11	1.82286859948897e-12
			-9.61896563334794e-13	-1.75898661194859e-13	-3.60678181004361e-12	-3.91720267292991e-13	1.3652381918139e-12	1.16297546879087e-13	-1.61883929833918e-10	-2.13981011546116e-11
				0.999989623161886	-0.00427259928717266	2.92739631023137e-06	0.000705139491618495
			-1.88368367119673e-12	-1.91049649777478e-13	-9.74277097634945e-12	-7.20940836835467e-13	-7.68236265620584e-11	-1.21963087066127e-11	1.49933929687018e-11	1.82286859948897e-12
				2.92739631023137e-06	0.000705139491618495	0.999990632772762	-0.00402902072427563
1500000	0.99998683928496	-0.00493165342080203	-1.28011464138527e-10	-2.8560080081957e-11	-3.070927591333e-12	-8.74322308895373e-13	-8.85503302335139e-13	-1.47082587870041e-13
				-2.04237474744965e-12	-3.60592941999575e-13	-4.31269765933279e-12	-8.00478812038802e-13
			-1.28011464138527e-10	-2.8560080081957e-11	0.999974206229955	-0.00704169947143297	-1.22234600098202e-11	-2.37798162806927e-12	-2.5746565182935e-12	-4.15780887963906e-13
				-8.09575236446204e-12	-1.29533197170027e-12	-2.00032888874076e-11	-3.85261877595864e-12
			-3.070927591333e-12	-8.74322308895373e-13	-1.22234600098202e-11	-2.37798162806927e-12	0.999992386021143	-0.00363701811118878	-7.71062527721842e-12	-1.54765741308976e-12
				2.90085085379712e-12	9.06281038115877e-13	-1.65355163275668e-10	-2.96647361311653e-11
			-8.85503302335139e-13	-1.47082587870041e-13	-2.5746565182935e-12	-4.15780887963906e-13	-7.71062527721842e-12	-1.54765741308976e-12	0.999987818305387	-0.00472869835918453
				-3.64436655054308e-10	-7.26286385685675e-11	3.37307460090922e-11	6.25292460166465e-12
			-2.04237474744965e-12	-3.60592941999575e-13	-8.09575236446204e-12	-1.29533197170027e-12	2.90085085379712e-12	9.06281038115877e-13	-3.64436655054308e-10	-7.26286385685675e-11
				0.999977901920428	-0.00640885968283534	6.58590143829144e-06	0.00105769175031018
			-4.31269765933279e-12	-8.00478812038802e-13	-2.00032888874076e-11	-3.85261877595864e-12	-1.65355163275668e-10	-2.96647361311653e-11	3.37307460090922e-11	6.25292460166465e-12
				6.58590143829144e-06	0.00105769175031018	0.999980176062495	-0.0060434978170068
2000000	0.999977381096188	-0.00657550689959043	-2.28055687148976e-10	-6.76567663076633e-11	-6.09799991226098e-12	-1.47670262636768e-12	-1.58012798693374e-12	-3.45801500331272e-13
				-3.63083302114589e-12	-7.95003345801144e-13	-7.66828715302411e-12	-1.94949445748216e-12
			-2.28055687148976e-10	-6.76567663076633e-11	0.99995492275342	-0.00938884224642304	-2.17983032598913e-11	-5.63382514511636e-12	-4.55729044762752e-12	-9.69493446629834e-13
				-1.4367650699337e-11	-3.05339790708329e-12	-3.7566470551041e-11	-9.5237460283927e-12
			-6.09799991226098e-12	-1.47670262636768e-12	-2.17983032598913e-11	-5.63382514511636e-12	0.999987241844505	-0.0048493450267169	-1.33367325277515e-11	-3.71212568119123e-12
				5.32924612449854e-12	2.26376170026046e-12	-2.97087606333449e-10	-9.80110760860877e-11
			-1.58012798693374e-12	-3.45801500331272e-13	-4.55729044762752e-12	-9.69493446629834e-13	-1.33367325277515e-11	-3.71212568119123e-12	0.999979122458255	-0.00630490385038492
				-6.49032332765808e-10	-1.72828634987936e-10	6.00957382996938e-11	1.49394127519031e-11
			-3.63083302114589e-12	-7.95003345801144e-13	-1.4367650699337e-11	-3.05339790708329e-12	5.32924612449854e-12	2.26376170026046e-12	-6.49032332765808e-10	-1.72828634987936e-10
				0.999961492343869	-0.00854507295780611	1.1708151327226e-05	0.00141022343345491
			-7.66828715302411e-12	-1.94949445748216e-12	-3.7566470551041e-11	-9.5237460283927e-12	-2.97087606333449e-10	-9.80110760860877e-11	6.00957382996938e-11	1.49394127519031e-11
				1.1708151327226e-05	0.00141022343345491	0.999965536752445	-0.00805793506599675
2500000	0.999965220664367	-0.0082193337673065	-3.57266656771182e-10	-1.32044867352831e-10	-9.56114412226364e-12	-2.79707391026996e-12	-2.46969396152515e-12	-6.65012410206728e-13
				-5.68536786681532e-12	-1.56116803835643e-12	-1.19941474868148e-11	-3.82174368152048e-12
			-3.57266656771182e-10	-1.32044867352831e-10	0.99993013024278	-0.0117359070862324	-3.41958823169879e-11	-1.09964066564308e-11	-7.10163717377603e-12	-1.89189798552356e-12
				-2.24475072919452e-11	-5.96460308503639e-12	-5.85490761891876e-11	-1.75116323458918e-11
			-9.56114412226364e-12	-2.79707391026996e-12	-3.41958823169879e-11	-1.09964066564308e-11	0.999980627942641	-0.00606166128658213	-2.08350713757935e-11	-7.12873325233956e-12
				8.49138652616092e-12	4.33249781121246e-12	-4.37653150095875e-10	-1.74386115574218e-10
			-2.46969396152515e-12	-6.65012410206728e-13	-7.10163717377603e-12	-1.89189798552356e-12	-2.08350713757935e-11	-7.12873325233956e-12	0.999967942145174	-0.00788108596141986
				-1.01665335608488e-09	-3.37893957145949e-10	9.41915768024023e-11	2.92552143191995e-11
			-5.68536786681532e-12	-1.56116803835643e-12	-2.24475072919452e-11	-5.96460308503639e-12	8.49138652616092e-12	4.33249781121246e-12	-1.01665335608488e-09	-3.37893957145949e-10
				0.999940394736783	-0.0106812234618777	1.82936500819924e-05	0.00176272776101267
			-1.19941474868148e-11	-3.82174368152048e-12	-5.85490761891876e-11	-1.75116323458918e-11	-4.37653150095875e-10	-1.74386115574218e-10	9.41915768024023e-11	2.92552143191995e-11
				1.82936500819924e-05	0.00176272776101267	0.999946714839334	-0.0100723191364045
3000000	0.999950358090438	-0.00986312737583199	-5.16048922913774e-10	-2.27993348135026e-10	-1.36705961242138e-11	-4.86801243456634e-12	-3.55342619980782e-12	-1.1446379086016e-12
				-8.20350756968829e-12	-2.73054268474428e-12	-1.73161369744693e-11	-6.60440660868432e-12
			-5.16048922913774e-10	-2.27993348135026e-10	0.999899827592674	-0.0140828768767092	-4.94816644260051e-11	-1.89846265116831e-11	-1.02156901243266e-11	-3.28090513217855e-12
				-3.23713029475235e-11	-1.03217635103529e-11	-8.42332566949419e-11	-2.98216874339457e-11
