!Generated from: C:\Users\nkfzm\OneDrive - University of Missouri\Desktop\Research\PowerSI\Board 7\b7_1.spd
! Port1_ic_port_1::pwr
!
!Layout Workbench Version: 24.1.0.10141.541387   000
!Computer Host Name: RS29JQCX3
!
!TouchstoneFormatFlag = 1
! GNDNET gnd
! NETSLIST 
!
#	Hz	S	RI	R	50
10000	0.999998998671456	-5.15469232927608e-05
13335.2143216332	0.999998996969244	-6.87389634718183e-05
17782.7941003892	0.999998995042342	-9.16644111295856e-05
23713.7370566166	0.999998992529136	-0.000122236296944385
31622.7766016838	0.999998986842193	-0.000163005336181465
42169.6503428582	0.999998976421776	-0.000217371242883742
56234.1325190349	0.999998957987883	-0.000289869191514241
74989.4209332456	0.999998925271552	-0.000386546706690043
100000	0.999998867127573	-0.000515468215164073
133352.143216332	0.999998763748758	-0.000687387776562852
177827.941003892	0.999998579918626	-0.000916646133005644
237137.370566166	0.999998253005706	-0.00122236690661596
316227.766016838	0.999997671463407	-0.00163005176751474
421696.503428582	0.999996637370068	-0.00217370804899365
562341.325190349	0.999994798803385	-0.00289868369745373
749894.209332456	0.999991529240952	-0.00386545059525781
1000000	0.999985714982704	-0.00515464648183918
1500000	0.999969108712819	-0.00773190684301974
2000000	0.999945859853684	-0.0103090912537139
2500000	0.999915969648646	-0.0128861743978932
3000000	0.999879438484481	-0.0154631314631238
3500000	0.999836266930552	-0.0180399371223357
4000000	0.9997864558124	-0.0206165660786798
4500000	0.999730006097034	-0.0231929930668331
5000000	0.999666918879261	-0.0257691928365136
5500000	0.999597195380517	-0.0283451401477557
6000000	0.999520836948965	-0.0309208097698676
6500000	0.999437845059619	-0.0334961764815342
7000000	0.999348221314412	-0.0360712150713205
7500000	0.999251967442195	-0.0386459003383331
8000000	0.999149085298709	-0.0412202070929496
8500000	0.99903957686652	-0.0437941101575794
9000000	0.998923444254955	-0.0463675843674401
9500000	0.998800689700011	-0.0489406045713421
10000000	0.998671315564262	-0.0515131456324766
11000000	0.99839271863289	-0.0566566898558563
12000000	0.998087674888809	-0.0617980162607773
13000000	0.997756207777803	-0.0669369243511471
14000000	0.997398342759167	-0.0720732139368593
15000000	0.99701410730101	-0.0772066851590123
16000000	0.996603530875182	-0.0823371385150601
17000000	0.996166644951836	-0.0874643748838872
18000000	0.99570348299363	-0.0925881955508022
19000000	0.995214080449584	-0.097708402232449
20000000	0.994698474748595	-0.102824797101634
22000000	0.993588813449649	-0.113045362523058
24000000	0.992374837859812	-0.123248319259335
26000000	0.991056917957059	-0.133432103630453
28000000	0.989635454687797	-0.143595161618403
30000000	0.988110879733549	-0.153735949659741
32000000	0.986483655352258	-0.163852935457621
34000000	0.98475427450224	-0.173944598821063
36000000	0.982923262097094	-0.18400943232223
38000000	0.980991181213488	-0.194045938243841
40000000	0.978958629715795	-0.204052577581407
42000000	0.976826032328855	-0.214027902449848
44000000	0.974594197491765	-0.22397062140204
46000000	0.972263799755108	-0.233879170338381
48000000	0.969835497418728	-0.243752130784912
50000000	0.967310001294216	-0.253588106430987
52000000	0.964688070021989	-0.263385727168696
54000000	0.961970473667612	-0.273143630162711
56000000	0.95915800737094	-0.282860471599308
58000000	0.956251490656684	-0.292534927382421
60000000	0.953251766852711	-0.302165693664365
62000000	0.950159702495397	-0.31175148735669
64000000	0.946976186722781	-0.321291046620851
66000000	0.943702130656304	-0.330783131338414
68000000	0.940338466771857	-0.340226523560548
70000000	0.936886148260951	-0.349620027936572
72000000	0.933346148382749	-0.358962472121363
74000000	0.929719459807751	-0.368252707161454
76000000	0.926007093953895	-0.37748960785969
78000000	0.922210080315867	-0.386672073118316
80000000	0.918329465788379	-0.395799026260439
82000000	0.914366313984192	-0.404869415329786
84000000	0.910321704547667	-0.413882213368764
86000000	0.906196732464578	-0.422836418674812
88000000	0.901992507368991	-0.431731055035089
90000000	0.897710152847906	-0.440565171939556
92000000	0.893350805744458	-0.449337844772567
94000000	0.888915615460365	-0.458048174983063
96000000	0.88440574325838	-0.466695290233533
98000000	0.879822361565424	-0.475278344527925
100000000	0.87516665327713	-0.483796518318683
102000000	0.870439811064447	-0.492249018593161
104000000	0.865643036683001	-0.500635078939645
106000000	0.860777540285837	-0.508953959593257
108000000	0.855844539740194	-0.517204947462049
110000000	0.850845259948927	-0.525387356133583
112000000	0.845780932177162	-0.533500525862334
114000000	0.840652793384781	-0.541543823538285
116000000	0.835462085565278	-0.549516642637067
118000000	0.83021005509154	-0.557418403152034
120000000	0.824897952069067	-0.565248551508694
122000000	0.819527029697123	-0.573006560461885
124000000	0.814098543638305	-0.580691928976156
126000000	0.80861375139698	-0.588304182089778
128000000	0.80307391170702	-0.595842870762851
130000000	0.797480283929254	-0.603307571709967
132000000	0.791834127459022	-0.610697887217906
134000000	0.786136701144201	-0.618013444948853
136000000	0.780389262714037	-0.62525389772962
138000000	0.774593068219133	-0.632418923327379
140000000	0.76874937148286	-0.639508224212393
142000000	0.762859423564496	-0.646521527308273
144000000	0.756924472234335	-0.653458583730257
146000000	0.750945761461014	-0.660319168512019
148000000	0.744924530911258	-0.667103080321546
150000000	0.738862015462251	-0.673810141166567
152000000	0.732759444726794	-0.680440196090069
154000000	0.726618042591402	-0.686993112856413
156000000	0.720439026767486	-0.693468781628549
158000000	0.714223608355709	-0.699867114636857
160000000	0.707972991423631	-0.706188045840098
162000000	0.701688372596695	-0.712431530578999
164000000	0.695370940662636	-0.71859754522296
166000000	0.689021876189317	-0.724686086810365
168000000	0.682642351156044	-0.730697172683006
170000000	0.676233528598341	-0.736630840115071
172000000	0.669796562266181	-0.742487145937199
174000000	0.66333259629564	-0.748266166156039
176000000	0.656842764893933	-0.753967995569791
178000000	0.65032819203777	-0.759592747380163
180000000	0.643789991184958	-0.765140552801192
182000000	0.637229264999162	-0.770611560665361
184000000	0.630647105087727	-0.776005937027421
186000000	0.624044591752449	-0.781323864766341
188000000	0.617422793753165	-0.786565543185782
190000000	0.610782768084033	-0.791731187613484
192000000	0.604125559762349	-0.796821028999949
194000000	0.597452201629755	-0.801835313516782
196000000	0.590763714165662	-0.806774302155059
198000000	0.584061105312717	-0.811638270324052
200000000	0.577345370314136	-0.816427507450665
202000000	0.570617491562698	-0.82114231657989
204000000	0.563878438461227	-0.825783013976596
206000000	0.557129167294326	-0.83034992872897
208000000	0.550370621111181	-0.834843402353867
210000000	0.5436037296192	-0.839263788404378
212000000	0.536829409088274	-0.843611452079863
214000000	0.530048562265434	-0.847886769838711
216000000	0.523262078299663	-0.852090129014069
218000000	0.516470832676655	-0.85622192743277
220000000	0.50967568716325	-0.860282573037683
222000000	0.502877489761334	-0.864272483513692
224000000	0.496077074670946	-0.868192085917507
226000000	0.489275262262361	-0.872041816311493
228000000	0.482472859056887	-0.875822119401686
230000000	0.475670657716148	-0.879533448180174
232000000	0.468869437039593	-0.883176263571998
234000000	0.462069961969994	-0.886751034086703
236000000	0.455272983606675	-0.890258235474701
238000000	0.448479239226236	-0.893698350388549
240000000	0.441689452310527	-0.897071868049267
242000000	0.434904332581608	-0.90037928391781
244000000	0.428124576043482	-0.90362109937178
246000000	0.421350865030329	-0.906797821387472
248000000	0.414583868261026	-0.909909962227344
250000000	0.407824240899696	-0.912958039132958
252000000	0.401072624622062	-0.915942574023487
254000000	0.394329647687367	-0.918864093199824
256000000	0.387595925015635	-0.921723127054338
258000000	0.380872058270033	-0.924520209786338
260000000	0.374158635944134	-0.927255879123261
262000000	0.367456233453828	-0.929930676047611
264000000	0.360765413233687	-0.932545144529679
266000000	0.35408672483757	-0.935099831266052
268000000	0.347420705043232	-0.937595285423917
270000000	0.340767877960765	-0.940032058391162
272000000	0.334128755144643	-0.942410703532271
274000000	0.327503835709181	-0.944731775950001
276000000	0.320893606447215	-0.946995832252831
278000000	0.314298541951803	-0.949203430328152
280000000	0.30771910474078	-0.951355129121187
282000000	0.30115574538396	-0.953451488419603
284000000	0.294608902632823	-0.955493068643776
286000000	0.288079003552514	-0.957480430642691
288000000	0.28156646365597	-0.959414135495412
290000000	0.275071687040032	-0.961294744318089
292000000	0.268595066523364	-0.963122818076455
294000000	0.262136983786023	-0.964898917403756
296000000	0.255697809510548	-0.966623602424057
298000000	0.249277903524395	-0.968297432580876
300000000	0.242877614943591	-0.969920966471069
302000000	0.236497282317461	-0.971494761683925
304000000	0.230137233774304	-0.973019374645384
306000000	0.223797787167874	-0.974495360467323
308000000	0.217479250224548	-0.975923272801843
310000000	0.211181920691063	-0.977303663700468
312000000	0.204906086482693	-0.978637083478212
314000000	0.198652025831772	-0.97992408058241
316000000	0.192420007436424	-0.98116520146626
318000000	0.186210290609434	-0.982360990466984
320000000	0.180023125427117	-0.983511989688537
322000000	0.173858752878126	-0.984618738888793
324000000	0.167717405012078	-0.985681775371108
326000000	0.16159930508792	-0.986701633880201
328000000	0.155504667721951	-0.987678846502258
330000000	0.14943369903541	-0.988613942569185
332000000	0.14338659680156	-0.989507448566928
334000000	0.137363550592187	-0.990359888047774
336000000	0.131364741923439	-0.991171781546555
338000000	0.125390344400953	-0.991943646500673
340000000	0.119440523864177	-0.992675997173862
342000000	0.113515438529859	-0.993369344583608
344000000	0.107615239134614	-0.994024196432138
346000000	0.10174006907653	-0.994641057040915
348000000	0.095890064555759	-0.995220427288534
350000000	0.0900653547140327	-0.995762804551955
352000000	0.0842660617730723	-0.99626868265099
354000000	0.0784923011718365	-0.996738551795961
356000000	0.0727441817025626	-0.997172898538456
358000000	0.0670218056455767	-0.997572205725094
360000000	0.0613252689028259	-0.997936952454238
362000000	0.0556546611300932	-0.998267614035566
364000000	0.0500100658678814	-0.998564661952427
366000000	0.044391560670916	-0.998828563826914
368000000	0.0387992172362578	-0.99905978338757
370000000	0.0332331015299843	-0.999258780439656
372000000	0.0276932739124301	-0.999426010837923
374000000	0.0221797892619597	-0.999561926461791
376000000	0.0166926970972493	-0.999666975192889
378000000	0.0112320416980704	-0.999741600894869
380000000	0.00579786222455279	-0.999786243395439
382000000	0.000390192834910972	-0.999801338470541
384000000	-0.00499093719836494	-0.999787317830606
386000000	-0.0103455033738808	-0.999744609108826
388000000	-0.0156734858482734	-0.999673635851385
390000000	-0.0209748693247078	-0.999574817509563
392000000	-0.0262496429429608	-0.99944856943368
394000000	-0.0314978001710811	-0.999295302868803
396000000	-0.0367193386986337	-0.99911542495216
398000000	-0.0419142603315301	-0.998909338712197
400000000	-0.0470825708884462	-0.998677443069245
402000000	-0.0522242800988265	-0.998420132837699
404000000	-0.0573394015024729	-0.998137798729699
406000000	-0.0624279523507147	-0.997830827360225
408000000	-0.0674899535091592	-0.997499601253575
410000000	-0.0725254293620127	-0.997144498851167
412000000	-0.0775344077179765	-0.996765894520608
414000000	-0.0825169197176965	-0.996364158565994
416000000	-0.0874729997427777	-0.995939657239386
418000000	-0.092402685326335	-0.995492752753414
420000000	-0.0973060170650929	-0.995023803294963
422000000	-0.10218303853301	-0.994533163039906
424000000	-0.107033796196421	-0.994021182168823
426000000	-0.111858339330688	-0.99348820688368
428000000	-0.116656719938357	-0.992934579425421
430000000	-0.121428992668786	-0.99236063809242
432000000	-0.126175214739262	-0.991766717259781
434000000	-0.130895445857567	-0.991153147399422
436000000	-0.135589748145998	-0.990520255100913
438000000	-0.140258186066821	-0.989868363093041
440000000	-0.144900826349145	-0.989197790266057
442000000	-0.149517737917196	-0.988508851694568
444000000	-0.154108991819996	-0.987801858661054
446000000	-0.158674661162403	-0.987077118679962
448000000	-0.163214821037525	-0.986334935522359
450000000	-0.167729548460472	-0.985575609241095
452000000	-0.172218922303438	-0.984799436196473
454000000	-0.176683023232107	-0.984006709082372
456000000	-0.181121933643345	-0.983197716952804
458000000	-0.185535737604182	-0.982372745248886
460000000	-0.189924520792054	-0.981532075826185
462000000	-0.1942883704363	-0.980675986982425
464000000	-0.19862737526089	-0.979804753485518
466000000	-0.202941625428362	-0.978918646601909
468000000	-0.20723121248497	-0.978017934125199
470000000	-0.211496229307005	-0.977102880405026
472000000	-0.215736770048286	-0.976173746376195
474000000	-0.219952930088793	-0.975230789588017
476000000	-0.224144805984447	-0.974274264233847
478000000	-0.228312495417982	-0.973304421180802
480000000	-0.23245609715094	-0.972321507999636
482000000	-0.236575710976722	-0.971325768994756
484000000	-0.240671437674725	-0.97031744523436
486000000	-0.244743378965514	-0.969296774580678
488000000	-0.248791637467028	-0.968263991720308
490000000	-0.252816316651799	-0.96721932819462
492000000	-0.256817520805168	-0.966163012430216
494000000	-0.260795354984491	-0.965095269769439
496000000	-0.264749924979291	-0.964016322500904
498000000	-0.268681337272381	-0.96292638989005
500000000	-0.272589699001899	-0.961825688209685
505000000	-0.282260465685558	-0.959028211974372
510000000	-0.291789540311774	-0.956168007675268
515000000	-0.301178641165364	-0.95324821721359
520000000	-0.310429502746402	-0.950271873904401
525000000	-0.319543872793039	-0.947241905412915
530000000	-0.328523509492451	-0.944161136664497
535000000	-0.337370178871114	-0.941032292723584
540000000	-0.346085652355856	-0.937858001637318
545000000	-0.354671704497418	-0.934640797240147
550000000	-0.363130110848504	-0.931383121916164
555000000	-0.371462645988593	-0.928087329316339
560000000	-0.379671081688047	-0.92475568702821
565000000	-0.387757185204331	-0.921390379195981
570000000	-0.395722717703424	-0.917993509089264
575000000	-0.403569432799794	-0.914567101619064
580000000	-0.411299075208536	-0.911113105799844
585000000	-0.418913379503596	-0.907633397156781
590000000	-0.426414068976191	-0.904129780077551
595000000	-0.433802854587851	-0.900603990108206
600000000	-0.441081434012727	-0.897057696192877
605000000	-0.448251490764033	-0.893492502857227
610000000	-0.455314693399775	-0.889909952335734
615000000	-0.462272694803089	-0.886311526643013
620000000	-0.469127131532771	-0.882698649589521
625000000	-0.475879623239779	-0.879072688742103
630000000	-0.482531772145693	-0.875434957329933
635000000	-0.489085162579322	-0.871786716096489
640000000	-0.495541360567824	-0.868129175098279
645000000	-0.501901913478912	-0.864463495451121
650000000	-0.508168349710876	-0.860790791024799
655000000	-0.514342178427328	-0.857112130087013
660000000	-0.520424889333733	-0.853428536897544
665000000	-0.526417952492951	-0.849740993253623
670000000	-0.532322818177171	-0.846050439987494
675000000	-0.538140916753733	-0.842357778417209
680000000	-0.543873658602499	-0.83866387175169
685000000	-0.549522434062552	-0.834969546451128
690000000	-0.555088613406119	-0.83127559354377
695000000	-0.560573546837742	-0.827582769900193
700000000	-0.565978564518492	-0.823891799447361
705000000	-0.571304976559035	-0.820203374589051
710000000	-0.576554073251582	-0.816518156744985
715000000	-0.581727124960467	-0.812836778091167
720000000	-0.586825382295919	-0.809159842416363
725000000	-0.591850076229003	-0.805487926163635
730000000	-0.596802418220795	-0.801821579436747
735000000	-0.601683600364581	-0.798161326972478
740000000	-0.606494795539921	-0.794507669079823
745000000	-0.611237157577505	-0.790861082547088
750000000	-0.61591182143379	-0.787222021517832
755000000	-0.620519903374465	-0.783590918336604
760000000	-0.625062501165856	-0.779968184365415
765000000	-0.629540694273443	-0.776354210771846
770000000	-0.633955544066698	-0.772749369289689
775000000	-0.638308094029537	-0.76915401295298
780000000	-0.642599369975675	-0.765568476804295
785000000	-0.646830380268286	-0.761993078578111
790000000	-0.651002116043329	-0.758428119360062
795000000	-0.655115551436035	-0.754873884222866
800000000	-0.659171643810003	-0.751330642839694
805000000	-0.663171333988444	-0.747798650075724
810000000	-0.667115546487118	-0.744278146558614
815000000	-0.671005189748562	-0.740769359228584
820000000	-0.674841156377212	-0.737272501868811
825000000	-0.678624323375063	-0.733787775616783
830000000	-0.682355552377555	-0.730315369457277
835000000	-0.686035689889353	-0.726855460697576
840000000	-0.689665567519761	-0.72340821542553
845000000	-0.693246002217504	-0.719973788951067
850000000	-0.696777796504636	-0.716552326231703
855000000	-0.700261738709354	-0.713143962282623
860000000	-0.703698603197524	-0.709748822571861
865000000	-0.707089150602728	-0.706367023401095
870000000	-0.710434128054665	-0.702998672272568
875000000	-0.713734269405755	-0.699643868242611
880000000	-0.716990295455807	-0.696302702262253
885000000	-0.720202914174617	-0.692975257505348
890000000	-0.723372820922395	-0.689661609684693
895000000	-0.726500698667911	-0.686361827356532
900000000	-0.729587218204268	-0.683075972213871
905000000	-0.732633038362222	-0.679804099369002
910000000	-0.735638806220984	-0.676546257625622
915000000	-0.738605157316423	-0.673302489740901
920000000	-0.741532715846633	-0.670072832677883
925000000	-0.744422094874814	-0.666857317848544
930000000	-0.747273896529414	-0.663655971347859
935000000	-0.750088712201506	-0.660468814179182
940000000	-0.752867122739379	-0.657295862471269
945000000	-0.755609698640316	-0.654137127687231
950000000	-0.758317000239526	-0.650992616825714
955000000	-0.760989577896255	-0.647862332614586
960000000	-0.763627972177026	-0.644746273697398
965000000	-0.766232714036042	-0.64164443481288
970000000	-0.768804324992722	-0.638556806967732
975000000	-0.771343317306403	-0.635483377602935
980000000	-0.773850194148189	-0.632424130753838
985000000	-0.776325449769975	-0.629379047204228
990000000	-0.778769569670657	-0.626348104634612
995000000	-0.781183030759531	-0.623331277764918
1000000000	-0.783566301516923	-0.620328538491817
1005000000	-0.785919842152043	-0.617339856020857
1010000000	-0.788244104758106	-0.61436519699361
1015000000	-0.79053953346474	-0.61140452561
1020000000	-0.792806564587692	-0.608457803745991
1025000000	-0.795045626775879	-0.605524991066815
1030000000	-0.797257141155803	-0.602606045135875
1035000000	-0.799441521473354	-0.599700921519521
1040000000	-0.801599174233046	-0.596809573887808
1045000000	-0.803730498834699	-0.593931954111407
1050000000	-0.805835887707615	-0.591068012354811
1055000000	-0.807915726442274	-0.588217697165953
1060000000	-0.809970393919578	-0.585380955562378
1065000000	-0.81200026243769	-0.582557733114108
1070000000	-0.814005697836493	-0.579747974023287
1075000000	-0.815987059619698	-0.576951621200759
1080000000	-0.817944701074653	-0.57416861633967
1085000000	-0.819878969389876	-0.571398899986208
1090000000	-0.821790205770341	-0.568642411607588
1095000000	-0.823678745550574	-0.565899089657381
1100000000	-0.82554491830557	-0.563168871638282
1105000000	-0.827389047959586	-0.560451694162414
1110000000	-0.829211452892823	-0.557747493009258
1115000000	-0.831012446046067	-0.555056203181295
1120000000	-0.832792335023278	-0.552377758957442
1125000000	-0.834551422192207	-0.549712093944367
1130000000	-0.836290004783041	-0.547059141125754
1135000000	-0.838008374985132	-0.544418832909606
1140000000	-0.839706820041833	-0.541791101173639
