!Generated from: C:\Users\nkfzm\OneDrive - University of Missouri\Desktop\Research\PowerSI\Board 7\b7_2.spd
! Port1_ic_port_1::pwr
!
!Layout Workbench Version: 24.1.0.10141.541387   000
!Computer Host Name: RS29JQCX3
!
!TouchstoneFormatFlag = 1
! GNDNET gnd
! NETSLIST 
!
#	Hz	Z	RI	R	1
10000	37620.9874298964	-1939247.6687294
13335.2143216332	21158.3052804926	-1454464.51882454
17782.7941003892	11899.576562004	-1090798.08989913
23713.7370566166	6692.136421925	-818027.212485705
31622.7766016838	3763.44911456507	-613452.635352875
42169.6503428582	2116.3454905554	-460032.566037252
56234.1325190349	1190.12921072967	-344980.351118684
74989.4209332456	669.381518839449	-258699.534619153
100000	376.395735614834	-193997.889531006
133352.143216332	211.639482582021	-145478.144007902
177827.941003892	118.996985535487	-109093.304549599
237137.370566166	66.9131907795686	-81808.4536270773
316227.766016838	37.6354294601853	-61347.6743491375
421696.503428582	21.1711614348448	-46004.244829342
562341.325190349	11.9013610045438	-34498.3023298878
749894.209332456	6.68696079436676	-25870.0766826737
1000000	3.75918476875102	-19399.8227545559
1500000	1.67164426933738	-12933.2148524107
2000000	0.940907848217759	-9699.90911743044
2500000	0.602292854336371	-7759.92513876591
3000000	0.418230643480687	-6466.60225983665
3500000	0.30725146807269	-5542.79995571435
4000000	0.235237746359001	-4849.94796955022
4500000	0.185873344574738	-4311.06285211607
5000000	0.150565548082944	-3879.95454319648
5500000	0.124441378282881	-3527.22937004037
6000000	0.104570386665494	-3233.29155080078
6500000	0.0891044003780276	-2984.57477460327
7000000	0.0768309983363741	-2771.38881905476
7500000	0.0669280286867785	-2586.62752081298
8000000	0.0588220023204619	-2424.96125719249
8500000	0.0521030022439776	-2282.31443425101
9000000	0.0464717257558555	-2155.51714550277
9500000	0.0417055031146548	-2042.06683313528
10000000	0.0376359010628093	-1939.96145085544
11000000	0.0310980115254271	-1763.59733332963
12000000	0.0261261519083665	-1616.6268992981
13000000	0.0222585376797108	-1492.26699144161
14000000	0.0191921293284374	-1385.67249727715
15000000	0.0167213741261112	-1293.29033424929
16000000	0.014702854132809	-1212.45569039899
17000000	0.0130340355234094	-1141.13076831842
18000000	0.0116400385947481	-1077.73061445013
19000000	0.0104651462072787	-1021.00394965772
20000000	0.00946720586160561	-969.949750623815
22000000	0.00787989516319626	-881.764677734152
24000000	0.00669487933751112	-808.276448263571
26000000	0.00579652467727738	-746.093483132944
28000000	0.00510893020834871	-692.793225844838
30000000	0.00458060026309491	-646.599134964036
32000000	0.00417559726757497	-606.178804415066
34000000	0.00386822252270948	-570.513335437904
36000000	0.00363970407147732	-538.81025122424
38000000	0.00347607050154303	-510.443912194411
40000000	0.00336674905505785	-484.913806690938
42000000	0.00330361917414895	-461.81475861658
44000000	0.00328035988052604	-440.815260261869
46000000	0.00329199118006326	-421.641457438433
48000000	0.0033345462442216	-404.065138328924
50000000	0.00340483342543979	-387.894605012929
52000000	0.00347379960805228	-372.967652344414
54000000	0.00354158176058785	-359.14610367959
56000000	0.00360826798616468	-346.311523000034
58000000	0.00367392912899751	-334.361810278298
60000000	0.00373862325368723	-323.20847881371
62000000	0.00380239894389548	-312.774459535423
64000000	0.0038652977277315	-302.992316998604
66000000	0.00392735586866121	-293.802789744907
68000000	0.00398860566893372	-285.153588246348
70000000	0.00404907643377671	-276.998398915878
72000000	0.00410879516038808	-269.29605411616
74000000	0.00416778704135737	-262.009836761454
76000000	0.00422607582723209	-255.106894719162
78000000	0.00428368407975585	-248.557745303393
80000000	0.00434063335324149	-242.33585409446
82000000	0.00439694432066702	-236.417275394504
84000000	0.00445263686057883	-230.780344046569
86000000	0.00450773011787761	-225.40541025564
88000000	0.00456224254597591	-220.274610570415
90000000	0.00461619193478036	-215.371669400824
92000000	0.00466959543391284	-210.681726424545
94000000	0.00472246956841965	-206.191186026712
96000000	0.00477483025359456	-201.887585559646
98000000	0.00482669280760483	-197.759479734034
100000000	0.00487807196491576	-193.796338883157
102000000	0.00492898188877278	-189.988459196019
104000000	0.0049794361870684	-186.32688330819
106000000	0.0050294479250433	-182.803329882352
108000000	0.00507902964274448	-179.410131013228
110000000	0.00512819337113081	-176.140176461056
112000000	0.00517695064955505	-172.986863860046
114000000	0.00522531254286365	-169.944054168052
116000000	0.00527328966014312	-167.006031724888
118000000	0.00532089217284908	-164.167468372514
120000000	0.00536812983289892	-161.423391163201
122000000	0.00541501199101642	-158.769153243942
124000000	0.00546154761486599	-156.200407558493
126000000	0.00550774530641514	-153.713083053986
128000000	0.00555361331926572	-151.303363118175
130000000	0.00559915957553129	-148.96766600708
132000000	0.00564439168144612	-146.702627051942
134000000	0.00568931694378667	-144.505082459582
136000000	0.00573394238419117	-142.372054542144
138000000	0.00577827475380033	-140.300738231203
140000000	0.00582232054682911	-138.288488747809
142000000	0.00586608601334438	-136.332810314496
144000000	0.00590957717210563	-134.431345807963
146000000	0.00595279982206398	-132.581867262215
148000000	0.00599575955336912	-130.782267141718
150000000	0.00603846175806028	-129.030550312706
152000000	0.00608091163992669	-127.324826648329
154000000	0.00612311422375366	-125.663304210025
156000000	0.00616507436431685	-124.044282953401
158000000	0.00620679675457171	-122.466148912148
160000000	0.00624828593344819	-120.927368818163
162000000	0.00628954629370043	-119.426485120181
164000000	0.00633058208776383	-117.962111366894
166000000	0.00637139743529404	-116.532927923826
168000000	0.00641199632885634	-115.137677996142
170000000	0.00645238263991573	-113.775163932197
172000000	0.00649256012365169	-112.444243784987
174000000	0.00653253242498892	-111.143828110726
176000000	0.0065723030825874	-109.872876985717
178000000	0.00661187553370507	-108.630397224323
180000000	0.00665125311858208	-107.415439782411
182000000	0.00669043908423597	-106.227097331994
184000000	0.00672943658828897	-105.064501994054
186000000	0.00676824870266482	-103.926823217629
188000000	0.00680687841681122	-102.813265794277
190000000	0.00684532864095838	-101.723067997951
192000000	0.00688360220936454	-100.65549984112
194000000	0.00692170188264411	-99.6098614387656
196000000	0.00695963035106534	-98.5854814725417
198000000	0.00699739023680471	-97.5817157480138
200000000	0.00703498409640302	-96.5979458384642
202000000	0.00707241442320149	-95.6335778092638
204000000	0.00710968364944077	-94.6880410172805
206000000	0.00714679414847912	-93.7607869802246
208000000	0.00718374823674012	-92.8512883112251
210000000	0.00722054817553494	-91.9590377142861
212000000	0.00725719617303867	-91.0835470366056
214000000	0.007293694385919	-90.224346374034
216000000	0.00733004492111461	-89.3809832262298
218000000	0.0073662498372664	-88.5530216983209
220000000	0.00740231114647885	-87.7400417461108
222000000	0.00743823081547398	-86.9416384620852
224000000	0.00747401076728578	-86.1574213996675
226000000	0.00750965288241061	-85.3870139333554
228000000	0.00754515900016509	-84.6300526525334
230000000	0.00758053092001832	-83.8861867869135
232000000	0.00761577040257255	-83.1550776616941
234000000	0.00765087917090598	-82.4363981806587
236000000	0.00768585891154279	-81.7298323355594
238000000	0.00772071127559369	-81.0350747402354
240000000	0.00775543787985826	-80.3518301880269
242000000	0.00779004030744102	-79.679813231135
244000000	0.00782452010928326	-79.0187477806687
246000000	0.00785887880452228	-78.368366726202
248000000	0.00789311788172402	-77.7284115737392
250000000	0.00792723879952068	-77.0986321010583
252000000	0.00796124298774869	-76.478786029466
254000000	0.00799513184782711	-75.8686387110612
256000000	0.00802890675373029	-75.2679628306569
258000000	0.00806256905289273	-74.6765381215673
260000000	0.00809612006660725	-74.0941510945118
262000000	0.00812956109087472	-73.5205947789353
264000000	0.00816289339717812	-72.9556684760874
266000000	0.00819611823292995	-72.3991775232408
268000000	0.00822923682214038	-71.8509330684663
270000000	0.00826225036627275	-71.3107518554184
272000000	0.00829516004435656	-70.7784560176158
274000000	0.00832796701404059	-70.253872881731
276000000	0.00836067241179738	-69.7368347794331
278000000	0.00839327735368301	-69.2271788673519
280000000	0.0084257829356718	-68.7247469547579
282000000	0.00845819023428048	-68.2293853385759
284000000	0.00849050030697384	-67.7409446453685
286000000	0.00852271419275157	-67.2592796799508
288000000	0.00855483291240124	-66.784249280312
290000000	0.00858685746910828	-66.3157161785412
292000000	0.00861878884892468	-65.8535468674672
294000000	0.0086506280208805	-65.3976114727431
296000000	0.00868237593775772	-64.9477836301154
298000000	0.00871403353624717	-64.5039403676359
300000000	0.0087456017374262	-64.0659619925854
302000000	0.00877708144701761	-63.6337319828893
304000000	0.00880847355592373	-63.2071368828211
306000000	0.00883977894031866	-62.7860662027944
308000000	0.00887099846226284	-62.3704123230602
310000000	0.00890213296984413	-61.9600704011317
312000000	0.0089331832974975	-61.5549382827689
314000000	0.00896415026642398	-61.1549164163667
316000000	0.00899503468473065	-60.7599077705927
318000000	0.0090258373479083	-60.3698177551333
320000000	0.0090565590389041	-59.9845541444123
322000000	0.00908720052862589	-59.6040270041516
324000000	0.00911776257593548	-59.2281486206529
326000000	0.00914824592814622	-58.8568334326809
328000000	0.00917865132114547	-58.4899979658405
330000000	0.00920897947967466	-58.1275607693385
332000000	0.00923923111759606	-57.7694423550323
334000000	0.00926940693801862	-57.4155651386679
336000000	0.0092995076336542	-57.0658533832166
338000000	0.00932953388696939	-56.7202331442236
340000000	0.00935948637029428	-56.3786322170849
342000000	0.00938936574631855	-56.0409800861751
344000000	0.00941917266797153	-55.707207875749
346000000	0.0094489077787859	-55.377248302546
348000000	0.00947857171307161	-55.0510356300299
350000000	0.00950816509608538	-54.7285056241959
352000000	0.00953768854422416	-54.409595510886
354000000	0.00956714266515697	-54.0942439345498
356000000	0.00959652805805732	-53.7823909183964
358000000	0.00962584531373319	-53.4739778258813
360000000	0.00965509501481872	-53.1689473234781
362000000	0.00968427773587055	-52.8672433446826
364000000	0.00971339404360931	-52.5688110552054
366000000	0.00974244449700421	-52.2735968193044
368000000	0.00977142964743062	-51.9815481672158
370000000	0.00980035003889098	-51.6926137636413
372000000	0.00982920620801777	-51.4067433772516
374000000	0.00985799868427935	-51.1238878511687
376000000	0.00988672799022493	-50.8439990743901
378000000	0.00991539464135235	-50.5670299541201
380000000	0.00994399914653216	-50.292934388975
382000000	0.00997254200791226	-50.02166724303
384000000	0.0100010237211192	-49.753184320677
386000000	0.0100294447754033	-49.4874423422641
388000000	0.0100578056537031	-49.2243989204887
390000000	0.0100861068327752	-48.9640125375165
392000000	0.0101143487833875	-48.7062425228015
394000000	0.0101425319702112	-48.4510490315811
396000000	0.0101706568522006	-48.1983930240232
398000000	0.0101987238824668	-47.9482362450014
400000000	0.0102267335085443	-47.7005412044782
402000000	0.0102546861723418	-47.455271158472
404000000	0.0102825823104224	-47.2123900905913
406000000	0.0103104223538451	-46.9718626941132
408000000	0.0103382067285609	-46.7336543545898
410000000	0.0103659358552372	-46.4977311329635
412000000	0.0103936101494698	-46.2640597491742
414000000	0.0104212300218894	-46.0326075662411
416000000	0.0104487958781676	-45.8033425748044
418000000	0.0104763081191877	-45.5762333781105
420000000	0.0105037671410339	-45.3512491774262
422000000	0.0105311733351443	-45.1283597578673
424000000	0.0105585270883454	-44.9075354746288
426000000	0.0105858287829617	-44.688747239603
428000000	0.0106130787968516	-44.4719665083724
430000000	0.0106402775034978	-44.2571652675656
432000000	0.0106674252721063	-44.0443160225648
434000000	0.0106945224676131	-43.8333917855529
436000000	0.0107215694508183	-43.6243660638898
438000000	0.010748566578411	-43.4172128488067
440000000	0.0107755142030552	-43.2119066044095
442000000	0.0108024126734431	-43.0084222569798
444000000	0.0108292623343672	-42.806735184566
446000000	0.0108560635267738	-42.6068212068536
448000000	0.0108828165878068	-42.4086565753076
450000000	0.0109095218509003	-42.2122179635774
452000000	0.0109361796458383	-42.0174824581561
454000000	0.0109627902987913	-41.8244275492875
456000000	0.0109893541323407	-41.6330311221117
458000000	0.0110158714656185	-41.4432714480428
460000000	0.0110423426142962	-41.2551271763719
462000000	0.011068767890604	-41.0685773260881
464000000	0.011095147603502	-40.8836012779104
466000000	0.0111214820586454	-40.7001787665255
468000000	0.0111477715583924	-40.5182898730247
470000000	0.0111740164019703	-40.3379150175331
472000000	0.0112002168854215	-40.1590349520272
474000000	0.0112263733017253	-39.9816307533333
476000000	0.0112524859408036	-39.8056838163033
478000000	0.0112785550895317	-39.6311758471616
480000000	0.0113045810318495	-39.4580888570176
482000000	0.0113305640487815	-39.2864051555409
484000000	0.0113565044184756	-39.1161073447924
486000000	0.0113824024161997	-38.9471783132082
488000000	0.0114082583145022	-38.779601229731
490000000	0.011434072383104	-38.6133595380857
492000000	0.0114598448890578	-38.4484369511945
494000000	0.0114855760967141	-38.2848174457273
496000000	0.0115112662677971	-38.1224852567845
498000000	0.0115369156614173	-37.9614248727073
500000000	0.0115625245341357	-37.8016210300133
505000000	0.0116263710978182	-37.4075108069807
510000000	0.0116899698882105	-37.0209324745987
515000000	0.0117533247127073	-36.6416666289192
520000000	0.0118164392878385	-36.2695023042217
525000000	0.0118793172421771	-35.9042365711938
530000000	0.0119419621192927	-35.545674157856
535000000	0.0120043773806414	-35.1936270917432
540000000	0.0120665664080949	-34.847914361965
545000000	0.0121285325065833	-34.5083615998678
550000000	0.0121902789065498	-34.1748007771158
555000000	0.0122518087662795	-33.8470699200916
560000000	0.0123131251741721	-33.5250128395964
565000000	0.0123742311509428	-33.2084788749033
570000000	0.0124351296516405	-32.8973226512805
575000000	0.0124958235677242	-32.5914038501658
580000000	0.0125563157289399	-32.2905869912288
585000000	0.0126166089052287	-31.9947412256093
590000000	0.0126767058084665	-31.7037401396683
595000000	0.012736609094206	-31.417461568635
600000000	0.0127963213633387	-31.1357874195706
605000000	0.0128558451636984	-30.8586035031108
610000000	0.0129151829916262	-30.5857993734839
615000000	0.0129743372934222	-30.317268176332
620000000	0.0130333104668024	-30.0529065038962
625000000	0.0130921048623563	-29.7926142571526
630000000	0.0131507227847795	-29.5362945145138
635000000	0.0132091664942967	-29.2838534067324
640000000	0.0132674382078778	-29.0351999976698
645000000	0.0133255401004515	-28.7902461706091
650000000	0.0133834743061123	-28.5489065198162
655000000	0.0134412429192835	-28.3110982470673
660000000	0.0134988479958436	-28.0767410628794
665000000	0.0135562915541967	-27.8457570921965
670000000	0.0136135755763089	-27.6180707842996
675000000	0.013670702008803	-27.3936088267194
680000000	0.013727672763895	-27.1723000629482
685000000	0.0137844897204037	-26.9540754137548
690000000	0.0138411547246846	-26.7388678019211
695000000	0.013897669591538	-26.5266120802268
700000000	0.0139540365765651	-26.317244962148
705000000	0.0140102533886265	-26.1107049614203
710000000	0.014066326169837	-25.9069323131106
715000000	0.0141222564902149	-25.7058689295453
720000000	0.0141780458992474	-25.5074583363067
725000000	0.0142336959266176	-25.3116456166042
730000000	0.0142892080826997	-25.1183773579321
735000000	0.0143445838590935	-24.9276016009038
740000000	0.0143998247290288	-24.7392677901612
745000000	0.014454932147789	-24.5533267272601
750000000	0.01450990755308	-24.3697305254407
755000000	0.0145647523653586	-24.1884325661946
760000000	0.0146194679880837	-24.0093874575469
765000000	0.0146740558080225	-23.8325509939739
770000000	0.0147285171954759	-23.6578801178821
775000000	0.0147828535044805	-23.4853328825794
780000000	0.0148370660730402	-23.3148684166688
785000000	0.0148911562232273	-23.1464468898043
790000000	0.0149451252614109	-22.9800294797464
795000000	0.0149989744783816	-22.8155783406608
800000000	0.015052705149502	-22.6530565726061
805000000	0.0151063185347437	-22.4924281921586
810000000	0.0151598158789732	-22.3336581041246
815000000	0.0152131984119019	-22.1767120742944
820000000	0.0152664673482514	-22.0215567031927
825000000	0.0153196238878587	-21.8681594007842
830000000	0.0153726692158043	-21.7164883620921
835000000	0.0154256045024174	-21.5665125436944
840000000	0.0154784309034497	-21.4182016410575
845000000	0.0155311495601153	-21.2715260666764
850000000	0.015583761599239	-21.1264569289852
855000000	0.0156362681333006	-20.9829660120078
860000000	0.0156886702605256	-20.8410257557189
865000000	0.0157409690650363	-20.7006092370856
870000000	0.0157931656168848	-20.5616901517626
875000000	0.0158452609722103	-20.4242427964157
880000000	0.0158972561733014	-20.2882420516472
885000000	0.0159491522487253	-20.1536633655002
890000000	0.0160009502134183	-20.0204827375191
895000000	0.01605265106883	-19.8886767033446
900000000	0.016104255803026	-19.7582223198214
905000000	0.0161557653907753	-19.6290971506001
910000000	0.0162071807937628	-19.5012792522141
915000000	0.0162585029606509	-19.3747471606121
920000000	0.0163097328272065	-19.2494798781302
925000000	0.016360871316488	-19.1254568608868
930000000	0.0164119193389704	-19.0026580065837
935000000	0.0164628777926745	-18.8810636426984
940000000	0.0165137475633419	-18.7606545150539
945000000	0.0165645295246057	-18.641411776751
950000000	0.0166152245380794	-18.5233169774496
955000000	0.0166658334536198	-18.4063520529877
960000000	0.0167163571094253	-18.290499315324
965000000	0.0167667963322478	-18.1757414427935
970000000	0.016817151937526	-18.0620614706645
975000000	0.0168674247296472	-17.9494427819857
980000000	0.0169176155020332	-17.8378690987141
985000000	0.016967725037405	-17.7273244731128
990000000	0.017017754107933	-17.6177932794094
995000000	0.0170677034754568	-17.509260205706
1000000000	0.0171175738916695	-17.4017102461319
1005000000	0.017167366098327	-17.2951286932305
1010000000	0.0172170808274538	-17.1895011305724
1015000000	0.0172667188015543	-17.0848134255866
1020000000	0.0173162807338165	-16.981051722603
1025000000	0.0173657673283156	-16.8782024360979
1030000000	0.0174151792802789	-16.7762522441368
1035000000	0.0174645172762544	-16.6751880820069
1040000000	0.017513781994343	-16.5749971360334
1045000000	0.017562974104437	-16.4756668375733
1050000000	0.0176120942684487	-16.3771848571812
1055000000	0.0176611431405151	-16.2795390989398
1060000000	0.0177101213672577	-16.1827176949524
1065000000	0.0177590295880022	-16.0867089999895
1070000000	0.0178078684349919	-15.9915015862856
1075000000	0.0178566385336522	-15.897084238482
1080000000	0.0179053405028374	-15.8034459487087
1085000000	0.0179539749550202	-15.7105759118037
1090000000	0.0180025424965806	-15.6184635206627
1095000000	0.018051043727995	-15.5270983617171
1100000000	0.0180994792441719	-15.436470210535
1105000000	0.0181478496345746	-15.346569027541
1110000000	0.0181961554835525	-15.2573849538529
1115000000	0.0182443973705488	-15.1689083072297
1120000000	0.0182925758703542	-15.0811295781276
1125000000	0.0183406915533542	-14.9940394258627
1130000000	0.0183887449857744	-14.9076286748738
1135000000	0.0184367367299296	-14.8218883110853
1140000000	0.0184846673444435	-14.7368094783653
1145000000	0.0185325373845634	-14.6523834750765
1150000000	0.0185803474023205	-14.5686017507169
1155000000	0.0186280979468628	-14.4854559026484
1160000000	0.0186757895646389	-14.4029376729091
