!Generated from: C:\Users\nkfzm\OneDrive - University of Missouri\Desktop\Research\PowerSI\Board 9 - blinds\b9.spd
! Port1_ic_port_1::pwr
! Port2_decap_port_1::pwr
!
!Layout Workbench Version: 24.1.0.10141.541387   000
!Computer Host Name: RS29JQCX3
!
!TouchstoneFormatFlag = 1
! GNDNET gnd
! NETSLIST 
!
#	Hz	Z	RI	R	1
10000	-0.659903883616811	-202510.258621465	-0.660995517707183	-202510.258662937	-0.660995517707186	-202510.258662937	-0.656628501428427	-202510.258496476
13335.2143216332	2.1274501659878	-151861.297311378	2.12643742929813	-151861.297523553	2.12643742929812	-151861.297523553	2.1308836956841	-151861.297458545
17782.7941003892	0.727082623207659	-113879.93322909	0.726020470325739	-113879.933360806	0.726020470325739	-113879.933360806	0.730417574137102	-113879.933122816
23713.7370566166	0.149545148011637	-85397.9187472104	0.148453245796526	-85397.9188455507	0.148453245796529	-85397.9188455507	0.152821117679974	-85397.9184508286
31622.7766016838	-0.029874907604574	-64039.4126420413	-0.03098012250419	-64039.4127488676	-0.03098012250419	-64039.4127488676	-0.0266245611526383	-64039.4121981766
42169.6503428582	-0.037606809582108	-48022.7848274894	-0.0387114964500057	-48022.7849807948	-0.038711496450014	-48022.7849807948	-0.0343535311590176	-48022.7842573613
56234.1325190349	0.00759937630517848	-36012.001752656	0.00650597093361238	-36012.0019857829	0.00650597093362348	-36012.0019857829	0.0108786408766076	-36012.001049985
74989.4209332456	0.0453191669900044	-27005.1815210093	0.0442417608960299	-27005.1818586073	0.0442417608960327	-27005.1818586073	0.048636541390687	-27005.1806379195
100000	0.0484006147222216	-20251.0222532181	0.0473297467096734	-20251.0227037919	0.0473297467096595	-20251.0227037919	0.0517417332722564	-20251.0210773477
133352.143216332	0.0138690308584599	-15186.1301602852	0.0127673000891948	-15186.1307121485	0.0127673000891837	-15186.1307121485	0.0171665238090563	-15186.1284961117
177827.941003892	-0.0367200641007592	-11388.0122043409	-0.0379080391001152	-11388.0128473728	-0.0379080391001013	-11388.0128473728	-0.0335656400818396	-11388.009802872
237137.370566166	-0.0593752992465058	-8539.81276291093	-0.060596477504743	-8539.81356889643	-0.0605964775047263	-8539.81356889643	-0.0562426251749931	-8539.80946536417
316227.766016838	0.000640587429795447	-6403.93386881698	-0.000491236365254832	-6403.9351703648	-0.000491236365252057	-6403.9351703648	0.00401273231415977	-6403.92994301323
421696.503428582	0.10894286957765	-4802.28668243193	0.107698643340087	-4802.28846859704	0.10769864334009	-4802.28846859704	0.112171894139018	-4802.28157958813
562341.325190349	0.00143936604849459	-3601.19510768265	0.000274716190745705	-3601.19740694854	0.000274716190737379	-3601.19740694854	0.00491704005441407	-3601.18818480221
749894.209332456	0.00138450399922441	-2700.51354952382	0.00019334563876594	-2700.51659795226	0.000193345638782594	-2700.51659795226	0.00494548264885764	-2700.50437650235
1000000	-0.0115298481764226	-2025.09873260363	-0.012759022856626	-2025.10275444376	-0.012759022856626	-2025.10275444376	-0.0078864988947408	-2025.08655393908
1500000	0.000356462730016771	-1350.06271702108	-0.000925681962876679	-1350.06870987621	-0.000925681962873903	-1350.06870987621	0.00419192780687361	-1350.04465053928
2000000	0.0015307387395358	-1012.54143199482	0.000197780593699792	-1012.54939155655	0.000197780593702568	-1012.54939155655	0.00553151573148003	-1012.51751115587
2500000	0.00162641657837637	-810.0286996284	0.000242571091507715	-810.038611156752	0.000242571091504939	-810.038611156752	0.00578227572597401	-809.998926903562
3000000	0.0016430270312201	-675.019530934761	0.000208743816954016	-675.031386693475	0.000208743816965118	-675.031386693475	0.00595351488051343	-674.983915751326
3500000	0.00167464464587985	-578.583713419448	0.000189568256345196	-578.597509225771	0.000189568256336869	-578.597509225771	0.00614140820251463	-578.542269009017
4000000	0.00172282765602827	-506.256238509765	0.000185967232738116	-506.27197105784	0.000185967232743667	-506.27197105784	0.00634794770940916	-506.208978032326
4500000	0.00177919781114699	-450.001002048615	0.000189375732637109	-450.01866797157	0.000189375732631558	-450.01866797157	0.00656511091368384	-449.947937420632
5000000	0.00183808232477878	-404.996338670081	0.000194194531349945	-405.015934431251	0.000194194531361047	-405.015934431251	0.00678756573715411	-404.937480730362
5500000	0.00189727496605896	-368.173912549991	0.000198355335920275	-368.195434575712	0.000198355335917499	-368.195434575712	0.00701325408201114	-368.109271545634
6000000	0.00195682548802534	-337.488164728331	0.000202006495894635	-337.511609535696	0.000202006495894635	-337.511609535696	0.00724209014924815	-337.417750696008
6500000	0.0020178665750159	-311.522938541048	0.000206316545908747	-311.548302792376	0.000206316545919849	-311.548302792376	0.00747480897714259	-311.446761482657
7000000	0.00208176906868751	-289.266693806751	0.000212654003503565	-289.293974297588	0.000212654003509116	-289.293974297588	0.00771221320598481	-289.184763693029
7500000	0.00214956689710277	-269.977635018456	0.000222056552171002	-270.00682863012	0.000222056552157124	-270.00682863012	0.00795471365719613	-269.889961693486
8000000	0.00222157527985101	-253.099416186621	0.000234893269193681	-253.130519835672	0.000234893269199232	-253.130519835672	0.0082020536676386	-253.006009242698
8500000	0.00229717526745443	-238.20659666094	0.000250680974034356	-238.23960726994	0.000250680974037132	-238.23960726994	0.00845317109126886	-238.107465332328
9000000	0.00237478199808516	-224.968278122916	0.000268066656855526	-225.003192625838	0.000268066656869403	-225.003192625838	0.00870620991178517	-224.863431221548
9500000	0.00245202512423048	-213.123224489522	0.000285004133390721	-213.160039874031	0.000285004133379618	-213.160039874031	0.00895871583700136	-213.012670382938
10000000	0.00252612719408851	-202.462445852295	0.000299114809967915	-202.501159230388	0.00029911480996514	-202.501159230388	0.00920801513147329	-202.346192467571
11000000	0.00265441398406008	-184.047738883752	0.000310206848588845	-184.090240464405	0.000310206848580519	-184.090240464405	0.00968788118243802	-183.920108945967
12000000	0.00274241110684859	-168.70135837886	0.000288292651154376	-168.74763947319	0.000288292651162703	-168.74763947319	0.0101335697540006	-168.562377457657
13000000	0.00278558919943328	-155.715228899216	0.000232740233138684	-155.765280850149	0.000232740233124806	-155.765280850149	0.0105457478528831	-155.564915428414
14000000	0.00299916623616447	-144.583666099669	0.000321244638834539	-144.63748029481	0.000321244638837315	-144.63748029481	0.0110628743091951	-144.422063936893
15000000	0.00301275845624449	-134.935812444838	0.000235346207067	-134.993364042165	0.000235346207072551	-134.993364042165	0.0112496648256327	-134.762911836968
16000000	0.00321603326288722	-126.493096484027	0.000362162466460703	-126.554417479744	0.00036216246647458	-126.554417479744	0.0118042028109444	-126.308950411502
17000000	0.00333237503828132	-119.043228378198	0.000377346839477988	-119.108293863378	0.000377346839480763	-119.108293863378	0.0122245498736628	-118.847836623239
18000000	0.00344494070131096	-112.420613511248	0.000392012585662127	-112.489418896532	0.000392012585659351	-112.489418896532	0.0126313742141282	-112.213989479943
19000000	0.00355525715549365	-106.494629808822	0.000408625941095142	-106.56717159432	0.000408625941103469	-106.56717159432	0.0130278967580028	-106.276785278662
20000000	0.00366189806868533	-101.160785131052	0.000424866521769873	-101.237059905967	0.000424866521769873	-101.237059905967	0.0134118568283242	-100.931729917191
22000000	0.00386337399184422	-91.946532143067	0.000453401871713943	-92.0302638729237	0.000453401871716719	-92.0302638729237	0.014140755281028	-91.695079738331
24000000	0.00405081650527994	-84.2664625989525	0.000477006386126466	-84.3576416296145	0.000477006386134793	-84.3576416296145	0.0148218531277888	-83.9926386577196
26000000	0.00422663503670817	-77.7665325763255	0.000497382699812809	-77.8651516703214	0.000497382699818361	-77.8651516703214	0.0154621802873789	-77.4703564197246
28000000	0.00439283853805317	-72.1938535233713	0.000515948171886382	-72.299907231795	0.000515948171883607	-72.299907231795	0.0160683646620391	-71.8753395194967
30000000	0.00455103985905481	-67.3629743669047	0.000533590774851045	-67.4764585329602	0.00053359077485382	-67.4764585329602	0.016645971104437	-67.0221331346662
32000000	0.00470252249084313	-63.1348072559752	0.000550775747570897	-63.2557186452471	0.000550775747582	-63.2557186452471	0.0171994769112338	-62.7716466470142
34000000	0.00484829113806817	-59.4029911840621	0.000567683440863553	-59.5313272083709	0.000567683440869104	-59.5313272083709	0.0177324079094987	-59.0175170216395
36000000	0.00498912168991617	-56.0848010828797	0.000584328022487646	-56.2205595988358	0.000584328022490421	-56.2205595988358	0.0182475153541112	-55.6770176862184
38000000	0.00512561239085774	-53.1149277562267	0.000600647945059318	-53.2581069264414	0.000600647945059318	-53.2581069264414	0.0187469515276484	-52.6848382965428
40000000	0.00525823210093257	-50.4411238575342	0.000616568447731058	-50.5917220634861	0.00061656844773661	-50.5917220634861	0.0192324266234667	-49.9887305907587
42000000	0.00538736219030111	-48.021093891769	0.000632040090647878	-48.1791096869638	0.000632040090647878	-48.1791096869638	0.0197053405874864	-47.5463983050334
44000000	0.00551333053659675	-45.8202324116593	0.000647058710870341	-45.9856645038463	0.000647058710875892	-45.9856645038463	0.0201668891985168	-45.3232353118092
46000000	0.00563643754891152	-43.8099522590316	0.000661672175616967	-43.9827995111995	0.000661672175616967	-43.9827995111995	0.020618146380591	-43.2906538237955
48000000	0.00575697495132921	-41.9664307524414	0.000675978572417524	-42.1466921938849	0.000675978572414748	-42.1466921938849	0.0210601258658738	-41.4248305588638
50000000	0.00587523852306204	-40.2696567942956	0.000690119503393705	-40.4573316347574	0.000690119503390929	-40.4573316347574	0.0214938253395469	-39.7057538343524
52000000	0.00598735620515045	-38.7026949155182	0.000698348194841381	-38.8977830129564	0.000698348194844156	-38.8977830129564	0.0219157895321231	-38.1164894105551
54000000	0.00609923275164959	-37.2511251631855	0.000708513396768806	-37.4536254625731	0.000708513396768806	-37.4536254625731	0.022331954688487	-36.6426146477357
56000000	0.00621040370009096	-35.9025840374929	0.000720028904580006	-36.1124957599686	0.000720028904580006	-36.1124957599686	0.0227423032012369	-35.2717655876405
58000000	0.00632055725217073	-34.6464133102541	0.000732455366805884	-34.8637359152898	0.000732455366805884	-34.8637359152898	0.0231468977175103	-33.9932835538301
60000000	0.00642949228770728	-33.4733758249406	0.000745464364365622	-33.6981089775266	0.000745464364365622	-33.6981089775266	0.0235458533669908	-32.7979309459787
62000000	0.00653708734819625	-32.3754262995213	0.000758811588735808	-32.6075698423184	0.000758811588733033	-32.6075698423184	0.0239393183944087	-31.677662039252
64000000	0.00664327775376783	-31.3455251012233	0.000772316683037011	-31.5850790313824	0.000772316683039787	-31.5850790313824	0.0243274607169941	-30.6254367571414
66000000	0.00674803876367092	-30.3774858786556	0.000785847997553102	-30.6244503288679	0.000785847997558653	-30.6244503288679	0.0247104586653363	-29.6350683026713
68000000	0.00685137323296614	-29.4658500811648	0.000799310995855396	-29.7202253044365	0.000799310995855396	-29.7202253044365	0.0250884946784019	-28.7010976774709
70000000	0.00695330261386851	-28.6057829883336	0.000812639391972736	-28.867569345963	0.000812639391972736	-28.867569345963	0.025461751082409	-27.8186897113639
72000000	0.00705386044294598	-27.792987067349	0.000825788344985257	-28.0621850195998	0.00082578834497693	-28.0621850195998	0.0258304073347398	-26.9835464200266
74000000	0.00715308767159639	-27.0236293801758	0.00083872921423922	-27.3002394791761	0.000838729214236444	-27.3002394791761	0.0261946382928036	-26.191834412533
76000000	0.00725102935906219	-26.2942804525395	0.000851445506233617	-26.5783033369835	0.000851445506230841	-26.5783033369835	0.0265546131940408	-25.4401237607164
78000000	0.00734773236754638	-25.6018625475578	0.000863929737424107	-25.8932989388398	0.000863929737421332	-25.8932989388398	0.0269104951235111	-24.725336273143
80000000	0.00744324379036709	-24.9436056982674	0.000876181005035614	-25.2424563977309	0.000876181005034227	-25.2424563977309	0.02726244081033	-24.0447015279181
82000000	0.00753760991169111	-24.3170101743961	0.000888203108145857	-24.6232760614298	0.00088820310814447	-24.6232760614298	0.0276106006404764	-23.3957193396628
84000000	0.00763087554827707	-23.7198143110303	0.000900003098563973	-24.0334963417931	0.000900003098562585	-24.0334963417931	0.0279551188069493	-22.7761275883104
86000000	0.00772308366201874	-23.1499668263264	0.000911590168381493	-23.4710660329222	0.000911590168382881	-23.4710660329222	0.0282961335421286	-22.1838745368725
88000000	0.00781427516157174	-22.6056029141091	0.000922974802335108	-22.9341204040715	0.00092297480233372	-22.9341204040715	0.0286337773946446	-21.6170949240217
90000000	0.00790448883297989	-22.085023524154	0.000934168138352898	-22.4209604801311	0.000934168138354285	-22.4209604801311	0.0289681775250961	-21.0740892442996
92000000	0.00799376135571239	-21.5866773450739	0.000945181492202629	-21.9300350246308	0.000945181492201241	-21.9300350246308	0.0292994560041906	-20.5533057308723
94000000	0.00808212737302	-21.1091450872906	0.000956026010975886	-21.4599248227696	0.000956026010977273	-21.4599248227696	0.029627730102684	-20.0533246383282
96000000	0.00816961959428653	-20.6511257306621	0.000966712427810656	-21.0093289290565	0.000966712427810656	-21.0093289290565	0.0299531125670216	-19.5728444900901
98000000	0.00825626891409748	-20.2114244560952	0.000977250895349557	-20.5770525989097	0.000977250895352333	-20.5770525989097	0.0302757118777169	-19.110670009783
100000000	0.00834210453736772	-19.7889420253844	0.0009876508804324	-20.161996668464	0.0009876508804324	-20.161996668464	0.0305956324893261	-18.6657015008007
102000000	0.00842715410394185	-19.382665410496	0.000997921105629074	-19.7631481838145	0.000997921105629074	-19.7631481838145	0.0309129750520221	-18.2369254752977
104000000	0.00851144380797086	-18.991659504101	0.00100806952640087	-19.379572111507	0.00100806952640087	-19.379572111507	0.0312278366160629	-17.8234063644137
106000000	0.0085949985099143	-18.6150597685482	0.00101810333463237	-19.0104039874697	0.00101810333463098	-19.0104039874697	0.0315403108204715	-17.4242791669243
108000000	0.00867784183968129	-18.252065701624	0.00102802898143545	-18.654843382737	0.00102802898143128	-18.654843382737	0.0318504880674128	-17.0387429146712
110000000	0.00875999629068452	-17.901935015144	0.00103785221342578	-18.3121480820123	0.00103785221342717	-18.3121480820123	0.0321584556842863	-16.6660548508149
112000000	0.00884148330478896	-17.5639784372703	0.00104757811792561	-17.9816288859633	0.00104757811792699	-17.9816288859633	0.0324642980748982	-16.305525231809
114000000	0.00892232334885196	-17.2375550619544	0.0010572111736204	-17.6626449606528	0.00105721117361901	-17.6626449606528	0.032768096861302	-15.9565126764978
116000000	0.00900253598336981	-16.9220681794743	0.00106675530388706	-17.3545996680701	0.00106675530388567	-17.3545996680701	0.0330699310176472	-15.6184199963039
118000000	0.0090821399241367	-16.6169615309838	0.00107621393075907	-17.056936820684	0.00107621393075769	-17.056936820684	0.0333698769972135	-15.2906904494285
120000000	0.00916115309756854	-16.3217159376072	0.00108559002800074	-16.7691373105468	0.00108559002799935	-16.7691373105468	0.0336680088535754	-14.9728043695952
122000000	0.0092395926905825	-16.035846261097	0.00109488617205528	-16.4907160699688	0.00109488617205805	-16.4907160699688	0.0339643983567631	-14.6642761263574
124000000	0.00931747519564013	-15.7588986586206	0.00110410459030624	-16.2212193263265	0.00110410459030763	-16.2212193263265	0.0342591151050814	-14.3646513795346
126000000	0.00939481645165496	-15.4904480989942	0.00111324720587086	-15.9602221183229	0.00111324720586947	-15.9602221183229	0.0345522266331152	-14.0735045950953
128000000	0.00947163168128623	-15.2300961117686	0.00112231567886978	-15.7073260451034	0.00112231567887117	-15.7073260451034	0.0348437985163971	-13.7904367938925
130000000	0.00954793552510741	-14.9774687440897	0.00113131144388323	-15.462157223149	0.00113131144388323	-15.462157223149	0.0351338944729662	-13.5150735081735
132000000	0.00962374207317679	-14.7322147032983	0.00114023574366989	-15.2243644289113	0.00114023574367128	-15.2243644289113	0.0354225764622032	-13.2470629238274
134000000	0.00969906489410033	-14.4940036658616	0.00114908965916163	-14.9936174077807	0.00114908965916163	-14.9936174077807	0.0357099047809797	-12.9860741889651
136000000	0.00977391706224462	-14.2625247355158	0.00115787413595761	-14.7696053322665	0.00115787413595761	-14.7696053322665	0.0359959381574231	-12.7317958717079
138000000	0.00984831118308188	-14.0374850354822	0.00116659000747657	-14.5520353942509	0.00116659000747865	-14.5520353942509	0.0362807338421901	-12.4839345520475
140000000	0.00992225941688976	-13.8186084213487	0.00117523801500194	-14.3406315179083	0.00117523801500194	-14.3406315179083	0.0365643476975326	-12.2422135343698
142000000	0.0099957735011369	-13.6056343027207	0.00118381882486668	-14.1351331813942	0.00118381882486668	-14.1351331813942	0.0368468342839351	-12.0063716687446
144000000	0.0100688647715785	-13.3983165630672	0.00119233304305272	-13.935294336728	0.00119233304305341	-13.935294336728	0.0371282469447232	-11.7761622704067
146000000	0.0101415441821504	-13.1964225683445	0.0012007812274277	-13.740882418453	0.00120078122742701	-13.740882418453	0.0374086378882386	-11.5513521280114
148000000	0.0102138223238145	-12.9997322560025	0.00120916389789311	-13.5516774326778	0.00120916389789172	-13.5516774326778	0.0376880582680199	-11.3317205922658
150000000	0.0102857094424445	-12.8080372968679	0.00121748154467555	-13.3674711189931	0.00121748154467763	-13.3674711189931	0.0379665582606631	-11.1170587374336
152000000	0.010357215455719	-12.6211403231946	0.00122573463497977	-13.1880661785554	0.00122573463497977	-13.1880661785554	0.0382441871416839	-10.9071685889995
154000000	0.010428349969259	-12.4388542168653	0.00123392361821364	-13.0132755623198	0.00123392361821434	-13.0132755623198	0.0385209933591729	-10.7018624114776
156000000	0.0104991222917988	-12.2610014523451	0.00124204893000371	-12.8429218140241	0.00124204893000301	-12.8429218140241	0.0387970246054151	-10.5009620509658
158000000	0.0105695414497266	-12.0874134895384	0.00125011099512892	-12.676836463074	0.00125011099512823	-12.676836463074	0.0390723278866578	-10.3042983275926
160000000	0.0106396162007624	-11.9179302121786	0.0012581102295961	-12.5148594629613	0.0012581102295961	-12.5148594629613	0.0393469495906899	-10.1117104734903
162000000	0.0107093550470283	-11.7523994078201	0.00126604704194025	-12.356838671282	0.00126604704193956	-12.356838671282	0.0396209355527664	-9.92304561235798
164000000	0.0107787662473574	-11.5906762858775	0.0012739218339268	-12.2026293678009	0.00127392183392749	-12.2026293678009	0.0398943311195755	-9.73815827706299
166000000	0.0108478578290029	-11.432623030505	0.00128173500073547	-12.0520938073559	0.00128173500073547	-12.0520938073559	0.0401671812116471	-9.5569099620705
168000000	0.0109166375987471	-11.2781083854134	0.00128948693075004	-11.9051008046974	0.00128948693075004	-11.9051008046974	0.0404395303840219	-9.37916870779753
170000000	0.0109851131533417	-11.1270072679918	0.00129717800503165	-11.7615253486333	0.00129717800503165	-11.7615253486333	0.0407114228854324	-9.20480871426037
172000000	0.0110532918895227	-10.979200410352	0.00130480859653476	-11.6212482430948	0.00130480859653476	-11.6212482430948	0.0409829027160726	-9.03370998162909
174000000	0.011121181013303	-10.8345740251268	0.00131237906917103	-11.4841557729554	0.00131237906917242	-11.4841557729554	0.0412540136841208	-8.86575797552242
