! Created with skrf 1.8.0 (http://scikit-rf.org).
# MHz S RI R 50.0 
!freq ReS11 ImS11
0.01 0.9999975263629459 -0.0022242454876121977
0.01050763915026853 0.9999972688469853 -0.0023371560859794735
0.011041048051225594 0.9999969845247193 -0.002455797521838569
0.011601534876305412 0.9999966706014404 -0.002580462368333147
0.01219047420694725 0.999996323987983 -0.002711459112945807
0.012809310403725764 0.9999959413002248 -0.002849102152827996
0.013459561148613082 0.9999955187678252 -0.0029937341679172683
0.014142821167060008 0.9999950522560057 -0.0031457055660881663
0.014860766139024621 0.999994537168406 -0.0033053945824080104
0.015615156808540002 0.9999939684609027 -0.003473188997903615
0.01640784330189971 0.9999933405601376 -0.0036494979623144523
0.017240769665051267 0.9999926472843397 -0.003834759087373545
0.018115978631325472 0.9999918818294262 -0.004029426167930989
0.019035616631194404 0.9999910366942182 -0.004233973455616392
0.020001939056344106 0.9999901035734724 -0.004448904934480138
0.021017315790972647 0.9999890733218211 -0.004674744588261837
0.022084237023878118 0.9999879358076373 -0.004912050404937015
0.02320531935559115 0.9999866798754836 -0.005161402097025693
0.024383312215529362 0.9999852931857692 -0.005423413332118094
0.02562110460491172 0.9999837621503992 -0.005698722272032041
0.02692173218196957 0.9999820717336266 -0.0059880056215586945
0.02828838470683077 0.9999802053303225 -0.006291974851028341
0.029724413864335254 0.9999781446349361 -0.006611372964135152
0.031233341483967378 0.9999758694073112 -0.0069469851800492265
0.03281886817706418 0.9999733573346141 -0.007299631561933437
0.034484882412482154 0.9999705837508983 -0.007670178152292582
0.03623547005298042 0.9999675214206397 -0.008059534965642911
0.03807492437570799 0.999964140304227 -0.008468654298540738
0.04000775660137028 0.9999604072132103 -0.008898539542568905
0.04203870695789726 0.9999562854965852 -0.009350245765321612
0.04417275630574673 0.9999517347225548 -0.00982487787982531
0.04641513835335354 0.9999467102143624 -0.010323600702951167
0.0487713524926828 0.9999411626453928 -0.010847637870979285
0.051247177286366054 0.9999350376003115 -0.011398270889199298
0.0538486846394972 0.9999282749467155 -0.011976851092232526
0.05658225469084444 0.9999208083145243 -0.012584796368170201
0.05945459145999823 0.9999125644410066 -0.013223595313291639
0.062472739288829834 0.9999034624119315 -0.01389481401929787
0.06564410011758287 0.9998934129284384 -0.014600095284601182
0.06897645163796594 0.999882317351948 -0.015341168368100367
0.07247796636776961 0.9998700668249528 -0.016119847004990705
0.07615723169378218 0.9998565411255096 -0.016938039099382338
0.08002327093216569 0.9998416075398628 -0.01779774795031767
0.08408556545793698 0.9998251195715192 -0.01870107680849692
0.08835407795782858 0.9998069154348976 -0.019650237875287562
0.09283927686355573 0.9997868165377528 -0.020647553785031903
0.09755216202541175 0.9997646257171211 -0.021695464150481493
0.10250429168915555 0.9997401253092075 -0.022796531462703915
0.10770781084235159 0.9997130749908232 -0.023953448444697035
0.11317548099968108 0.9996832094367328 -0.025169043888740347
0.11892071150027211 0.9996502357752318 -0.026446287348574626
0.12495759239380483 0.9996138306698807 -0.027788298499317327
0.13130092899604406 0.9995736371416702 -0.029198354942915932
0.1379662781985461 0.999529261166034 -0.030679896885129697
0.14496998662158825 0.9994802677098392 -0.03223653918565044
0.15232923070389057 0.9994261765935416 -0.033872076104293956
0.16006205882744876 0.9993664577249142 -0.035590492752381145
0.1681874355807885 0.9993005259731027 -0.03739597290992978
0.17672528826919598 0.9992277354575917 -0.03929290893142159
0.1856965557859895 0.9991473732455988 -0.04128591208172668
0.19512323996468875 0.9990586524389884 -0.04337982234625672
0.20502845953802087 0.9989607045155876 -0.04557971954412365
0.2154365068360951 0.9988525708768485 -0.047890934974275746
0.22637290736280513 0.9987331935728384 -0.050319062548892714
0.23786448239655172 0.9986014050761902 -0.05286997049231688
0.24993941476883716 0.9984559169235188 -0.055549815124943815
0.2626273179820232 0.9982953073401771 -0.05836505240793863
0.2759593088357935 0.9981180074739765 -0.06132245230076111
0.28996808374040284 0.9979222863529337 -0.06442911143367981
0.3046879989039 0.9977062342143106 -0.06769246789635625
0.32015515458995947 0.9974677442288228 -0.07112031512207936
0.3364074836529731 0.997204492355866 -0.07472081654585837
0.3534848445675301 0.996913915206815 -0.07850252013164503
0.37142911918043653 0.9965931856949 -0.08247437315003113
0.3902843154250111 0.9962391862287671 -0.08664573747302229
0.4100966752495598 0.9958484793615335 -0.09102640360533587
0.43091478802472344 0.9954172754763178 -0.09562660552014088
0.4527897097078248 0.994941397361121 -0.10045703468199658
0.47577508805646623 0.9944162413797845 -0.10552885330610805
0.4999272941984582 0.9938367348918905 -0.11085370710727759
0.5253055608807532 0.9931972896867722 -0.11644373645177178
0.5519721277364371 0.9924917509509115 -0.12231158691797762
0.5799923939260409 0.9917133416558581 -0.12847041675720972
0.6094350785275234 0.9908546016807347 -0.1349339035532305
0.6403723890682781 0.9899073216813006 -0.14171624635783292
0.672880198612483 0.9888624708288453 -0.1488321665039898
0.7070382318380991 0.9877101185596026 -0.15629690238445557
0.7429302605598647 0.9864393495068475 -0.1641262006643283
0.7806443091778051 0.9850381715043669 -0.17233630110726356
0.8202728705551018 0.9834934162381597 -0.1809439145597166
0.8619131328547955 0.9817906321397498 -0.18996619342038287
0.9056672178915632 0.9799139695248276 -0.19942069183034947
0.9516424315832187 0.9778460575176218 -0.20932531571036464
0.999951527116057 0.9755678728941584 -0.21969825984009755
1.0507129814695484 0.9730586008975557 -0.23055793028931212
1.1040512859784777 0.9702954883420718 -0.24192284989851706
1.1600972516451793 0.9672536893723783 -0.2538115450398638
1.2189883299505808 0.9639061049212941 -0.2662424100241338
1.2808689499509174 0.9602232168004076 -0.2792335472637152
1.3458908724867602 0.9561729183578036 -0.29280257888058486
1.4142135623730951 0.9517203433974868 -0.3069664280721423
1.486004579483226 0.9468276966357563 -0.3217410649628491
1.561439989685627 0.941454088942571 -0.33714121434988253
1.6407047966415582 0.9355553817465309 -0.35318002163925266
1.7239933955224203 0.9290840462103835 -0.36986867274391033
1.8115100497595764 0.9219890434940109 -0.38721596516285206
1.9034693919958616 0.9142157340443549 -0.40522782681565855
2.000096950467355 0.9057058249672783 -0.4239067805783978
2.1016297021063477 0.8963973662745572 -0.44325135277406374
2.208316653721989 0.8862248079502808 -0.46325542605941267
2.3204194526839115 0.8751191318939628 -0.4839075376486267
2.438213028606619 0.8630080735325049 -0.5051901275932803
2.561986267608167 0.849816449835969 -0.5270787432520779
2.692042720796997 0.8354666109667186 -0.5495412104290139
2.8287013487241883 0.8198790334236751 -0.5725367853267248
2.9722973036271734 0.8029730721799639 -0.5960153063083787
3.123182751383041 0.78466788813214 -0.6199163696292004
3.281727735187589 0.7648835647270033 -0.644168559004949
3.4483210830779116 0.7435424236639335 -0.6686887648315646
3.6233713615245917 0.7205705439876778 -0.6933816345543787
3.807307877431751 0.6958994811061413 -0.718139201127611
4.0005817310027725 0.6694681729105567 -0.7428407403069659
4.203666922053378 0.6412250080937822 -0.7673529103320902
4.417061512485688 0.6111300186904536 -0.7915302270004638
4.641288847773894 0.5791571436606945 -0.8152159241248822
4.876898840457368 0.5452964951221104 -0.838243241790557
5.124469318788904 0.5095565438990743 -0.8604371729357295
5.38460744384562 0.4719661276488834 -0.8816166822106521
5.657951198577958 0.4325761752672317 -0.9015973894101365
5.945170952448651 0.3914610363819014 -0.9201946842895843
6.246971105498869 0.34871930637660686 -0.9372272111714524
6.564091815873619 0.30447404725620064 -0.9525206320849058
6.897310815043088 0.2588723227020919 -0.9659115490244561
7.2474453151717295 0.21208399247602513 -0.97725144161338
7.615354013312872 0.1642997458983082 -0.9864104589357067
8.00193919734409 0.11572839391804626 -0.9932808962429255
8.408148958808125 0.06659348235138311 -0.9977801902765537
8.834979518086167 0.017129330874536938 -0.9998532822488458
9.283477667606299 -0.03242336016392023 -0.9994742246379746
9.754743339078331 -0.08182216356344345 -0.9966469452869442
10.249932301052084 -0.1308276502891253 -0.9914051270393079
10.770258993413666 -0.17920799108964464 -0.9838112094958126
11.316999505772541 -0.22674324886112732 -0.9739545672647677
11.891494707042488 -0.27322919720708205 -0.9619489621562951
12.495153533893092 -0.31848053254995295 -0.9479294015836297
13.129456446135096 -0.36233338627458295 -0.932048559459642
13.795959057515493 -0.4046470860421953 -0.914472927842897
14.496295950825123 -0.44530515786152025 -0.8953788675091269
15.232184686676954 -0.4842155992499025 -0.8749487147502178
16.005430015784754 -0.5213104863209376 -0.8533670821234127
16.817928305074293 -0.5565450021684537 -0.8308174652481226
17.67167218848079 -0.5898959897978151 -0.8074792388789052
18.568755453839227 -0.621360140240507 -0.7835250960373238
19.511378177852336 -0.6509519263632093 -0.7591189561353525
20.501852121729627 -0.6787013865434639 -0.7344143434764734
21.542606400730214 -0.704651851500848 -0.7095532172969317
22.63619344151382 -0.7288576937774953 -0.6846652190825461
23.785295241910237 -0.7513821641443753 -0.6598672922684645
24.99272994845918 -0.7722953638528032 -0.635263623208087
26.261458767851845 -0.7916723871158945 -0.610945849873965
27.594593229224277 -0.8095916551696563 -0.5869934853809338
28.995402815113252 -0.8261334521013936 -0.5634745063612323
30.46732297978897 -0.8413786635438023 -0.5404460607065659
32.01396357463073 -0.8554077122580506 -0.5179552546402522
33.639117701205976 -0.8682996794596683 -0.49603998493088963
35.346771013768375 -0.8801315972373219 -0.4747297879262271
37.14111149398487 -0.8909778953222125 -0.45404668267392984
39.02653972186847 -0.9009099845182779 -0.4340059905062102
41.007679668101424 -0.9099959590379799 -0.41461711799508133
43.08939003422142 -0.9183004005786496 -0.3958842940773121
45.27677616847746 -0.9258842680160616 -0.3778072554099008
47.57520258658399 -0.9328048579220414 -0.3603818766767279
49.99030612807456 -0.9391158225995794 -0.34360074467776636
52.52800978052661 -0.9448672338705074 -0.3274536766596092
55.194537205554965 -0.9501056823738971 -0.3119281845566887
57.99642800220423 -0.9548744035862523 -0.2970098876734562
60.940553745169126 -0.9592134231237737 -0.2826828769118717
64.03413483717826 -0.9631597151131355 -0.2689300339924565
67.28475821687081 -0.9667473685115187 -0.25573330928147386
70.7003959655944 -0.9700077572193287 -0.2430739618600225
74.28942485875669 -0.9729697106628276 -0.23093276539437516
78.0606469096804 -0.9756596822386465 -0.21929018321389482
82.02331095634457 -0.9781019136170789 -0.20812651579894492
86.1871353439536 -0.9803185934071976 -0.19742202364511838
90.56233175896193 -0.9823300091061264 -0.1871570282130958
95.15963027300754 -0.9841546915977604 -0.17731199340743165
99.99030565817345 -0.9858095517434428 -0.1678675897586914
105.06620503811381 -0.9873100088281181 -0.15880474321575297
110.39977694286274 -0.9886701107987569 -0.1501046701910841
116.00410183857353 -0.9899026463649402 -0.1417489002415473
121.89292420707302 -0.991019249130985 -0.1337192875087892
128.08068625389578 -0.9920304940003724 -0.1259980117834286
134.5825633274698 -0.992945986141226 -0.11856756979051299
141.41450113632183 -0.9937744428299059 -0.11141075701255354
148.5932548555706 -0.9945237685013529 -0.1045106400605569
156.13643021862197 -0.9952011233317603 -0.09785051925872701
164.06252669483658 -0.9958129856626066 -0.09141388070596954
172.39098285906442 -0.9963652085453472 -0.08518433659063585
181.14222406431725 -0.9968630706421016 -0.07914555192808131
190.33771253449305 -0.9973113216571001 -0.0732811551121281
200.0 -0.9977142223918501 -0.06757462864881596
