!Generated from: C:\Users\nkfzm\OneDrive - University of Missouri\Desktop\Research\Code\PDN\input files\board 4.1\b4_1.spd
! Port1_ic_port_1::pwr
! Port2_decap_port1_1::pwr
! Port3_decap_port2_1::pwr
!
!Layout Workbench Version: 24.1.0.10141.541387   000
!Computer Host Name: RS29JQCX3
!
!TouchstoneFormatFlag = 1
! GNDNET gnd
! NETSLIST 
!
#	Hz	Z	RI	R	1
0	33203479671.3691	-0	33203479673.5546	-0	33203479673.4976	-0
			33203479673.5546	-0	33203479675.7429	-0	33203479675.6844	-0
			33203479673.4976	-0	33203479675.6844	-0	33203479675.6304	-0
0.1	2281758467.14061	-8391331546.70461	2281758467.68409	-8391331547.14964	2281758467.52071	-8391331547.16905
			2281758467.68409	-8391331547.14964	2281758468.23036	-8391331547.59467	2281758468.06547	-8391331547.61408
			2281758467.52071	-8391331547.16905	2281758468.06547	-8391331547.61408	2281758467.90499	-8391331547.6335
0.133352143216332	1301129533.51831	-6442906621.20595	1301129533.9057	-6442906621.56906	1301129533.78265	-6442906621.58228
			1301129533.9057	-6442906621.56906	1301129534.29588	-6442906621.93216	1301129534.17131	-6442906621.94538
			1301129533.78265	-6442906621.58228	1301129534.17131	-6442906621.94538	1301129534.05116	-6442906621.9586
0.177827941003892	736069760.865064	-4888737588.68626	736069761.142126	-4888737588.97358	736069761.049007	-4888737588.9789
			736069761.142127	-4888737588.97358	736069761.421978	-4888737589.2609	736069761.327339	-4888737589.26622
			736069761.049007	-4888737588.9789	736069761.327339	-4888737589.26622	736069761.237122	-4888737589.27154
0.237137370566166	414424986.854939	-3686422947.02508	414424987.054256	-3686422947.24834	414424986.984097	-3686422947.2497
			414424987.054256	-3686422947.24834	414424987.256362	-3686422947.4716	414424987.184684	-3686422947.47297
			414424986.984097	-3686422947.2497	414424987.184684	-3686422947.47297	414424987.117428	-3686422947.47433
0.316227766016838	232827644.31296	-2770796735.34986	232827644.457243	-2770796735.52136	232827644.404463	-2770796735.52089
			232827644.457243	-2770796735.52136	232827644.604315	-2770796735.69286	232827644.550015	-2770796735.69239
			232827644.404462	-2770796735.52089	232827644.550015	-2770796735.69239	232827644.500137	-2770796735.69191
0.421696503428582	130698171.817745	-2079225538.90249	130698171.922768	-2079225539.03325	130698171.883054	-2079225539.03204
			130698171.922768	-2079225539.03325	130698172.03058	-2079225539.164	130698171.989347	-2079225539.1628
			130698171.883054	-2079225539.03204	130698171.989347	-2079225539.1628	130698171.952535	-2079225539.16159
0.562341325190349	73355840.3252756	-1559089374.62052	73355840.4020531	-1559089374.71972	73355840.3721338	-1559089374.71833
			73355840.4020531	-1559089374.71972	73355840.4816193	-1559089374.81891	73355840.4501808	-1559089374.81752
			73355840.3721338	-1559089374.71833	73355840.4501808	-1559089374.81752	73355840.4231638	-1559089374.81613
0.749894209332456	41177050.7478983	-1168709150.06029	41177050.8041919	-1168709150.13529	41177050.7816052	-1168709150.13396
			41177050.8041919	-1168709150.13529	41177050.863274	-1168709150.21028	41177050.8391682	-1168709150.20895
			41177050.7816052	-1168709150.13396	41177050.8391683	-1168709150.20895	41177050.8194839	-1168709150.20762
1	23119298.368798	-875999396.052798	23119298.4101325	-875999396.109361	23119298.3930336	-875999396.108194
			23119298.4101325	-875999396.109362	23119298.4542555	-875999396.165925	23119298.4356375	-875999396.164758
			23119298.3930336	-875999396.108194	23119298.4356375	-875999396.164758	23119298.421441	-875999396.16359
1.33352143216332	12983636.6591212	-656610006.47937	12983636.6894676	-656610006.521959	12983636.6764761	-656610006.520976
			12983636.6894676	-656610006.521959	12983636.7226026	-656610006.564549	12983636.7080919	-656610006.563566
			12983636.6764761	-656610006.520976	12983636.7080919	-656610006.563566	12983636.6980028	-656610006.562583
1.77827941003892	7292981.8129041	-492193004.751821	7292981.8351413	-492193004.783848	7292981.82522464	-492193004.783039
			7292981.8351413	-492193004.783848	7292981.86016707	-492193004.815874	7292981.84873133	-492193004.815066
			7292981.82522465	-492193004.78304	7292981.84873133	-492193004.815066	7292981.84171706	-492193004.814258
2.37137370566166	4097103.81054966	-368971209.735136	4097103.82678002	-368971209.759195	4097103.81916596	-368971209.758539
			4097103.82678002	-368971209.759195	4097103.84579897	-368971209.783254	4097103.83666582	-368971209.782598
			4097103.81916596	-368971209.758539	4097103.83666582	-368971209.782598	4097103.83195413	-368971209.781942
3.16227766016838	2301882.97208138	-276616107.082875	2301882.98384937	-276616107.100932	2301882.97796001	-276616107.100402
			2301882.98384937	-276616107.100932	2301882.99840594	-276616107.118989	2301882.99099748	-276616107.11846
			2301882.97796001	-276616107.100403	2301882.99099748	-276616107.11846	2301882.98801049	-276616107.11793
4.21696503428582	1293267.68527423	-207389532.998791	1293267.69371976	-207389533.01233	1293267.6891226	-207389533.011903
			1293267.69371976	-207389533.01233	1293267.70495388	-207389533.02587	1293267.69883762	-207389533.025442
			1293267.6891226	-207389533.011903	1293267.69883762	-207389533.025442	1293267.69714284	-207389533.025014
5.62341325190349	726294.686372156	-155494895.612033	726294.692376927	-155494895.622151	726294.688746681	-155494895.621781
			726294.692376927	-155494895.622151	726294.701170283	-155494895.63227	726294.696020942	-155494895.631899
			726294.688746681	-155494895.621781	726294.696020942	-155494895.631899	726294.695293068	-155494895.631529
7.49894209332456	407853.084243831	-116590235.478065	407853.088373132	-116590235.485595	407853.085468699	-116590235.485307
			407853.088373132	-116590235.485595	407853.095291018	-116590235.493125	407853.09086749	-116590235.492837
			407853.085468699	-116590235.485307	407853.09086749	-116590235.492837	407853.090865429	-116590235.492549
10	228811.963938396	-87422016.7218623	228811.966675962	-87422016.7274261	228811.964312764	-87422016.7272357
			228811.966675962	-87422016.7274261	228811.972202113	-87422016.7329898	228811.96831982	-87422016.7327994
			228811.964312764	-87422016.7272357	228811.96831982	-87422016.7327994	228811.968858995	-87422016.7326089
13.3352143216332	128891.96995942	-65552425.4249772	128891.971701706	-65552425.4293513	128891.969720673	-65552425.4289844
			128891.971701706	-65552425.4293513	128891.976232577	-65552425.4337252	128891.972732449	-65552425.4333584
			128891.969720673	-65552425.4289843	128891.972732449	-65552425.4333583	128891.973653788	-65552425.4329912
17.7827941003892	71883.9163456679	-49154772.0603323	71883.9172503431	-49154772.0634616	71883.9155934184	-49154772.063069
			71883.9172503431	-49154772.0634616	71883.9209436033	-49154772.0665908	71883.9177675835	-49154772.0661982
			71883.9155934184	-49154772.063069	71883.9177675835	-49154772.0661982	71883.9190130316	-49154772.0658054
23.7137370566166	41573.4197756631	-36859358.169865	41573.4201236649	-36859358.1723036	41573.4186799978	-36859358.1727904
			41573.4201236649	-36859358.1723036	41573.4232602537	-36859358.1747419	41573.4202974904	-36859358.1752288
			41573.4186799978	-36859358.1727904	41573.4202974904	-36859358.1752288	41573.4217561949	-36859358.1757153
31.6227766016838	22966.0826824195	-27639731.3299335	22966.0825957957	-27639731.3317469	22966.0813455827	-27639731.3317861
			22966.0825957957	-27639731.3317469	22966.0852977576	-27639731.33356	22966.082528449	-27639731.3335994
			22966.0813455827	-27639731.3317861	22966.082528449	-27639731.3335994	22966.0841806082	-27639731.3336382
42.1696503428582	12856.1441885619	-20726385.011872	12856.1437759064	-20726385.0132195	12856.1426550668	-20726385.0132208
			12856.1437759064	-20726385.0132195	12856.1461518365	-20726385.0145665	12856.1435119013	-20726385.014568
			12856.1426550668	-20726385.0132208	12856.1435119013	-20726385.0145681	12856.145293434	-20726385.0145688
56.2341325190349	7201.79945070165	-15542321.1858175	7201.79879292222	-15542321.1868197	7201.79777002519	-15542321.1868109
			7201.79879292222	-15542321.1868197	7201.80092372829	-15542321.1878213	7201.79838173576	-15542321.1878128
			7201.79777002519	-15542321.1868109	7201.79838173576	-15542321.1878128	7201.80026121114	-15542321.1878033
74.9894209332456	4029.07462497192	-11654940.8535768	4029.07378413088	-11654940.854312	4029.07283327546	-11654940.8543058
			4029.07378413088	-11654940.854312	4029.07573187528	-11654940.8550464	4029.07326192438	-11654940.8550406
			4029.07283327546	-11654940.8543058	4029.07326192438	-11654940.8550406	4029.07521344141	-11654940.8550334
100	2251.94078576985	-8739884.77797745	2251.93980746529	-8739884.77851968	2251.93891145297	-8739884.77851776
			2251.93980746528	-8739884.77851968	2251.94161774607	-8739884.77906071	2251.93920263829	-8739884.77905942
			2251.93891145297	-8739884.77851775	2251.93920263829	-8739884.77905942	2251.94120899846	-8739884.77905627
133.352143216332	1256.14905787533	-6553939.66011499	1256.14797594005	-6553939.66051104	1256.14712107234	-6553939.66051359
			1256.14797594005	-6553939.66051104	1256.14968259005	-6553939.66090549	1256.14730862688	-6553939.66090889
			1256.14712107234	-6553939.66051359	1256.14730862688	-6553939.66090889	1256.1493561317	-6553939.6609098
177.827941003892	698.910681467033	-4914733.52847346	698.909521937646	-4914733.52876143	698.908698031306	-4914733.52876739
			698.909521937646	-4914733.52876143	698.911150993452	-4914733.52904726	698.908807991681	-4914733.52905436
			698.908698031306	-4914733.52876739	698.908807991681	-4914733.52905436	698.91088645793	-4914733.52905812
237.137370566166	387.369704683026	-3685515.07443729	387.368488997167	-3685515.07464263	387.367689239282	-3685515.07465297
			387.368488997167	-3685515.07464263	387.370061896411	-3685515.07484512	387.367743043152	-3685515.07485697
			387.367689239282	-3685515.07465297	387.367743043152	-3685515.07485697	387.369845657924	-3685515.07486439
316.227766016838	215.026649711247	-2763737.4978574	215.025385868735	-2763737.49799427	215.024605818256	-2763737.49801265
			215.025385868735	-2763737.49799427	215.02691061111	-2763737.49812734	215.024611465196	-2763737.49814773
			215.024605818256	-2763737.49801265	215.024611465196	-2763737.49814773	215.026733787604	-2763737.49816221
421.696503428582	117.956457462474	-2072505.21596226	117.955152593703	-2072505.21604558	117.954393023952	-2072505.21607196
			117.955152593703	-2072505.21604558	117.956636309812	-2072505.21612384	117.954357644645	-2072505.21615291
			117.954393023952	-2072505.21607196	117.954357644645	-2072505.21615291	117.956500447907	-2072505.21617409
562.341325190349	64.3205272899932	-1554156.5752336	64.3191898752585	-1554156.5752877	64.3184474081128	-1554156.57531267
			64.3191898752586	-1554156.5752877	64.3206410454477	-1554156.57533505	64.3183794828036	-1554156.5753636
			64.3184474081129	-1554156.57531267	64.3183794828036	-1554156.5753636	64.3205393888164	-1554156.57538163
749.894209332456	34.5711102833986	-1165451.40675287	34.5697494470853	-1165451.40678979	34.569018529089	-1165451.40681039
			34.5697494470853	-1165451.40678979	34.5711771960971	-1165451.40681771	34.5689271822342	-1165451.40684309
			34.569018529089	-1165451.40681039	34.5689271822342	-1165451.40684309	34.5710986376891	-1165451.40685444
1000	20.8645998203996	-873963.321916158	20.863212711674	-873963.321922278	20.8624888173075	-873963.321925367
			20.863212711674	-873963.321922278	20.8646141882176	-873963.321916388	20.8623711963225	-873963.321925856
			20.8624888173075	-873963.321925367	20.8623711963224	-873963.321925856	20.8645496770514	-873963.32191661
1333.52143216332	8.54482977164236	-655380.111667563	8.54345184466935	-655380.111687222	8.54272743445213	-655380.111690862
			8.54345184466934	-655380.111687221	8.54486250440276	-655380.111690863	8.54261899698936	-655380.11170301
			8.54272743445212	-655380.111690862	8.54261899698936	-655380.11170301	8.54479696182257	-655380.111690202
1778.27941003892	4.14907819896867	-491465.609883716	4.14769494950313	-491465.609899282	4.1469708444064	-491465.609904576
			4.14769494950313	-491465.609899282	4.14910028883194	-491465.609893489	4.14685708543707	-491465.609910128
			4.1469708444064	-491465.609904576	4.14685708543706	-491465.609910128	4.14903535679392	-491465.609893489
2371.37370566166	1.84767326449885	-368547.139998557	1.8462861507038	-368547.14001307	1.84556225590018	-368547.140020387
			1.84628615070381	-368547.140013071	1.84768762947166	-368547.139999103	1.84544463461482	-368547.140021547
			1.84556225590019	-368547.140020387	1.84544463461481	-368547.140021547	1.84762311858105	-368547.139999615
3162.27766016838	0.670952658920618	-276371.327617966	0.669562793694686	-276371.327634355	0.668839033004989	-276371.327644233
			0.669562793694661	-276371.327634355	0.670961527805855	-276371.327612763	0.668718664210763	-276371.327642815
			0.668839033004992	-276371.327644233	0.668718664210785	-276371.327642815	0.670897286174163	-276371.327613688
4216.96503428582	0.0630857655839839	-207249.238279598	0.0616939631874064	-207249.238300968	0.0609702707325938	-207249.238314161
			0.0616939631874092	-207249.238300968	0.0630907722709073	-207249.238271689	0.0608479722028876	-207249.238311785
			0.0609702707325965	-207249.238314161	0.0608479722028848	-207249.238311785	0.0630266689860853	-207249.238272964
5623.41325190349	-0.613585559689206	-155415.001952485	-0.614972701632407	-155415.001986901	-0.615696600650606	-155415.002004249
			-0.614972701632407	-155415.001986901	-0.613571209998739	-155415.001953777	-0.615814223266514	-155415.002006998
			-0.615696600650606	-155415.002004249	-0.615814223266517	-155415.002006998	-0.613635722852912	-155415.001954986
7498.94209332456	0.148635570634068	-116544.832577821	0.147248401952896	-116544.832623716	0.146524499316197	-116544.832646846
			0.147248401952896	-116544.832623716	0.148649905670961	-116544.832579545	0.146406875346816	-116544.832650513
			0.146524499316206	-116544.832646846	0.146406875346816	-116544.832650513	0.148585391699749	-116544.832581149
10000	-0.00341147875815573	-87396.2965473027	-0.00480011801910485	-87396.2966073411	-0.00552396304857039	-87396.2966382313
			-0.00480011801911873	-87396.2966073411	-0.00340001603698625	-87396.2965472744	-0.00564301320779004	-87396.296641958
			-0.00552396304857317	-87396.2966382313	-0.00564301320777894	-87396.296641958	-0.00346440398930059	-87396.2965495047
13335.2143216332	-0.0119575345313816	-65537.9834147791	-0.0133448348591081	-65537.9834963941	-0.0140687572377285	-65537.9835375175
			-0.0133448348590998	-65537.9834963941	-0.0119432710115552	-65537.983417848	-0.0141863874602299	-65537.9835440397
			-0.0140687572377229	-65537.9835375175	-0.0141863874602327	-65537.9835440397	-0.0120077942382169	-65537.9834206836
17782.7941003892	0.00965158314258086	-49146.5604440598	0.0082661793439881	-49146.560553608	0.0075421630673228	-49146.5606083951
			0.00826617934399088	-49146.560553608	0.00966985831459266	-49146.5604495814	0.00742657294514615	-49146.5606178057
			0.00754216306732003	-49146.5606083951	0.00742657294514337	-49146.5606178058	0.00960518182400449	-49146.5604532599
23713.7370566166	0.0356608669435765	-36854.7233507517	0.0342759065847381	-36854.7234960611	0.0335518274415914	-36854.7235691263
			0.0342759065847298	-36854.7234960611	0.0356804171909753	-36854.7233565719	0.0334369340290158	-36854.7235809048
			0.0335518274415941	-36854.7235691263	0.0334369340290214	-36854.7235809048	0.0356156761790516	-36854.7233614902
31622.7766016838	0.0532554202920893	-27637.1406748946	0.0518672299785972	-27637.1408684074	0.0511431780521932	-27637.1409659261
			0.0518672299785805	-27637.1408684074	0.0532691993301276	-27637.1406821545	0.0510255048303876	-27637.1409813913
			0.0511431780521904	-27637.1409659261	0.0510255048303987	-27637.1409813913	0.0532046210755754	-27637.1406888872
42169.6503428582	0.0566412161319363	-20724.9268767102	0.0552475751968484	-20724.9271376525	0.0545236958901407	-20724.9272678447
			0.0552475751968484	-20724.9271376525	0.0566453148664159	-20724.9268922141	0.0544013779495423	-20724.9272913999
			0.0545236958901407	-20724.9272678447	0.0544013779495478	-20724.9272913999	0.0565812734554472	-20724.9269015017
56234.1325190349	0.0472301734314534	-15541.4993626108	0.0458328328483748	-15541.4997138228	0.0451092273356268	-15541.4998875565
			0.045832832848372	-15541.4997138228	0.0472290370227169	-15541.4993898719	0.0449846420269351	-15541.4999222905
			0.0451092273356324	-15541.4998875565	0.0449846420269406	-15541.4999222905	0.0471658823999077	-15541.4994025238
74989.4209332456	0.0276509780400641	-11654.4793203096	0.0262528355385011	-11654.4797864998	0.0255291715771183	-11654.4800180635
			0.0262528355385122	-11654.4797864998	0.0276520768885347	-11654.4793525994	0.0254063038405528	-11654.4800623945
			0.0255291715771183	-11654.4800180635	0.0254063038405389	-11654.4800623945	0.0275894068002241	-11654.4793693049
100000	0.000934925857620783	-8739.62805141612	-0.000462907762374676	-8739.62866247968	-0.00118836157842472	-8739.62897070779
			-0.0004629077623719	-8739.62866247968	0.000943461700281256	-8739.6280738543	-0.0013065049721428	-8739.62901960569
			-0.0011883615784275	-8739.62897070779	-0.00130650497214835	-8739.62901960569	0.000878277085730739	-8739.62809512887
133352.143216332	-0.021185576080382	-6553.80056992968	-0.0225865312213386	-6553.80137065576	-0.0233174819178283	-6553.80178094161
			-0.0225865312213386	-6553.80137065576	-0.0211712123676544	-6553.8005729821	-0.0234309921333914	-6553.8018329563
			-0.0233174819178283	-6553.80178094161	-0.0234309921333831	-6553.8018329563	-0.021245528958122	-6553.80060014543
177827.941003892	0.00207954244994812	-4914.65365165983	0.000659245925344054	-4914.65473470453	-6.94426901731715e-05	-4914.65528219994
			0.000659245925335727	-4914.65473470453	0.00207590782484446	-4914.6536894332	-0.000188714876120377	-4914.65536912279
			-6.94426901731715e-05	-4914.65528219995	-0.000188714876114826	-4914.65536912279	0.00200927430647757	-4914.65372720552
237137.370566166	0.00208349193275281	-3685.46919748781	0.000638746927120182	-3685.47063661417	-9.3416258445389e-05	-3685.47136583346
			0.000638746927131284	-3685.47063661417	0.00206668249032038	-3685.4692448261	-0.000213971814880254	-3685.47148169946
			-9.3416258445389e-05	-3685.47136583346	-0.000213971814883029	-3685.47148169947	0.00199840732509338	-3685.46929511067
316227.766016838	0.00206241706330601	-2763.71089752172	0.000610408355938841	-2763.71282086317	-0.000128515799088791	-2763.71379062156
			0.000610408355949943	-2763.71282086317	0.00204793298332617	-2763.71096735573	-0.000249172045949098	-2763.71394515323
			-0.000128515799086015	-2763.71379062156	-0.000249172045957424	-2763.71394515323	0.00197959828498739	-2763.7110344502
421696.503428582	0.00202151135603457	-2072.48913502889	0.0005571921023656	-2072.49170079888	-0.000192141416371916	-2072.49298896145
			0.000557192102368376	-2072.49170079888	0.0020094678110899	-2072.48923491504	-0.000312848717823333	-2072.49319506378
			-0.000192141416371916	-2072.49298896145	-0.000312848717828884	-2072.49319506378	0.00194118675621024	-2072.48932445845
562341.325190349	0.0021014891895349	-1554.14553518314	0.000617275258302241	-1554.14895084666	-0.000146973316189625	-1554.15065969053
			0.000617275258318895	-1554.14895084666	0.00209121023948544	-1554.14567421173	-0.000267790840291493	-1554.15093456129
			-0.000146973316170196	-1554.15065969053	-0.000267790840294269	-1554.15093456129	0.00202297543704655	-1554.14579371922
749894.209332456	0.00233791241102121	-1165.44169909457	0.000831159676795146	-1165.44624169166	4.50414484542971e-05	-1165.4485039756
			0.000831159676797921	-1165.44624169166	0.00233933566554101	-1165.44189527125	-7.06463848143546e-05	-1165.44887344695
			4.50414484570727e-05	-1165.4485039756	-7.06463848143546e-05	-1165.44887344695	0.00226686204216342	-1165.44205049072
1000000	0.00218617283584688	-873.95453791772	0.000639434742294442	-873.960566619578	-0.000168433868616424	-873.963565388325
