!Generated from: C:\Users\nkfzm\OneDrive - University of Missouri\Desktop\Research\PowerSI\Board 4 - GGPGG\b4.spd
! Port1_decap_port1_1::pwr
! Port2_decap_port2_1::pwr
! Port3_ic_port_1::pwr
!
!Layout Workbench Version: 24.1.0.10141.541387   000
!Computer Host Name: RS29JQCX3
!
!TouchstoneFormatFlag = 1
! GNDNET gnd
! NETSLIST 
!
#	Hz	Z	RI	R	1
0	33982482005.4374	-0	33982482005.2789	-0	33982482004.2051	-0
			33982482005.2789	-0	33982482005.1249	-0	33982482004.0482	-0
			33982482004.2051	-0	33982482004.0481	-0	33982482002.9756	-0
0.1	2282253149.63874	-8510911761.60847	2282253149.61342	-8510911761.55107	2282253148.9367	-8510911761.45847
			2282253149.61342	-8510911761.55107	2282253149.59252	-8510911761.49367	2282253148.9129	-8510911761.40106
			2282253148.9367	-8510911761.45847	2282253148.91291	-8510911761.40107	2282253148.23746	-8510911761.30846
0.133352143216332	1296072489.5197	-6508664597.97064	1296072489.50694	-6508664597.9417	1296072489.00146	-6508664597.8287
			1296072489.50693	-6508664597.9417	1296072489.49859	-6508664597.91276	1296072488.99021	-6508664597.79976
			1296072489.00146	-6508664597.8287	1296072488.99021	-6508664597.79977	1296072488.486	-6508664597.68677
0.177827941003892	729569707.091224	-4925378264.18111	729569707.082128	-4925378264.15907	729569706.707761	-4925378264.05563
			729569707.082129	-4925378264.15907	729569707.077454	-4925378264.13702	729569706.700185	-4925378264.03359
			729569706.707762	-4925378264.05564	729569706.700185	-4925378264.03359	729569706.327088	-4925378263.93015
0.237137370566166	409261642.013472	-3706685484.75351	409261642.006674	-3706685484.73685	409261641.729567	-3706685484.64905
			409261642.006674	-3706685484.73685	409261642.004296	-3706685484.72019	409261641.724288	-3706685484.63239
			409261641.729567	-3706685484.64905	409261641.724288	-3706685484.63239	409261641.448451	-3706685484.54459
0.316227766016838	229311584.555441	-2781986263.88143	229311584.550097	-2781986263.86889	229311584.344793	-2781986263.79747
			229311584.550097	-2781986263.86889	229311584.549175	-2781986263.85635	229311584.340968	-2781986263.78494
			229311584.344793	-2781986263.79747	229311584.340968	-2781986263.78493	229311584.136934	-2781986263.71351
0.421696503428582	128475665.507743	-2085413966.04847	128475665.503324	-2085413966.0391	128475665.351011	-2085413965.9825
			128475665.503324	-2085413966.0391	128475665.503326	-2085413966.02973	128475665.348111	-2085413965.97313
			128475665.351011	-2085413965.9825	128475665.348111	-2085413965.97313	128475665.197067	-2085413965.91653
0.562341325190349	72007361.7327025	-1562520063.29634	72007361.7289088	-1562520063.28932	72007361.6157667	-1562520063.24522
			72007361.7289088	-1562520063.28932	72007361.7295366	-1562520063.2823	72007361.6134921	-1562520063.2382
			72007361.6157667	-1562520063.24522	72007361.6134921	-1562520063.2382	72007361.5016195	-1562520063.19409
0.749894209332456	40380142.6305699	-1170616082.13438	40380142.627199	-1170616082.12913	40380142.5430774	-1170616082.09515
			40380142.6271991	-1170616082.12913	40380142.6282497	-1170616082.12388	40380142.5412256	-1170616082.0899
			40380142.5430774	-1170616082.09516	40380142.5412257	-1170616082.0899	40380142.4583735	-1170616082.05593
1	22656739.2755316	-877061936.575791	22656739.2724538	-877061936.571869	22656739.2098817	-877061936.545913
			22656739.2724538	-877061936.57187	22656739.2737975	-877061936.567949	22656739.208323	-877061936.541992
			22656739.2098817	-877061936.545913	22656739.208323	-877061936.541992	22656739.1470204	-877061936.516036
1.33352143216332	12718721.1281141	-657203257.650293	12718721.1252451	-657203257.647371	12718721.078708	-657203257.627657
			12718721.1252451	-657203257.647371	12718721.1267976	-657203257.644449	12718721.0773581	-657203257.624734
			12718721.0787079	-657203257.627656	12718721.0773581	-657203257.624734	12718721.0320903	-657203257.60502
1.77827941003892	7142922.89341324	-492524752.388458	7142922.89069769	-492524752.386285	7142922.85611295	-492524752.37138
			7142922.8906977	-492524752.386286	7142922.89240362	-492524752.384112	7142922.85491651	-492524752.369207
			7142922.85611295	-492524752.37138	7142922.8549165	-492524752.369206	7142922.82160125	-492524752.354301
2.37137370566166	4012962.1053777	-369156915.226189	4012962.1027786	-369156915.224576	4012962.07711626	-369156915.213347
			4012962.1027786	-369156915.224577	4012962.10460097	-369156915.222963	4012962.07603627	-369156915.211734
			4012962.07711626	-369156915.213347	4012962.07603626	-369156915.211734	4012962.05164342	-369156915.200505
3.16227766016838	2255204.92014877	-276720107.118594	2255204.91764051	-276720107.117396	2255204.89864683	-276720107.108963
			2255204.91764051	-276720107.117396	2255204.91955372	-276720107.116199	2255204.89765766	-276720107.107766
			2255204.89864683	-276720107.108963	2255204.89765767	-276720107.107766	2255204.87993348	-276720107.099333
4.21696503428582	1267713.70986114	-207447762.447991	1267713.70742462	-207447762.447098	1267713.69342046	-207447762.440783
			1267713.70742462	-207447762.447098	1267713.70940957	-207447762.446206	1267713.69250304	-207447762.43989
			1267713.69342046	-207447762.440783	1267713.69250304	-207447762.43989	1267713.67976837	-207447762.433575
5.62341325190349	713687.213356263	-155527513.763107	713687.210995314	-155527513.762421	713687.200726437	-155527513.75773
			713687.210995315	-155527513.762421	713687.213055836	-155527513.761735	713687.199884586	-155527513.757044
			713687.200726438	-155527513.75773	713687.199884585	-155527513.757044	713687.190885197	-155527513.752353
7.49894209332456	401199.684842272	-116608373.478253	401199.682509791	-116608373.477721	401199.67505005	-116608373.474207
			401199.682509791	-116608373.477721	401199.68459878	-116608373.477189	401199.674236665	-116608373.473675
			401199.67505005	-116608373.474207	401199.674236665	-116608373.473675	401199.668046412	-116608373.470162
10	225559.93505891	-87432115.0831881	225559.93274746	-87432115.0827684	225559.9273825	-87432115.0801352
			225559.93274746	-87432115.0827684	225559.93485748	-87432115.0823485	225559.926590146	-87432115.0797154
			225559.927382501	-87432115.0801352	225559.926590146	-87432115.0797154	225559.922494675	-87432115.0770822
13.3352143216332	126860.829832869	-65558092.8239133	126860.827525738	-65558092.8235625	126860.823730936	-65558092.8215973
			126860.827525738	-65558092.8235625	126860.829640076	-65558092.8232114	126860.8229429	-65558092.8212464
			126860.823730936	-65558092.8215973	126860.8229429	-65558092.8212464	126860.820417587	-65558092.8192812
17.7827941003892	71302.9340763843	-49157519.5332934	71302.9316283536	-49157519.5330603	71302.9289888081	-49157519.5315177
			71302.9316283536	-49157519.5330603	71302.9336017923	-49157519.532827	71302.9280598731	-49157519.5312845
			71302.9289888081	-49157519.5315177	71302.9280598731	-49157519.5312845	71302.9266898165	-49157519.5297418
23.7137370566166	39860.1816588854	-36861044.7872147	39860.1794313038	-36861044.7872069	39860.1775935852	-36861044.7860142
			39860.1794313037	-36861044.7872069	39860.1816251916	-36861044.7871986	39860.1768850994	-36861044.7860062
			39860.1775935852	-36861044.7860142	39860.1768850994	-36861044.7860062	39860.1763168695	-36861044.7848134
31.6227766016838	22362.502375421	-27640593.5291802	22362.5000259599	-27640593.5292595	22362.4990101014	-27640593.5282791
			22362.5000259599	-27640593.5292595	22362.5020979686	-27640593.5293382	22362.4981797363	-27640593.5283582
			22362.4990101014	-27640593.5282791	22362.4981797363	-27640593.5283582	22362.4984333665	-27640593.5273775
42.1696503428582	12551.9140823977	-20726872.1436818	12551.9118422991	-20726872.1436607	12551.9112285451	-20726872.1430164
			12551.9118422991	-20726872.1436606	12551.91402367	-20726872.1436388	12551.9105075423	-20726872.142995
			12551.9112285451	-20726872.1430164	12551.9105075423	-20726872.142995	12551.9111632769	-20726872.1423504
56.2341325190349	7035.97034245216	-15542590.3401793	7035.96809028511	-15542590.3401457	7035.96787042585	-15542590.3397173
			7035.9680902851	-15542590.3401457	7035.97025958773	-15542590.3401111	7035.96713735466	-15542590.3396834
			7035.96787042585	-15542590.3397173	7035.96713735466	-15542590.3396834	7035.96818698402	-15542590.3392547
74.9894209332456	3946.55461472382	-11655085.2935249	3946.55236789979	-11655085.2934981	3946.55243378609	-11655085.2931746
			3946.55236789979	-11655085.2934981	3946.55454254546	-11655085.2934699	3946.55170605796	-11655085.2931473
			3946.55243378609	-11655085.2931746	3946.55170605796	-11655085.2931473	3946.55304143281	-11655085.2928234
100	2208.55027166067	-8739961.26682969	2208.54802864438	-8739961.26680727	2208.54830360607	-8739961.26657826
			2208.54802864438	-8739961.26680727	2208.5502070978	-8739961.26678298	2208.54757968569	-8739961.26655521
			2208.54830360608	-8739961.26657826	2208.54757968569	-8739961.2665552	2208.54912413597	-8739961.26632564
133.352143216332	1237.79185796584	-6553979.07242421	1237.78961795302	-6553979.07240283	1237.79004754528	-6553979.07224318
			1237.78961795302	-6553979.07240283	1237.79179941006	-6553979.07237895	1237.7893266284	-6553979.07222094
			1237.79004754528	-6553979.07224318	1237.7893266284	-6553979.07222095	1237.7910257092	-6553979.07206054
177.827941003892	691.045529482408	-4914751.56680158	691.043289208724	-4914751.56679458	691.0438385854	-4914751.56668094
			691.043289208724	-4914751.56679458	691.045470405044	-4914751.56678425	691.043117407781	-4914751.56667281
			691.043838585399	-4914751.56668094	691.043117407781	-4914751.56667281	691.044936272888	-4914751.56655817
237.137370566166	382.627328425536	-3685518.62316496	382.62511140375	-3685518.62315766	382.625736133372	-3685518.62309215
			382.62511140375	-3685518.62315766	382.627315852104	-3685518.62314594	382.625038207718	-3685518.62308335
			382.625736133372	-3685518.62309215	382.625038207718	-3685518.62308335	382.626932425932	-3685518.6230165
316.227766016838	210.278261165326	-2763738.29224067	210.276023334792	-2763738.29222852	210.276725025802	-2763738.29217611
			210.276023334792	-2763738.29222852	210.278206974625	-2763738.29221046	210.276006291525	-2763738.29216195
			210.276725025801	-2763738.29217611	210.276006291525	-2763738.29216195	210.277977470859	-2763738.29210776
421.696503428582	114.785771542111	-2072505.75689576	114.783544573015	-2072505.75689697	114.784286634114	-2072505.75685273
			114.783544573015	-2072505.75689698	114.785739074438	-2072505.7568903	114.783578761372	-2072505.75685125
			114.784286634114	-2072505.75685273	114.783578761372	-2072505.75685125	114.785590310757	-2072505.75680463
562.341325190349	62.5922001382124	-1554156.73421542	62.5899763941104	-1554156.73420664	62.5907478768667	-1554156.73418346
			62.5899763941104	-1554156.73420664	62.5921741203272	-1554156.73418735	62.5900432291569	-1554156.7341711
			62.5907478768667	-1554156.73418346	62.5900432291568	-1554156.7341711	62.5920842003223	-1554156.73414475
749.894209332456	33.3937870343115	-1165450.96962736	33.3915494058708	-1165450.96962284	33.3923551868346	-1165450.96960594
			33.3915494058708	-1165450.96962284	33.3937332479606	-1165450.96960428	33.3916366549404	-1165450.96959663
			33.3923551868346	-1165450.96960594	33.3916366549404	-1165450.96959663	33.3937119244772	-1165450.96957551
1000	20.8646229194396	-873963.32191639	20.8623799275445	-873963.321925857	20.863221442896	-873963.32192228
			20.8623799275445	-873963.321925857	20.8645584082734	-873963.321916612	20.8624975485295	-873963.321925368
			20.863221442896	-873963.32192228	20.8624975485295	-873963.321925368	20.8646085516217	-873963.321916159
1333.52143216332	8.54485945410157	-655380.111690738	8.54261594668873	-655380.111702884	8.54344879436603	-655380.111687096
			8.54261594668874	-655380.111702884	8.54479391152251	-655380.111690077	8.54272438414938	-655380.111690736
			8.54344879436603	-655380.111687096	8.54272438414937	-655380.111690736	8.54482672133691	-655380.111667437
1778.27941003892	4.14909915761727	-491465.60989345	4.14685595422266	-491465.609910088	4.14769381828759	-491465.609899242
			4.14685595422267	-491465.609910088	4.14903422557978	-491465.609893449	4.14696971319112	-491465.609904537
			4.14769381828759	-491465.609899242	4.14696971319112	-491465.609904537	4.14907706775226	-491465.609883677
2371.37370566166	1.84768732921829	-368547.139999103	1.84544433436143	-368547.140021548	1.84628585045047	-368547.140013071
			1.8454443343614	-368547.140021548	1.84762281832761	-368547.139999616	1.8455619556468	-368547.140020388
			1.84628585045046	-368547.140013071	1.84556195564682	-368547.140020388	1.84767296424552	-368547.139998558
3162.27766016838	0.670961744714729	-276371.327612781	0.668718881119301	-276371.327642833	0.669563010604177	-276371.327634373
			0.66871888111931	-276371.327642833	0.670897503082349	-276371.327613706	0.668839249914155	-276371.327644251
			0.669563010604185	-276371.327634373	0.668839249914149	-276371.327644251	0.670952875830758	-276371.327617984
4216.96503428582	0.0630911712955484	-207249.238271715	0.0608483712266711	-207249.23831181	0.0616943622131549	-207249.238300993
			0.0608483712266655	-207249.23831181	0.0630270680090056	-207249.238272989	0.0609706697574874	-207249.238314187
			0.0616943622131549	-207249.238300993	0.060970669757493	-207249.238314187	0.063086164610851	-207249.238279624
5623.41325190349	-0.613571377942324	-155415.001953777	-0.615814391210084	-155415.002006998	-0.614972869575986	-155415.001986901
			-0.615814391210084	-155415.002006998	-0.613635890796471	-155415.001954985	-0.615696768594184	-155415.002004249
			-0.614972869575986	-155415.001986901	-0.615696768594184	-155415.002004249	-0.613585727632798	-155415.001952484
7498.94209332456	0.148649647963076	-116544.832579545	0.146406617638947	-116544.832650513	0.147248144245063	-116544.832623716
			0.146406617638958	-116544.832650513	0.148585133991905	-116544.832581149	0.146524241608387	-116544.832646847
			0.147248144245068	-116544.832623716	0.146524241608378	-116544.832646847	0.148635312926268	-116544.832577821
10000	-0.00340002383605598	-87396.2965472747	-0.00564302100665437	-87396.2966419583	-0.00480012581805245	-87396.2966073413
			-0.0056430210066627	-87396.2966419583	-0.00346441178798729	-87396.2965495049	-0.00552397084732648	-87396.2966382315
			-0.004800125818058	-87396.2966073413	-0.00552397084732648	-87396.2966382315	-0.0034114865569812	-87396.296547303
13335.2143216332	-0.0119432345400849	-65537.983417848	-0.0141863509887624	-65537.9835440397	-0.0133447983876295	-65537.9834963941
			-0.0141863509887624	-65537.9835440397	-0.0120077577667493	-65537.9834206836	-0.0140687207662499	-65537.9835375175
			-0.0133447983876295	-65537.9834963941	-0.0140687207662471	-65537.9835375175	-0.0119574980598919	-65537.9834147791
17782.7941003892	0.0096698565398623	-49146.560449581	0.00742657117031864	-49146.5606178053	0.0082661775690912	-49146.5605536075
			0.00742657117032974	-49146.5606178053	0.00960518004909094	-49146.5604532594	0.00754216129233709	-49146.5606083946
			0.00826617756908565	-49146.5605536075	0.00754216129232321	-49146.5606083946	0.00965158136751187	-49146.5604440593
23713.7370566166	0.0356804019288476	-36854.7233565714	0.0334369187667855	-36854.7235809043	0.0342758913223773	-36854.7234960605
			0.0334369187667966	-36854.7235809043	0.0356156609167269	-36854.7233614897	0.0335518121791556	-36854.7235691258
			0.0342758913223717	-36854.7234960605	0.0335518121791417	-36854.7235691258	0.0356608516809798	-36854.7233507513
31622.7766016838	0.053269179431098	-27637.1406821544	0.0510254849313746	-27637.1409813913	0.0518672100795564	-27637.1408684074
			0.0510254849313801	-27637.1409813913	0.053204601176568	-27637.1406888872	0.0511431581531857	-27637.1409659261
			0.0518672100795592	-27637.1408684074	0.0511431581531829	-27637.1409659261	0.0532554003930402	-27637.1406748946
42169.6503428582	0.0566452914435522	-20724.9268922149	0.0544013545268812	-20724.9272914008	0.0552475517746037	-20724.9271376534
			0.0544013545268784	-20724.9272914008	0.0565812500329776	-20724.9269015026	0.0545236724680931	-20724.9272678456
			0.0552475517746065	-20724.9271376534	0.0545236724681042	-20724.9272678456	0.0566411927102495	-20724.926876711
56234.1325190349	0.0472290135037384	-15541.4993898735	0.0449846185083591	-15541.4999222921	0.0458328093309007	-15541.4997138244
			0.0449846185083536	-15541.4999222921	0.0471658588817231	-15541.4994025254	0.0451092038185497	-15541.4998875581
			0.0458328093308924	-15541.4997138244	0.0451092038185524	-15541.4998875581	0.0472301499153532	-15541.4993626125
74989.4209332456	0.027652064817818	-11654.4793526009	0.0254062917702774	-11654.480062396	0.0262528234696802	-11654.4797865013
			0.0254062917702774	-11654.480062396	0.0275893947304096	-11654.4793693064	0.0255291595087442	-11654.480018065
			0.0262528234696802	-11654.4797865013	0.0255291595087442	-11654.480018065	0.0276509659730195	-11654.4793203111
100000	0.000943461527097567	-8739.6280738543	-0.00130650514531816	-8739.62901960569	-0.000462907935544488	-8739.62866247968
			-0.00130650514534036	-8739.62901960569	0.000878276912547049	-8739.62809512886	-0.00118836175161952	-8739.62897070779
			-0.000462907935552814	-8739.62866247968	-0.00118836175160009	-8739.62897070779	0.000934925684448196	-8739.62805141612
133352.143216332	-0.0211712023647309	-6553.80057297934	-0.0234309821313283	-6553.80183295354	-0.0225865212242049	-6553.80137065298
			-0.0234309821313256	-6553.80183295354	-0.0212455189569277	-6553.80060014266	-0.0233174719215495	-6553.80178093883
			-0.0225865212242077	-6553.80137065298	-0.0233174719215579	-6553.80178093883	-0.0211855660887439	-6553.80056992687
177827.941003892	0.00207590785382683	-4914.65368943321	-0.000188714847171312	-4914.6553691228	0.000659245954301446	-4914.65473470453
			-0.000188714847157434	-4914.6553691228	0.00200927433540721	-4914.65372720552	-6.9442661218555e-05	-4914.65528219995
			0.000659245954301446	-4914.65473470453	-6.94426612296573e-05	-4914.65528219995	0.00207954247890274	-4914.65365165984
237137.370566166	0.00206668249206066	-3685.4692448261	-0.000213971813142755	-3685.47148169946	0.000638746928854905	-3685.47063661417
			-0.000213971813139979	-3685.47148169946	0.00199840732682532	-3685.46929511067	-9.34162567189922e-05	-3685.47136583346
			0.000638746928849354	-3685.47063661417	-9.34162567217678e-05	-3685.47136583346	0.00208349193446533	-3685.4691974878
316227.766016838	0.00204793303226758	-2763.71096735573	-0.000249171996993813	-2763.71394515323	0.000610408404916329	-2763.71282086317
			-0.000249171997007691	-2763.71394515323	0.00197959833395656	-2763.71103445021	-0.000128515750122404	-2763.71379062156
			0.000610408404908003	-2763.71282086317	-0.000128515750119629	-2763.71379062156	0.0020624171122946	-2763.71089752172
421696.503428582	0.00200946780469224	-2072.48923491504	-0.000312848724212667	-2072.49319506378	0.000557192095976267	-2072.49170079888
			-0.000312848724207115	-2072.49319506378	0.00194118674984034	-2072.48932445845	-0.000192141422733494	-2072.49298896145
			0.000557192095970716	-2072.49170079888	-0.000192141422739045	-2072.49298896145	0.00202151134965634	-2072.48913502889
562341.325190349	0.00209121024048742	-1554.14567421173	-0.000267790839295068	-1554.15093456129	0.000617275259323646	-1554.14895084666
			-0.000267790839311721	-1554.15093456129	0.0020229754380291	-1554.14579371922	-0.000146973315198751	-1554.15065969053
			0.000617275259318095	-1554.14895084666	-0.000146973315190424	-1554.15065969053	0.00210148919053965	-1554.14553518314
749894.209332456	0.00233933587915347	-1165.44189527107	-7.06461756788679e-05	-1165.44887344677	0.00083115988631921	-1165.44624169148
			-7.06461756899701e-05	-1165.44887344677	0.00226686224681638	-1165.44205049054	4.50416532876696e-05	-1165.44850397542
			0.000831159886308108	-1165.44624169148	4.50416532904452e-05	-1165.44850397542	0.00233791261643468	-1165.44169909439
1000000	0.00217832227300818	-873.954795744804	-0.000289848107820623	-873.964054215894	0.000639434727842114	-873.960566619579
