!Murata Part Number: GCM155R71H104KE02
!These Parameters are Measured in Series Mode Connection
!       o--ll--o
!Port1            Port2
!       o------o
!Operation Temp=25[degC], DC Bias Voltage=0[V]
!Freq. Start=100[Hz] Stop=6[GHz], 401[Steps]
!Data Generated on Feb 4, 2025
# Hz S RI R 50
!Freq.(Hz) S11(Real) S11(Imag) S21(Real) S21(Imag) S12(Real) S12(Imag) S22(Real) S22(Imag)
100.0 0.9999322408511981 -0.005874918556756126 6.775914880179748E-5 0.005874918556756126 6.775914880179748E-5 0.005874918556756126 0.9999322408511981 -0.005874918556756126
104.57921513303334 0.9999276192046744 -0.006142963406408899 7.238079532561402E-5 0.006142963406408899 7.238079532561402E-5 0.006142963406408899 0.9999276192046744 -0.006142963406408899
109.3681223784127 0.999922622068035 -0.006423249025681218 7.737793196510343E-5 0.006423249025681218 7.737793196510343E-5 0.006423249025681218 0.999922622068035 -0.006423249025681218
114.3763239890794 0.9999172156865938 -0.0067163315848509835 8.278431340627649E-5 0.0067163315848509835 8.278431340627649E-5 0.0067163315848509835 0.9999172156865938 -0.0067163315848509835
119.61386192579457 0.9999113636469701 -0.007022792197937128 8.863635302984988E-5 0.007022792197937128 8.863635302984988E-5 0.007022792197937128 0.9999113636469701 -0.007022792197937128
125.09123799230618 0.999905026687406 -0.00734323807016529 9.497331259390375E-5 0.00734323807016529 9.497331259390375E-5 0.00734323807016529 0.999905026687406 -0.00734323807016529
130.8194348925486 0.9998981624882669 -0.007678303704654124 1.0183751173306184E-4 0.007678303704654124 1.0183751173306184E-4 0.007678303704654124 0.9998981624882669 -0.007678303704654124
136.8099382520969 0.999890725439754 -0.008028652171650694 1.0927456024588187E-4 0.008028652171650694 1.0927456024588187E-4 0.008028652171650694 0.999890725439754 -0.008028652171650694
143.0747596480305 0.9998826663833373 -0.008394976443712713 1.1733361666267077E-4 0.008394976443712713 1.1733361666267077E-4 0.008394976443712713 0.9998826663833373 -0.008394976443712713
149.6264606933842 0.9998739323228394 -0.00877800080022574 1.260676771605705E-4 0.00877800080022574 1.260676771605705E-4 0.00877800080022574 0.9998739323228394 -0.00877800080022574
156.47817822447783 0.9998644661004943 -0.009178482304538146 1.3553389950571505E-4 0.009178482304538146 1.3553389950571505E-4 0.009178482304538146 0.9998644661004943 -0.009178482304538146
163.643650641628 0.9998542060326678 -0.009597212356781728 1.45793967332007E-4 0.009597212356781728 1.45793967332007E-4 0.009597212356781728 0.9998542060326678 -0.009597212356781728
171.13724545605763 0.9998430854993142 -0.010035018325113346 1.569145006857774E-4 0.010035018325113346 1.569145006857774E-4 0.010035018325113346 0.9998430854993142 -0.010035018325113346
178.97398809823787 0.9998310324806559 -0.010492765257661326 1.6896751934414615E-4 0.010492765257661326 1.6896751934414615E-4 0.010492765257661326 0.9998310324806559 -0.010492765257661326
187.1695920454257 0.9998179690340812 -0.010971357676898257 1.8203096591881666E-4 0.010971357676898257 1.8203096591881666E-4 0.010971357676898257 0.9998179690340812 -0.010971357676898257
195.74049032880657 0.9998038107038467 -0.011471741457508068 1.9618929615321958E-4 0.011471741457508068 1.9618929615321958E-4 0.011471741457508068 0.9998038107038467 -0.011471741457508068
204.70386848341695 0.9997884658559197 -0.01199490578809993 2.1153414408014648E-4 0.01199490578809993 2.1153414408014648E-4 0.01199490578809993 0.9997884658559197 -0.01199490578809993
214.0776990069143 0.9997718349301918 -0.012541885216387511 2.2816506980806437E-4 0.012541885216387511 2.2816506980806437E-4 0.012541885216387511 0.9997718349301918 -0.012541885216387511
223.88077739628844 0.9997538096023622 -0.013113761776748441 2.461903976379183E-4 0.013113761776748441 2.461903976379183E-4 0.013113761776748441 0.9997538096023622 -0.013113761776748441
234.132759834772 0.999734271848015 -0.01371166719846299 2.657281519849508E-4 0.01371166719846299 2.657281519849508E-4 0.01371166719846299 0.999734271848015 -0.01371166719846299
244.85420260451448 0.9997130929017836 -0.014336785192458913 2.8690709821654637E-4 0.014336785192458913 2.8690709821654637E-4 0.014336785192458913 0.9997130929017836 -0.014336785192458913
256.06660330404856 0.999690132104939 -0.014990353814112643 3.0986789506103833E-4 0.014990353814112643 3.0986789506103833E-4 0.014990353814112643 0.999690132104939 -0.014990353814112643
267.792443953192 0.9996652356352451 -0.015673667899614347 3.3476436475493674E-4 0.015673667899614347 3.3476436475493674E-4 0.015673667899614347 0.9996652356352451 -0.015673667899614347
280.0552360718164 0.9996382351133482 -0.01638808157361722 3.617648866519495E-4 0.01638808157361722 3.617648866519495E-4 0.01638808157361722 0.9996382351133482 -0.01638808157361722
292.87956782286926 0.9996089460803013 -0.01713501082635683 3.910539196987543E-4 0.01713501082635683 3.910539196987543E-4 0.01713501082635683 0.9996089460803013 -0.01713501082635683
306.2911533141767 0.9995771663409281 -0.017915936159119926 4.2283365907192806E-4 0.017915936159119926 4.2283365907192806E-4 0.017915936159119926 0.9995771663409281 -0.017915936159119926
320.3168841578819 0.9995426741675588 -0.01873240529780986 4.5732583244120024E-4 0.01873240529780986 4.5732583244120024E-4 0.01873240529780986 0.9995426741675588 -0.01873240529780986
334.9848833909005 0.9995052263581665 -0.019586035975329437 4.947736418335214E-4 0.019586035975329437 4.947736418335214E-4 0.019586035975329437 0.9995052263581665 -0.019586035975329437
350.32456186451077 0.9994645561420451 -0.020478518784493253 5.354438579548214E-4 0.020478518784493253 5.354438579548214E-4 0.020478518784493253 0.9994645561420451 -0.020478518784493253
366.36667721614316 0.9994203709249095 -0.021411620104101185 5.796290750905064E-4 0.021411620104101185 5.796290750905064E-4 0.021411620104101185 0.9994203709249095 -0.021411620104101185
383.1433955416162 0.9993723498636657 -0.02238718510156441 6.276501363343692E-4 0.02238718510156441 6.276501363343692E-4 0.02238718510156441 0.9993723498636657 -0.02238718510156441
400.68835589147574 0.9993201412591516 -0.023407140815998626 6.798587408485313E-4 0.023407140815998626 6.798587408485313E-4 0.023407140815998626 0.9993201412591516 -0.023407140815998626
419.03673772076064 0.999263359752922 -0.024473499325932332 7.366402470778729E-4 0.024473499325932332 7.366402470778729E-4 0.024473499325932332 0.999263359752922 -0.024473499325932332
438.225331427439 0.999201583311734 -0.025588361005683243 7.984166882659617E-4 0.025588361005683243 7.984166882659617E-4 0.025588361005683243 0.999201583311734 -0.025588361005683243
458.2926121209498 0.9991343499808185 -0.0267539178740272 8.656500191814724E-4 0.0267539178740272 8.656500191814724E-4 0.0267539178740272 0.9991343499808185 -0.0267539178740272
479.2788167687661 0.9990611543843911 -0.02797245703802925 9.388456156089304E-4 0.02797245703802925 9.388456156089304E-4 0.02797245703802925 0.9990611543843911 -0.02797245703802925
501.22602487566456 0.9989814439491541 -0.029246364233855796 0.001018556050845914 0.029246364233855796 0.001018556050845914 0.029246364233855796 0.9989814439491541 -0.029246364233855796
524.1782428574726 0.9988946148238382 -0.030578127465074142 0.0011053851761617679 0.030578127465074142 0.0011053851761617679 0.030578127465074142 0.9988946148238382 -0.030578127465074142
548.1814922784702 0.9988000074650852 -0.0319703407374119 0.0011999925349148487 0.0319703407374119 0.0011999925349148487 0.0319703407374119 0.9988000074650852 -0.0319703407374119
573.2839021293739 0.998696901857177 -0.03342570788722249 0.001303098142823126 0.03342570788722249 0.001303098142823126 0.03342570788722249 0.998696901857177 -0.03342570788722249
599.5358053309263 0.9985845123302162 -0.03494704649900297 0.0014154876697838898 0.03494704649900297 0.0014154876697838898 0.03494704649900297 0.9985845123302162 -0.03494704649900297
626.9898396565933 0.9984619819382945 -0.03653729190523296 0.0015380180617054944 0.03653729190523296 0.0015380180617054944 0.03653729190523296 0.9984619819382945 -0.03653729190523296
655.7010532767296 0.9983283763558789 -0.038199501259519486 0.0016716236441210479 0.038199501259519486 0.0016716236441210479 0.038199501259519486 0.9983283763558789 -0.038199501259519486
685.7270151358366 0.9981826772470218 -0.03993685767148332 0.0018173227529782554 0.03993685767148332 0.0018173227529782554 0.03993685767148332 0.9981826772470218 -0.03993685767148332
717.1279303842347 0.9980237750579838 -0.0417526743889205 0.001976224942016099 0.0417526743889205 0.001976224942016099 0.0417526743889205 0.9980237750579838 -0.0417526743889205
749.9667610955984 0.9978504611793887 -0.04365039900939193 0.0021495388206113114 0.04365039900939193 0.0021495388206113114 0.04365039900939193 0.9978504611793887 -0.04365039900939193
784.3093525124082 0.9976614194190484 -0.04563361769938186 0.002338580580951517 0.04563361769938186 0.002338580580951517 0.04563361769938186 0.9976614194190484 -0.04563361769938186
820.2245650724522 0.9974552167211145 -0.04770605939433347 0.0025447832788855736 0.04770605939433347 0.0025447832788855736 0.04770605939433347 0.9974552167211145 -0.04770605939433347
857.7844124811068 0.9972302930612025 -0.04987159994700352 0.0027697069387976328 0.04987159994700352 0.0027697069387976328 0.04987159994700352 0.9972302930612025 -0.04987159994700352
897.0642061062428 0.9969849504407133 -0.05213426618443622 0.00301504955928669 0.05213426618443622 0.00301504955928669 0.05213426618443622 0.9969849504407133 -0.05213426618443622
938.1427059852851 0.9967173408968084 -0.05449823982518986 0.003282659103191571 0.05449823982518986 0.003282659103191571 0.05449823982518986 0.9967173408968084 -0.05449823982518986
981.102278747212 0.9964254534375963 -0.05696786119799594 0.0035745465624036324 0.05696786119799594 0.0035745465624036324 0.05696786119799594 0.9964254534375963 -0.05696786119799594
1026.0290627661395 0.9961070998052894 -0.05954763269054221 0.00389290019471043 0.05954763269054221 0.00389290019471043 0.05954763269054221 0.9961070998052894 -0.05954763269054221
1073.0131408776467 0.9957598989637018 -0.06224222184232447 0.004240101036298306 0.06224222184232447 0.004240101036298306 0.06224222184232447 0.9957598989637018 -0.06224222184232447
1122.1487210041523 0.9953812602008723 -0.06505646397832358 0.004618739799127932 0.06505646397832358 0.004618739799127932 0.06505646397832358 0.9953812602008723 -0.06505646397832358
1173.5343250515148 0.9949683647332556 -0.06799536426051794 0.00503163526674447 0.06799536426051794 0.00503163526674447 0.06799536426051794 0.9949683647332556 -0.06799536426051794
1227.2729864556143 0.9945181456952915 -0.0710640990118897 0.005481854304708564 0.0710640990118897 0.005481854304708564 0.0710640990118897 0.9945181456952915 -0.0710640990118897
1283.4724567750195 0.9940272663977715 -0.07426801614267348 0.005972733602228511 0.07426801614267348 0.005972733602228511 0.07426801614267348 0.9940272663977715 -0.07426801614267348
1342.245421743976 0.9934920967407684 -0.07761263448126042 0.006507903259231425 0.07761263448126042 0.006507903259231425 0.07761263448126042 0.9934920967407684 -0.07761263448126042
1403.7097272189235 0.9929086876724463 -0.08110364178263016 0.00709131232755365 0.08110364178263016 0.00709131232755365 0.08110364178263016 0.9929086876724463 -0.08110364178263016
1467.9886154715937 0.992272743594271 -0.08474689115571682 0.007727256405729079 0.08474689115571682 0.007727256405729079 0.08474689115571682 0.992272743594271 -0.08474689115571682
1535.2109723024755 0.9915795926263534 -0.08854839561805157 0.008420407373646627 0.08854839561805157 0.008420407373646627 0.08854839561805157 0.9915795926263534 -0.08854839561805157
1605.5115854701387 0.9908241546641616 -0.09251432045167436 0.009175845335838515 0.09251432045167436 0.009175845335838515 0.09251432045167436 0.9908241546641616 -0.09251432045167436
1679.0314149545911 0.9900009071798935 -0.09665097299896447 0.009999092820106406 0.09665097299896447 0.009999092820106406 0.09665097299896447 0.9900009071798935 -0.09665097299896447
1755.9178755965756 0.9891038487486347 -0.10096478950090189 0.010896151251365414 0.10096478950090189 0.010896151251365414 0.10096478950090189 0.9891038487486347 -0.10096478950090189
1836.3251326795319 0.9881264603112757 -0.10546231854346592 0.01187353968872424 0.10546231854346592 0.01187353968872424 0.10546231854346592 0.9881264603112757 -0.10546231854346592
1920.4144110468878 0.9870616642234485 -0.11015020064040791 0.01293833577655144 0.11015020064040791 0.01293833577655144 0.11015020064040791 0.9870616642234485 -0.11015020064040791
2008.3543183745 0.9859017811829431 -0.11503514344247104 0.01409821881705695 0.11503514344247104 0.01409821881705695 0.11503514344247104 0.9859017811829431 -0.11503514344247104
2100.321183246434 0.9846384851780611 -0.12012389202420064 0.015361514821938876 0.12012389202420064 0.015361514821938876 0.12012389202420064 0.9846384851780611 -0.12012389202420064
2196.4994087119585 0.9832627566572019 -0.12542319365982932 0.016737243342798247 0.12542319365982932 0.016737243342798247 0.12542319365982932 0.9832627566572019 -0.12542319365982932
2297.0818420326846 0.981764834187144 -0.1309397564595578 0.018235165812855995 0.1309397564595578 0.018235165812855995 0.1309397564595578 0.981764834187144 -0.1309397564595578
2402.270161361206 0.9801341649457774 -0.13668020119743546 0.01986583505422246 0.13668020119743546 0.01986583505422246 0.13668020119743546 0.9801341649457774 -0.13668020119743546
2512.2752801266033 0.9783593544865136 -0.1426510056230322 0.021640645513486385 0.1426510056230322 0.021640645513486385 0.1426510056230322 0.9783593544865136 -0.1426510056230322
2627.3177699376165 0.976428116318599 -0.148858440512826 0.023571883681400854 0.148858440512826 0.023571883681400854 0.148858440512826 0.976428116318599 -0.148858440512826
2747.6283028514745 0.9743272219724464 -0.15530849668612373 0.025672778027553737 0.15530849668612373 0.025672778027553737 0.15530849668612373 0.9743272219724464 -0.15530849668612373
2873.4481138951564 0.9720424523642115 -0.16200680218765592 0.027957547635788595 0.16200680218765592 0.027957547635788595 0.16200680218765592 0.9720424523642115 -0.16200680218765592
3005.0294847665045 0.9695585514412985 -0.16895852882894058 0.030441448558701463 0.16895852882894058 0.030441448558701463 0.16895852882894058 0.9695585514412985 -0.16895852882894058
3142.6362496850466 0.9668591832818416 -0.17616828728830813 0.03314081671815836 0.17616828728830813 0.03314081671815836 0.17616828728830813 0.9668591832818416 -0.17616828728830813
3286.544324406816 0.9639268940374602 -0.18364001000137775 0.03607310596253981 0.18364001000137775 0.03607310596253981 0.18364001000137775 0.9639268940374602 -0.18364001000137775
3437.0422594639017 0.9607430803496302 -0.19137682113703694 0.03925691965036978 0.19137682113703694 0.03925691965036978 0.19137682113703694 0.9607430803496302 -0.19137682113703694
3594.431818738024 0.9572879661345424 -0.199380893056899 0.04271203386545761 0.199380893056899 0.04271203386545761 0.199380893056899 0.9572879661345424 -0.199380893056899
3759.0285845282415 0.9535405899163875 -0.20765328880797815 0.04645941008361244 0.20765328880797815 0.04645941008361244 0.20765328880797815 0.9535405899163875 -0.20765328880797815
3931.162590326006 0.9494788051896749 -0.21619379040889955 0.050521194810325167 0.21619379040889955 0.050521194810325167 0.21619379040889955 0.9494788051896749 -0.21619379040889955
4111.17898256636 0.9450792966000828 -0.22500071296982482 0.05492070339991712 0.22500071296982482 0.05492070339991712 0.22500071296982482 0.9450792966000828 -0.22500071296982482
4299.438712682125 0.9403176150402145 -0.2340707050460944 0.0596823849597856 0.2340707050460944 0.0596823849597856 0.2340707050460944 0.9403176150402145 -0.2340707050460944
4496.31926084876 0.9351682350478667 -0.2433985360756689 0.06483176495213323 0.2433985360756689 0.06483176495213323 0.2433985360756689 0.9351682350478667 -0.2433985360756689
4702.215392871039 0.9296046381526164 -0.2529768723001017 0.0703953618473836 0.2529768723001017 0.0703953618473836 0.2529768723001017 0.9296046381526164 -0.2529768723001017
4917.539951729213 0.9235994260200211 -0.2627960432253306 0.07640057397997899 0.2627960432253306 0.07640057397997899 0.2627960432253306 0.9235994260200211 -0.2627960432253306
5142.724685371758 0.9171244673654778 -0.2728438014462921 0.08287553263452217 0.2728438014462921 0.08287553263452217 0.2728438014462921 0.9171244673654778 -0.2728438014462921
5378.221112414543 0.9101510826211351 -0.28310507953797553 0.08984891737886494 0.28310507953797553 0.08984891737886494 0.28310507953797553 0.9101510826211351 -0.28310507953797553
5624.501427482224 0.9026502702044167 -0.29356174869858515 0.09734972979558328 0.29356174869858515 0.09734972979558328 0.29356174869858515 0.9026502702044167 -0.29356174869858515
5882.059448007167 0.894592977917356 -0.30419238490346107 0.10540702208264399 0.30419238490346107 0.10540702208264399 0.30419238490346107 0.894592977917356 -0.30419238490346107
6151.41160438433 0.8859504224615162 -0.3149720494667296 0.1140495775384838 0.3149720494667296 0.1140495775384838 0.3149720494667296 0.8859504224615162 -0.3149720494667296
6433.097975467465 0.876694459243122 -0.32587209207463685 0.1233055407568781 0.32587209207463685 0.1233055407568781 0.32587209207463685 0.876694459243122 -0.32587209207463685
6727.683371482931 0.8667980035291302 -0.3368599854995907 0.13320199647087 0.3368599854995907 0.13320199647087 0.3368599854995907 0.8667980035291302 -0.3368599854995907
7035.758466532445 0.8562355025658407 -0.347899202261286 0.1437644974341594 0.347899202261286 0.1437644974341594 0.347899202261286 0.8562355025658407 -0.347899202261286
7357.940982955574 0.8449834564670017 -0.35894914438937103 0.15501654353299824 0.35894914438937103 0.15501654353299824 0.35894914438937103 0.8449834564670017 -0.35894914438937103
7694.876929926739 0.8330209835148029 -0.3699651380642783 0.16697901648519717 0.3699651380642783 0.16697901648519717 0.3699651380642783 0.8330209835148029 -0.3699651380642783
8047.241898770236 0.8203304230143181 -0.3808985051598914 0.1796695769856819 0.3808985051598914 0.1796695769856819 0.3808985051598914 0.8203304230143181 -0.3808985051598914
8415.742417590522 0.8068979660490428 -0.39169672346632556 0.1931020339509572 0.39169672346632556 0.1931020339509572 0.39169672346632556 0.8068979660490428 -0.39169672346632556
8801.117367933934 0.7927143014868574 -0.40230368651503046 0.20728569851314255 0.40230368651503046 0.20728569851314255 0.40230368651503046 0.7927143014868574 -0.40230368651503046
9204.139466322391 0.777775261506814 -0.4126600723524742 0.22222473849318597 0.4126600723524742 0.22222473849318597 0.4126600723524742 0.777775261506814 -0.4126600723524742
9625.61681362972 0.7620824479245609 -0.4227038282252564 0.23791755207543908 0.4227038282252564 0.23791755207543908 0.4227038282252564 0.7620824479245609 -0.4227038282252564
10066.394515407255 0.745643817895487 -0.432370774897585 0.25435618210451316 0.432370774897585 0.25435618210451316 0.432370774897585 0.745643817895487 -0.432370774897585
10527.356376407623 0.7284742054109671 -0.44159533022323844 0.271525794589033 0.44159533022323844 0.271525794589033 0.44159533022323844 0.7284742054109671 -0.44159533022323844
11009.426672704432 0.7105957536365299 -0.4503113467081302 0.28940424636347023 0.4503113467081302 0.28940424636347023 0.4503113467081302 0.7105957536365299 -0.4503113467081302
11513.572004961125 0.692038232834803 -0.45845305227707467 0.30796176716519696 0.45845305227707467 0.30796176716519696 0.45845305227707467 0.692038232834803 -0.45845305227707467
12040.803236564994 0.6728392196099892 -0.4659560775380229 0.3271607803900109 0.4659560775380229 0.3271607803900109 0.4659560775380229 0.6728392196099892 -0.4659560775380229
12592.177520512549 0.65304411568897 -0.472758546844502 0.34695588431103 0.472758546844502 0.34695588431103 0.472758546844502 0.65304411568897 -0.472758546844502
