!Murata Part Number: GQM1875C2E101GB12
!These Parameters are Measured in Series Mode Connection
!       o--ll--o
!Port1            Port2
!       o------o
!Operation Temp=25[degC], DC Bias Voltage=0[V]
!Freq. Start=100[MHz] Stop=8.5[GHz], 401[Steps]
!Data Generated on Jan 10, 2017
# Hz S RI R 50
!Freq.(Hz) S11(Real) S11(Imag) S21(Real) S21(Imag) S12(Real) S12(Imag) S22(Real) S22(Imag)
1.0E8 0.024482429634180947 -0.15304912374931273 0.975517570365819 0.15304912374931273 0.975517570365819 0.15304912374931273 0.024482429634180947 -0.15304912374931273
1.21E8 0.016787086231043292 -0.12665824410164714 0.9832129137689566 0.12665824410164714 0.9832129137689566 0.12665824410164714 0.016787086231043292 -0.12665824410164714
1.42E8 0.012189614630884577 -0.10758941858761206 0.9878103853691154 0.10758941858761206 0.9878103853691154 0.10758941858761206 0.012189614630884577 -0.10758941858761206
1.63E8 0.009230469530495899 -0.09315496867150191 0.990769530469504 0.09315496867150191 0.990769530469504 0.09315496867150191 0.009230469530495899 -0.09315496867150191
1.84E8 0.007216801768418219 -0.08182786428969194 0.9927831982315818 0.08182786428969194 0.9927831982315818 0.08182786428969194 0.007216801768418219 -0.08182786428969194
2.05E8 0.005786241422954807 -0.072681107139599 0.9942137585770453 0.072681107139599 0.9942137585770453 0.072681107139599 0.005786241422954807 -0.072681107139599
2.26E8 0.004734581362981216 -0.06512108783485888 0.9952654186370186 0.06512108783485888 0.9952654186370186 0.06512108783485888 0.004734581362981216 -0.06512108783485888
2.47E8 0.003939726956729152 -0.05875076105405069 0.9960602730432706 0.05875076105405069 0.9960602730432706 0.05875076105405069 0.003939726956729152 -0.05875076105405069
2.68E8 0.003325081463265356 -0.053294807075677415 0.996674918536735 0.053294807075677415 0.996674918536735 0.053294807075677415 0.003325081463265356 -0.053294807075677415
2.89E8 0.0028406378691741715 -0.04855644679173661 0.9971593621308257 0.04855644679173661 0.9971593621308257 0.04855644679173661 0.0028406378691741715 -0.04855644679173661
3.1E8 0.0024526344639967603 -0.04439136965286733 0.9975473655360032 0.04439136965286733 0.9975473655360032 0.04439136965286733 0.0024526344639967603 -0.04439136965286733
3.31E8 0.002137615150072641 -0.040691374491356465 0.9978623848499274 0.040691374491356465 0.9978623848499274 0.040691374491356465 0.002137615150072641 -0.040691374491356465
3.52E8 0.0018788757585149743 -0.03737375825187547 0.9981211242414848 0.03737375825187547 0.9981211242414848 0.03737375825187547 0.0018788757585149743 -0.03737375825187547
3.73E8 0.0016642612824396203 -0.034374231524611665 0.9983357387175604 0.034374231524611665 0.9983357387175604 0.034374231524611665 0.0016642612824396203 -0.034374231524611665
3.94E8 0.0014847577671706284 -0.03164206750539741 0.9985152422328293 0.03164206750539741 0.9985152422328293 0.03164206750539741 0.0014847577671706284 -0.03164206750539741
4.15E8 0.0013335674993262146 -0.02913670519910599 0.9986664325006738 0.02913670519910599 0.9986664325006738 0.02913670519910599 0.0013335674993262146 -0.02913670519910599
4.36E8 0.0012054868937808319 -0.0268253231453436 0.9987945131062193 0.0268253231453436 0.9987945131062193 0.0268253231453436 0.0012054868937808319 -0.0268253231453436
4.57E8 0.0010964789734714427 -0.024681075243333746 0.9989035210265286 0.024681075243333746 0.9989035210265286 0.024681075243333746 0.0010964789734714427 -0.024681075243333746
4.78E8 0.0010033738950312918 -0.022681787268316933 0.9989966261049689 0.022681787268316933 0.9989966261049689 0.022681787268316933 0.0010033738950312918 -0.022681787268316933
4.99E8 9.236555155386229E-4 -0.020808979696863777 0.9990763444844614 0.020808979696863777 0.9990763444844614 0.020808979696863777 9.236555155386229E-4 -0.020808979696863777
5.2E8 8.553068813394037E-4 -0.019047125417951668 0.9991446931186606 0.019047125417951668 0.9991446931186606 0.019047125417951668 8.553068813394037E-4 -0.019047125417951668
5.41E8 7.966967686669524E-4 -0.017383079023776234 0.9992033032313331 0.017383079023776234 0.9992033032313331 0.017383079023776234 7.966967686669524E-4 -0.017383079023776234
5.62E8 7.464952791896183E-4 -0.015805633131072704 0.9992535047208103 0.015805633131072704 0.9992535047208103 0.015805633131072704 7.464952791896183E-4 -0.015805633131072704
5.83E8 7.0361029855795E-4 -0.014305169916151012 0.9992963897014422 0.014305169916151012 0.9992963897014422 0.014305169916151012 7.0361029855795E-4 -0.014305169916151012
6.04E8 6.671391363201322E-4 -0.012873384829060058 0.99933286086368 0.012873384829060058 0.99933286086368 0.012873384829060058 6.671391363201322E-4 -0.012873384829060058
6.25E8 6.363313497284261E-4 -0.011503065599603908 0.9993636686502715 0.011503065599603908 0.9993636686502715 0.011503065599603908 6.363313497284261E-4 -0.011503065599603908
6.46E8 6.105599014651025E-4 -0.010187914009720354 0.9993894400985348 0.010187914009720354 0.9993894400985348 0.010187914009720354 6.105599014651025E-4 -0.010187914009720354
6.67E8 5.892985944539777E-4 -0.008922401040770472 0.999410701405546 0.008922401040770472 0.999410701405546 0.008922401040770472 5.892985944539777E-4 -0.008922401040770472
6.88E8 5.721042824774824E-4 -0.007701648282579908 0.9994278957175228 0.007701648282579908 0.9994278957175228 0.007701648282579908 5.721042824774824E-4 -0.007701648282579908
7.09E8 5.586027493271053E-4 -0.006521330165326081 0.9994413972506728 0.006521330165326081 0.9994413972506728 0.006521330165326081 5.586027493271053E-4 -0.006521330165326081
7.3E8 5.484774319332049E-4 -0.005377592818187578 0.9994515225680667 0.005377592818187578 0.9994515225680667 0.005377592818187578 5.484774319332049E-4 -0.005377592818187578
7.51E8 5.414603680333925E-4 -0.0042669862899200155 0.9994585396319665 0.0042669862899200155 0.9994585396319665 0.0042669862899200155 5.414603680333925E-4 -0.0042669862899200155
7.72E8 5.373248993232343E-4 -0.0031864075703945654 0.9994626751006765 0.0031864075703945654 0.9994626751006765 0.0031864075703945654 5.373248993232343E-4 -0.0031864075703945654
7.93E8 5.358797724187467E-4 -0.002133052388431023 0.9994641202275814 0.002133052388431023 0.9994641202275814 0.002133052388431023 5.358797724187467E-4 -0.002133052388431023
8.14E8 5.369643632913615E-4 -0.001104374172877232 0.9994630356367085 0.001104374172877232 0.9994630356367085 0.001104374172877232 5.369643632913615E-4 -0.001104374172877232
8.35E8 5.40444813814528E-4 -9.804888189985449E-5 0.9994595551861856 9.804888189985449E-5 0.9994595551861856 9.804888189985449E-5 5.40444813814528E-4 -9.804888189985449E-5
8.56E8 5.462109171679223E-4 8.880553474472564E-4 0.9994537890828322 -8.880553474472564E-4 0.9994537890828322 -8.880553474472564E-4 5.462109171679223E-4 8.880553474472564E-4
8.77E8 5.541736260257189E-4 0.0018559045844153063 0.9994458263739742 -0.0018559045844153063 0.9994458263739742 -0.0018559045844153063 5.541736260257189E-4 0.0018559045844153063
8.98E8 5.642630865841878E-4 0.0028073222284807605 0.9994357369134159 -0.0028073222284807605 0.9994357369134159 -0.0028073222284807605 5.642630865841878E-4 0.0028073222284807605
9.19E8 5.764271246848881E-4 0.0037440094574910615 0.9994235728753148 -0.0037440094574910615 0.9994235728753148 -0.0037440094574910615 5.764271246848881E-4 0.0037440094574910615
9.4E8 5.906301291589276E-4 0.004667563492771439 0.9994093698708408 -0.004667563492771439 0.9994093698708408 -0.004667563492771439 5.906301291589276E-4 0.004667563492771439
9.61E8 6.068522932815249E-4 0.005579494101722256 0.9993931477067184 -0.005579494101722256 0.9993931477067184 -0.005579494101722256 6.068522932815249E-4 0.005579494101722256
9.82E8 6.250891888560869E-4 0.0064812387029552975 0.9993749108111438 -0.0064812387029552975 0.9993749108111438 -0.0064812387029552975 6.250891888560869E-4 0.0064812387029552975
1.003E9 6.453516597460635E-4 0.007374176397455235 0.999354648340254 -0.007374176397455235 0.999354648340254 -0.007374176397455235 6.453516597460635E-4 0.007374176397455235
1.024E9 6.676660333430344E-4 0.008259641219615902 0.9993323339666569 -0.008259641219615902 0.9993323339666569 -0.008259641219615902 6.676660333430344E-4 0.008259641219615902
1.045E9 6.920746601592726E-4 0.009138934882972566 0.9993079253398408 -0.009138934882972566 0.9993079253398408 -0.009138934882972566 6.920746601592726E-4 0.009138934882972566
1.066E9 7.186368041303859E-4 0.01001333928629917 0.9992813631958695 -0.01001333928629917 0.9992813631958695 -0.01001333928629917 7.186368041303859E-4 0.01001333928629917
1.087E9 7.474299200409163E-4 0.010884129046280278 0.9992525700799593 -0.010884129046280278 0.9992525700799593 -0.010884129046280278 7.474299200409163E-4 0.010884129046280278
1.108E9 7.785513706021887E-4 0.011752584333567377 0.9992214486293979 -0.011752584333567377 0.9992214486293979 -0.011752584333567377 7.785513706021887E-4 0.011752584333567377
1.129E9 8.121206551809741E-4 0.012620004310653363 0.999187879344819 -0.012620004310653363 0.999187879344819 -0.012620004310653363 8.121206551809741E-4 0.012620004310653363
1.15E9 8.482822463704377E-4 0.013487721504311252 0.9991517177536297 -0.013487721504311252 0.9991517177536297 -0.013487721504311252 8.482822463704377E-4 0.013487721504311252
1.171E9 8.872091613297934E-4 0.014357117494870654 0.9991127908386703 -0.014357117494870654 0.9991127908386703 -0.014357117494870654 8.872091613297934E-4 0.014357117494870654
1.192E9 9.291074345612784E-4 0.015229640372990473 0.9990708925654388 -0.015229640372990473 0.9990708925654388 -0.015229640372990473 9.291074345612784E-4 0.015229640372990473
1.213E9 9.74221710941406E-4 0.016106824506953995 0.9990257782890587 -0.016106824506953995 0.9990257782890587 -0.016106824506953995 9.74221710941406E-4 0.016106824506953995
1.234E9 0.0010228422471316853 0.016990313287014485 0.9989771577528682 -0.016990313287014485 0.9989771577528682 -0.016990313287014485 0.0010228422471316853 0.016990313287014485
1.255E9 0.001075313702696544 0.017881885677912268 0.9989246862973032 -0.017881885677912268 0.9989246862973032 -0.017881885677912268 0.001075313702696544 0.017881885677912268
1.276E9 0.0011320462290121509 0.018783487630284573 0.9988679537709879 -0.018783487630284573 0.9988679537709879 -0.018783487630284573 0.0011320462290121509 0.018783487630284573
1.297E9 0.00119352953838487 0.0196972696958576 0.9988064704616152 -0.0196972696958576 0.9988064704616152 -0.0196972696958576 0.00119352953838487 0.0196972696958576
1.318E9 0.0012603508783382436 0.020625632587768224 0.9987396491216617 -0.020625632587768224 0.9987396491216617 -0.020625632587768224 0.0012603508783382436 0.020625632587768224
1.339E9 0.0013332181775101964 0.021571282965763855 0.9986667818224899 -0.021571282965763855 0.9986667818224899 -0.021571282965763855 0.0013332181775101964 0.021571282965763855
1.36E9 0.0014129901164803204 0.02253730246369819 0.9985870098835198 -0.02253730246369819 0.9985870098835198 -0.02253730246369819 0.0014129901164803204 0.02253730246369819
1.381E9 0.0015007155803794803 0.023527233997497045 0.9984992844196207 -0.023527233997497045 0.9984992844196207 -0.023527233997497045 0.0015007155803794803 0.023527233997497045
1.402E9 0.0015976859813936755 0.024545190819685113 0.9984023140186062 -0.024545190819685113 0.9984023140186062 -0.024545190819685113 0.0015976859813936755 0.024545190819685113
1.423E9 0.0017055054743933108 0.02559599580771294 0.9982944945256066 -0.02559599580771294 0.9982944945256066 -0.02559599580771294 0.0017055054743933108 0.02559599580771294
1.444E9 0.0018261864124176012 0.026685361370625885 0.9981738135875824 -0.026685361370625885 0.9981738135875824 -0.026685361370625885 0.0018261864124176012 0.026685361370625885
1.465E9 0.0019622809695305416 0.027820124568541587 0.9980377190304693 -0.027820124568541587 0.9980377190304693 -0.027820124568541587 0.0019622809695305416 0.027820124568541587
1.486E9 0.002117065486423907 0.029008558245529253 0.9978829345135762 -0.029008558245529253 0.9978829345135762 -0.029008558245529253 0.002117065486423907 0.029008558245529253
1.507E9 0.0022948031311847967 0.030260788266169045 0.9977051968688152 -0.030260788266169045 0.9977051968688152 -0.030260788266169045 0.0022948031311847967 0.030260788266169045
1.528E9 0.0025011253246261054 0.03158936107620157 0.9974988746753741 -0.03158936107620157 0.9974988746753741 -0.03158936107620157 0.0025011253246261054 0.03158936107620157
1.549E9 0.002743597446005911 0.033010027660228404 0.9972564025539941 -0.033010027660228404 0.9972564025539941 -0.033010027660228404 0.002743597446005911 0.033010027660228404
1.57E9 0.0030325778567687296 0.03454284433611015 0.9969674221432314 -0.03454284433611015 0.9969674221432314 -0.03454284433611015 0.0030325778567687296 0.03454284433611015
1.591E9 0.0033825572911916433 0.03621374574991581 0.9966174427088084 -0.03621374574991581 0.9966174427088084 -0.03621374574991581 0.0033825572911916433 0.03621374574991581
1.612E9 0.0038143105565354926 0.038056834429935425 0.9961856894434645 -0.038056834429935425 0.9961856894434645 -0.038056834429935425 0.0038143105565354926 0.038056834429935425
1.633E9 0.00435847254492493 0.04011777659397401 0.995641527455075 -0.04011777659397401 0.995641527455075 -0.04011777659397401 0.00435847254492493 0.04011777659397401
1.654E9 0.005061716695880311 0.042458929747973315 0.9949382833041197 -0.042458929747973315 0.9949382833041197 -0.042458929747973315 0.005061716695880311 0.042458929747973315
1.675E9 0.005997917779729223 0.04516719418495506 0.9940020822202706 -0.04516719418495506 0.9940020822202706 -0.04516719418495506 0.005997917779729223 0.04516719418495506
1.696E9 0.007289389726142317 0.048366064110449636 0.9927106102738577 -0.048366064110449636 0.9927106102738577 -0.048366064110449636 0.007289389726142317 0.048366064110449636
1.717E9 0.009149780806450073 0.05223355555594131 0.9908502191935501 -0.05223355555594131 0.9908502191935501 -0.05223355555594131 0.009149780806450073 0.05223355555594131
1.738E9 0.011976836364172303 0.05702514133073308 0.9880231636358278 -0.05702514133073308 0.9880231636358278 -0.05702514133073308 0.011976836364172303 0.05702514133073308
1.759E9 0.016568462109349886 0.06308224609950934 0.9834315378906501 -0.06308224609950934 0.9834315378906501 -0.06308224609950934 0.016568462109349886 0.06308224609950934
1.78E9 0.02465980418723727 0.07069938946737725 0.9753401958127628 -0.07069938946737725 0.9753401958127628 -0.07069938946737725 0.02465980418723727 0.07069938946737725
1.801E9 0.04023160656798905 0.07910988054419651 0.9597683934320111 -0.07910988054419651 0.9597683934320111 -0.07910988054419651 0.04023160656798905 0.07910988054419651
1.822E9 0.07093709672632983 0.08072960985040513 0.9290629032736701 -0.08072960985040513 0.9290629032736701 -0.08072960985040513 0.07093709672632983 0.08072960985040513
1.843E9 0.11007062148374179 0.04623830377232788 0.8899293785162583 -0.04623830377232788 0.8899293785162583 -0.04623830377232788 0.11007062148374179 0.04623830377232788
1.864E9 0.09520126710238133 -0.013931348476466774 0.9047987328976187 0.013931348476466774 0.9047987328976187 0.013931348476466774 0.09520126710238133 -0.013931348476466774
1.885E9 0.053261520485555776 -0.02774109818589671 0.9467384795144443 0.02774109818589671 0.9467384795144443 0.02774109818589671 0.053261520485555776 -0.02774109818589671
1.906E9 0.029482806156152168 -0.019737456942012076 0.9705171938438479 0.019737456942012076 0.9705171938438479 0.019737456942012076 0.029482806156152168 -0.019737456942012076
1.927E9 0.018036301974473208 -0.010291834553733713 0.9819636980255269 0.010291834553733713 0.9819636980255269 0.010291834553733713 0.018036301974473208 -0.010291834553733713
1.948E9 0.012147004607980474 -0.0026773696747809097 0.9878529953920194 0.0026773696747809097 0.9878529953920194 0.0026773696747809097 0.012147004607980474 -0.0026773696747809097
1.969E9 0.008844252781967352 0.0032271147907815567 0.9911557472180326 -0.0032271147907815567 0.9911557472180326 -0.0032271147907815567 0.008844252781967352 0.0032271147907815567
1.99E9 0.006854701849084623 0.007882918643332924 0.9931452981509155 -0.007882918643332924 0.9931452981509155 -0.007882918643332924 0.006854701849084623 0.007882918643332924
2.011E9 0.005588833797027584 0.011655723287813556 0.9944111662029724 -0.011655723287813556 0.9944111662029724 -0.011655723287813556 0.005588833797027584 0.011655723287813556
2.032E9 0.004750231049262561 0.01479764890375374 0.9952497689507376 -0.01479764890375374 0.9952497689507376 -0.01479764890375374 0.004750231049262561 0.01479764890375374
2.053E9 0.004178696239593632 0.017479649074587888 0.9958213037604063 -0.017479649074587888 0.9958213037604063 -0.017479649074587888 0.004178696239593632 0.017479649074587888
2.074E9 0.0037822546015725926 0.019819208711031325 0.9962177453984273 -0.019819208711031325 0.9962177453984273 -0.019819208711031325 0.0037822546015725926 0.019819208711031325
2.095E9 0.003505377805710896 0.02189884403167455 0.9964946221942891 -0.02189884403167455 0.9964946221942891 -0.02189884403167455 0.003505377805710896 0.02189884403167455
2.116E9 0.0033131098408518966 0.02377788358272262 0.9966868901591484 -0.02377788358272262 0.9966868901591484 -0.02377788358272262 0.0033131098408518966 0.02377788358272262
2.137E9 0.003182666398554854 0.025499969830388405 0.9968173336014452 -0.025499969830388405 0.9968173336014452 -0.025499969830388405 0.003182666398554854 0.025499969830388405
2.158E9 0.003098763474274581 0.027097908944785358 0.9969012365257254 -0.027097908944785358 0.9969012365257254 -0.027097908944785358 0.003098763474274581 0.027097908944785358
2.179E9 0.0030509065848746504 0.02859687030882254 0.9969490934151255 -0.02859687030882254 0.9969490934151255 -0.02859687030882254 0.0030509065848746504 0.02859687030882254
2.2E9 0.003031758860577777 0.030016543179938692 0.9969682411394223 -0.030016543179938692 0.9969682411394223 -0.030016543179938692 0.003031758860577777 0.030016543179938692
2.221E9 0.003036127093999624 0.031372621732961396 0.9969638729060002 -0.031372621732961396 0.9969638729060002 -0.031372621732961396 0.003036127093999624 0.031372621732961396
2.242E9 0.003060314580264209 0.03267784902115465 0.9969396854197359 -0.03267784902115465 0.9969396854197359 -0.03267784902115465 0.003060314580264209 0.03267784902115465
2.263E9 0.0031016987907373558 0.033942765787672156 0.9968983012092627 -0.033942765787672156 0.9968983012092627 -0.033942765787672156 0.0031016987907373558 0.033942765787672156
2.284E9 0.003158451040856804 0.03517625837945172 0.9968415489591431 -0.03517625837945172 0.9968415489591431 -0.03517625837945172 0.003158451040856804 0.03517625837945172
2.305E9 0.0032293484589506695 0.03638596788291159 0.9967706515410493 -0.03638596788291159 0.9967706515410493 -0.03638596788291159 0.0032293484589506695 0.03638596788291159
2.326E9 0.0033136477574853204 0.03757860226395824 0.9966863522425147 -0.03757860226395824 0.9966863522425147 -0.03757860226395824 0.0033136477574853204 0.03757860226395824
2.347E9 0.0034110017705474764 0.038760180208622166 0.9965889982294525 -0.038760180208622166 0.9965889982294525 -0.038760180208622166 0.0034110017705474764 0.038760180208622166
2.368E9 0.0035214067832836254 0.0399362268193504 0.9964785932167163 -0.0399362268193504 0.9964785932167163 -0.0399362268193504 0.0035214067832836254 0.0399362268193504
2.389E9 0.0036451731849346533 0.04111193568908579 0.9963548268150654 -0.04111193568908579 0.9963548268150654 -0.04111193568908579 0.0036451731849346533 0.04111193568908579
2.41E9 0.0037829149829944 0.04229230814627426 0.9962170850170057 -0.04229230814627426 0.9962170850170057 -0.04229230814627426 0.0037829149829944 0.04229230814627426
2.431E9 0.003935555850563158 0.043482278015192145 0.9960644441494368 -0.043482278015192145 0.9960644441494368 -0.043482278015192145 0.003935555850563158 0.043482278015192145
2.452E9 0.004104351037226388 0.04468682867835253 0.9958956489627736 -0.04468682867835253 0.9958956489627736 -0.04468682867835253 0.004104351037226388 0.04468682867835253
