!Murata Part Number: GRT21BC71C106KE13
!These Parameters are Measured in Series Mode Connection
!       o--ll--o
!Port1            Port2
!       o------o
!Operation Temp=25[degC], DC Bias Voltage=0[V]
!Freq. Start=100[Hz] Stop=6[GHz], 401[Steps]
!Data Generated on Dec 2, 2019
# Hz S RI R 50
!Freq.(Hz) S11(Real) S11(Imag) S21(Real) S21(Imag) S12(Real) S12(Imag) S22(Real) S22(Imag)
100.0 0.8217147832050651 -0.37588612038713237 0.17828521679493495 0.37588612038713237 0.17828521679493495 0.37588612038713237 0.8217147832050651 -0.37588612038713237
104.57921513303334 0.8085935679650361 -0.3865595219003599 0.19140643203496388 0.3865595219003599 0.19140643203496388 0.3865595219003599 0.8085935679650361 -0.3865595219003599
109.3681223784127 0.7947377506974485 -0.39706159800004676 0.20526224930255157 0.39706159800004676 0.20526224930255157 0.39706159800004676 0.7947377506974485 -0.39706159800004676
114.3763239890794 0.780141757980895 -0.4073351555073409 0.219858242019105 0.4073351555073409 0.219858242019105 0.4073351555073409 0.780141757980895 -0.4073351555073409
119.61386192579457 0.7648055182457405 -0.41732021144574316 0.2351944817542596 0.41732021144574316 0.2351944817542596 0.41732021144574316 0.7648055182457405 -0.41732021144574316
125.09123799230618 0.7487350374284327 -0.4269545653557667 0.2512649625715674 0.4269545653557667 0.2512649625715674 0.4269545653557667 0.7487350374284327 -0.4269545653557667
130.8194348925486 0.7319429131970797 -0.43617448609384285 0.2680570868029201 0.43617448609384285 0.2680570868029201 0.43617448609384285 0.7319429131970797 -0.43617448609384285
136.8099382520969 0.7144487641561741 -0.4449155076048362 0.28555123584382597 0.4449155076048362 0.28555123584382597 0.4449155076048362 0.7144487641561741 -0.4449155076048362
143.0747596480305 0.6962795504116641 -0.4531133229662364 0.30372044958833583 0.4531133229662364 0.30372044958833583 0.4531133229662364 0.6962795504116641 -0.4531133229662364
149.6264606933842 0.67746976308124 -0.4607047605475595 0.32253023691876 0.4607047605475595 0.32253023691876 0.4607047605475595 0.67746976308124 -0.4607047605475595
156.47817822447783 0.6580614628964737 -0.46762882072642964 0.34193853710352623 0.46762882072642964 0.34193853710352623 0.46762882072642964 0.6580614628964737 -0.46762882072642964
163.643650641628 0.6381041520029861 -0.4738277466200072 0.36189584799701385 0.4738277466200072 0.36189584799701385 0.4738277466200072 0.6381041520029861 -0.4738277466200072
171.13724545605763 0.6176544683540031 -0.4792480981177485 0.38234553164599694 0.4792480981177485 0.38234553164599694 0.4792480981177485 0.6176544683540031 -0.4792480981177485
178.97398809823787 0.596775698525149 -0.4838417955195091 0.40322430147485094 0.4838417955195091 0.40322430147485094 0.4838417955195091 0.596775698525149 -0.4838417955195091
187.1695920454257 0.5755371120506729 -0.48756709762324146 0.42446288794932724 0.48756709762324146 0.42446288794932724 0.48756709762324146 0.5755371120506729 -0.48756709762324146
195.74049032880657 0.5540131280883073 -0.49038947941286193 0.44598687191169284 0.49038947941286193 0.44598687191169284 0.49038947941286193 0.5540131280883073 -0.49038947941286193
204.70386848341695 0.5322823328830515 -0.4922823766925515 0.46771766711694857 0.4922823766925515 0.46771766711694857 0.4922823766925515 0.5322823328830515 -0.4922823766925515
214.0776990069143 0.5104263736074144 -0.4932277690788034 0.4895736263925855 0.4932277690788034 0.4895736263925855 0.4932277690788034 0.5104263736074144 -0.4932277690788034
223.88077739628844 0.48852876020842445 -0.4932165785246366 0.5114712397915756 0.4932165785246366 0.5114712397915756 0.4932165785246366 0.48852876020842445 -0.4932165785246366
234.132759834772 0.46667361145288383 -0.4922488676971542 0.5333263885471162 0.4922488676971542 0.5333263885471162 0.4922488676971542 0.46667361145288383 -0.4922488676971542
244.85420260451448 0.44494438409959153 -0.490333830627084 0.5550556159004085 0.490333830627084 0.5550556159004085 0.490333830627084 0.44494438409959153 -0.490333830627084
256.06660330404856 0.4234226248458777 -0.48748957658356207 0.5765773751541222 0.48748957658356207 0.5765773751541222 0.48748957658356207 0.4234226248458777 -0.48748957658356207
267.792443953192 0.40218678335710234 -0.48374271655193457 0.5978132166428977 0.48374271655193457 0.5978132166428977 0.48374271655193457 0.40218678335710234 -0.48374271655193457
280.0552360718164 0.3813111214105757 -0.4791277694756795 0.6186888785894245 0.4791277694756795 0.6186888785894245 0.4791277694756795 0.3813111214105757 -0.4791277694756795
292.87956782286926 0.36086474823118775 -0.47368641209765344 0.6391352517688121 0.47368641209765344 0.6391352517688121 0.47368641209765344 0.36086474823118775 -0.47368641209765344
306.2911533141767 0.3409108058404202 -0.4674666014343108 0.6590891941595798 0.4674666014343108 0.6590891941595798 0.4674666014343108 0.3409108058404202 -0.4674666014343108
320.3168841578819 0.321505821134174 -0.4605216024005878 0.678494178865826 0.4605216024005878 0.678494178865826 0.4605216024005878 0.321505821134174 -0.4605216024005878
334.9848833909005 0.3026992339308966 -0.45290895477367743 0.6973007660691033 0.45290895477367743 0.6973007660691033 0.45290895477367743 0.3026992339308966 -0.45290895477367743
350.32456186451077 0.2845331028616659 -0.4446894135786814 0.715466897138334 0.4446894135786814 0.715466897138334 0.4446894135786814 0.2845331028616659 -0.4446894135786814
366.36667721614316 0.26704198413119573 -0.4359258952574008 0.7329580158688043 0.4359258952574008 0.7329580158688043 0.4359258952574008 0.26704198413119573 -0.4359258952574008
383.1433955416162 0.25025297220768544 -0.4266824588987996 0.7497470277923146 0.4266824588987996 0.7497470277923146 0.4266824588987996 0.25025297220768544 -0.4266824588987996
400.68835589147574 0.2341858866473719 -0.41702334768650406 0.7658141133526281 0.41702334768650406 0.7658141133526281 0.41702334768650406 0.2341858866473719 -0.41702334768650406
419.03673772076064 0.21885358566890084 -0.4070121109073202 0.781146414331099 0.4070121109073202 0.781146414331099 0.4070121109073202 0.21885358566890084 -0.4070121109073202
438.225331427439 0.2042623848034346 -0.3967108217175118 0.7957376151965654 0.3967108217175118 0.7957376151965654 0.3967108217175118 0.2042623848034346 -0.3967108217175118
458.2926121209498 0.19041255790825626 -0.3861794007057492 0.8095874420917437 0.3861794007057492 0.8095874420917437 0.3861794007057492 0.19041255790825626 -0.3861794007057492
479.2788167687661 0.17729889792095582 -0.3754750504009341 0.8227011020790442 0.3754750504009341 0.8227011020790442 0.3754750504009341 0.17729889792095582 -0.3754750504009341
501.22602487566456 0.1649113157724778 -0.36465180146658244 0.8350886842275222 0.36465180146658244 0.8350886842275222 0.36465180146658244 0.1649113157724778 -0.36465180146658244
524.1782428574726 0.15323545766457866 -0.3537601675519099 0.8467645423354213 0.3537601675519099 0.8467645423354213 0.3537601675519099 0.15323545766457866 -0.3537601675519099
548.1814922784702 0.1422533232348939 -0.342846902718762 0.8577466767651062 0.342846902718762 0.8577466767651062 0.342846902718762 0.1422533232348939 -0.342846902718762
573.2839021293739 0.13194386977260225 -0.3319548530595943 0.8680561302273976 0.3319548530595943 0.8680561302273976 0.3319548530595943 0.13194386977260225 -0.3319548530595943
599.5358053309263 0.12228359042179482 -0.3211228925420621 0.8777164095782051 0.3211228925420621 0.8777164095782051 0.3211228925420621 0.12228359042179482 -0.3211228925420621
626.9898396565933 0.11324705705960832 -0.3103859322001101 0.8867529429403918 0.3103859322001101 0.8867529429403918 0.3103859322001101 0.11324705705960832 -0.3103859322001101
655.7010532767296 0.10480742113716729 -0.29977499145389713 0.8951925788628328 0.29977499145389713 0.8951925788628328 0.29977499145389713 0.10480742113716729 -0.29977499145389713
685.7270151358366 0.09693686813316499 -0.28931732048132536 0.903063131866835 0.28931732048132536 0.903063131866835 0.28931732048132536 0.09693686813316499 -0.28931732048132536
717.1279303842347 0.08960702333492634 -0.279036563077777 0.9103929766650735 0.279036563077777 0.9103929766650735 0.279036563077777 0.08960702333492634 -0.279036563077777
749.9667610955984 0.08278930840113645 -0.2689529502264191 0.9172106915988635 0.2689529502264191 0.9172106915988635 0.2689529502264191 0.08278930840113645 -0.2689529502264191
784.3093525124082 0.07645524956888082 -0.2590835155663848 0.9235447504311193 0.2590835155663848 0.9235447504311193 0.2590835155663848 0.07645524956888082 -0.2590835155663848
820.2245650724522 0.07057673945830459 -0.24944232500978744 0.9294232605416954 0.24944232500978744 0.9294232605416954 0.24944232500978744 0.07057673945830459 -0.24944232500978744
857.7844124811068 0.0651262552271082 -0.24004071385436235 0.9348737447728916 0.24004071385436235 0.9348737447728916 0.24004071385436235 0.0651262552271082 -0.24004071385436235
897.0642061062428 0.06007703636857108 -0.23088752581444635 0.939922963631429 0.23088752581444635 0.939922963631429 0.23088752581444635 0.06007703636857108 -0.23088752581444635
938.1427059852851 0.05540322576934337 -0.22198934941056378 0.9445967742306567 0.22198934941056378 0.9445967742306567 0.22198934941056378 0.05540322576934337 -0.22198934941056378
981.102278747212 0.0510799777863899 -0.21335074809101767 0.9489200222136104 0.21335074809101767 0.9489200222136104 0.21335074809101767 0.0510799777863899 -0.21335074809101767
1026.0290627661395 0.047083537104308314 -0.20497448129212778 0.9529164628956918 0.20497448129212778 0.9529164628956918 0.20497448129212778 0.047083537104308314 -0.20497448129212778
1073.0131408776467 0.04339129202976959 -0.1968617143703691 0.9566087079702303 0.1968617143703691 0.9566087079702303 0.1968617143703691 0.04339129202976959 -0.1968617143703691
1122.1487210041523 0.03998180569985873 -0.18901221595971804 0.9600181943001413 0.18901221595971804 0.9600181943001413 0.18901221595971804 0.03998180569985873 -0.18901221595971804
1173.5343250515148 0.03683482845170095 -0.1814245418261161 0.963165171548299 0.1814245418261161 0.963165171548299 0.1814245418261161 0.03683482845170095 -0.1814245418261161
1227.2729864556143 0.033931294343115474 -0.17409620471665882 0.9660687056568843 0.17409620471665882 0.9660687056568843 0.17409620471665882 0.033931294343115474 -0.17409620471665882
1283.4724567750195 0.03125330454455099 -0.16702383004446897 0.968746695455449 0.16702383004446897 0.968746695455449 0.16702383004446897 0.03125330454455099 -0.16702383004446897
1342.245421743976 0.0287841000532384 -0.16020329752267615 0.9712158999467616 0.16020329752267615 0.9712158999467616 0.16020329752267615 0.0287841000532384 -0.16020329752267615
1403.7097272189235 0.026508025919488355 -0.15362986907382561 0.9734919740805116 0.15362986907382561 0.9734919740805116 0.15362986907382561 0.026508025919488355 -0.15362986907382561
1467.9886154715937 0.024410488927291033 -0.14729830350495876 0.9755895110727091 0.14729830350495876 0.9755895110727091 0.14729830350495876 0.024410488927291033 -0.14729830350495876
1535.2109723024755 0.022477910439231755 -0.1412029585627994 0.977522089560768 0.1412029585627994 0.977522089560768 0.1412029585627994 0.022477910439231755 -0.1412029585627994
1605.5115854701387 0.02069767589979788 -0.13533788107566022 0.9793023241002019 0.13533788107566022 0.9793023241002019 0.13533788107566022 0.02069767589979788 -0.13533788107566022
1679.0314149545911 0.019058082290842798 -0.12969688595490012 0.9809419177091573 0.12969688595490012 0.9809419177091573 0.12969688595490012 0.019058082290842798 -0.12969688595490012
1755.9178755965756 0.017548284647168743 -0.12427362487354267 0.9824517153528313 0.12427362487354267 0.9824517153528313 0.12427362487354267 0.017548284647168743 -0.12427362487354267
1836.3251326795319 0.01615824256767924 -0.11906164546619277 0.9838417574323206 0.11906164546619277 0.9838417574323206 0.11906164546619277 0.01615824256767924 -0.11906164546619277
1920.4144110468878 0.014878667497380912 -0.11405444190486314 0.9851213325026191 0.11405444190486314 0.9851213325026191 0.11405444190486314 0.014878667497380912 -0.11405444190486314
2008.3543183745 0.013700971407158454 -0.10924549770128997 0.9862990285928417 0.10924549770128997 0.9862990285928417 0.10924549770128997 0.013700971407158454 -0.10924549770128997
2100.321183246434 0.01261721736166102 -0.10462832156903011 0.987382782638339 0.10462832156903011 0.987382782638339 0.10462832156903011 0.01261721736166102 -0.10462832156903011
2196.4994087119585 0.011620072341172493 -0.10019647714930227 0.9883799276588272 0.10019647714930227 0.9883799276588272 0.10019647714930227 0.011620072341172493 -0.10019647714930227
2297.0818420326846 0.010702762571587561 -0.09594360736457871 0.9892972374284126 0.09594360736457871 0.9892972374284126 0.09594360736457871 0.010702762571587561 -0.09594360736457871
2402.270161361206 0.009859031518223312 -0.09186345411501463 0.9901409684817768 0.09186345411501463 0.9901409684817768 0.09186345411501463 0.009859031518223312 -0.09186345411501463
2512.2752801266033 0.009083100614663032 -0.08794987397688206 0.990916899385337 0.08794987397688206 0.990916899385337 0.08794987397688206 0.009083100614663032 -0.08794987397688206
2627.3177699376165 0.008369632727361097 -0.08419685050141486 0.9916303672726389 0.08419685050141486 0.9916303672726389 0.08419685050141486 0.008369632727361097 -0.08419685050141486
2747.6283028514745 0.007713698300144712 -0.08059850364911904 0.9922863016998553 0.08059850364911904 0.9922863016998553 0.08059850364911904 0.007713698300144712 -0.08059850364911904
2873.4481138951564 0.0071107440794092695 -0.07714909683083794 0.9928892559205905 0.07714909683083794 0.9928892559205905 0.07714909683083794 0.0071107440794092695 -0.07714909683083794
3005.0294847665045 0.006556564289697334 -0.07384304196468408 0.9934434357103025 0.07384304196468408 0.9934434357103025 0.07384304196468408 0.006556564289697334 -0.07384304196468408
3142.6362496850466 0.006047274109122609 -0.07067490289902927 0.9939527258908772 0.07067490289902927 0.9939527258908772 0.07067490289902927 0.006047274109122609 -0.07067490289902927
3286.544324406816 0.005579285283170483 -0.06763939749738843 0.9944207147168295 0.06763939749738843 0.9944207147168295 0.06763939749738843 0.005579285283170483 -0.06763939749738843
3437.0422594639017 0.005149283712084721 -0.06473139863212747 0.9948507162879152 0.06473139863212747 0.9948507162879152 0.06473139863212747 0.005149283712084721 -0.06473139863212747
3594.431818738024 0.00475420884964289 -0.061945934290957 0.9952457911503572 0.061945934290957 0.9952457911503572 0.061945934290957 0.00475420884964289 -0.061945934290957
3759.0285845282415 0.004391234758032269 -0.05927818696327356 0.9956087652419677 0.05927818696327356 0.9956087652419677 0.05927818696327356 0.004391234758032269 -0.05927818696327356
3931.162590326006 0.0040577526733259735 -0.05672349244239731 0.9959422473266739 0.05672349244239731 0.9959422473266739 0.05672349244239731 0.0040577526733259735 -0.05672349244239731
4111.17898256636 0.0037513549474983902 -0.0542773381542318 0.9962486450525018 0.0542773381542318 0.9962486450525018 0.0542773381542318 0.0037513549474983902 -0.0542773381542318
4299.438712682125 0.0034698202450093325 -0.051935361102275195 0.9965301797549906 0.051935361102275195 0.9965301797549906 0.051935361102275195 0.0034698202450093325 -0.051935361102275195
4496.31926084876 0.003211099883957203 -0.04969334550258881 0.9967889001160429 0.04969334550258881 0.9967889001160429 0.04969334550258881 0.003211099883957203 -0.04969334550258881
4702.215392871039 0.002973305223096279 -0.04754722016959625 0.9970266947769035 0.04754722016959625 0.9970266947769035 0.04754722016959625 0.002973305223096279 -0.04754722016959625
4917.539951729213 0.002754696006266049 -0.04549305570376159 0.9972453039937339 0.04549305570376159 0.9972453039937339 0.04549305570376159 0.002754696006266049 -0.04549305570376159
5142.724685371758 0.002553669584786011 -0.04352706152464174 0.997446330415214 0.04352706152464174 0.997446330415214 0.04352706152464174 0.002553669584786011 -0.04352706152464174
5378.221112414543 0.0023687509460549013 -0.04164558278695013 0.9976312490539451 0.04164558278695013 0.9976312490539451 0.04164558278695013 0.0023687509460549013 -0.04164558278695013
5624.501427482224 0.002198583482988423 -0.039845097212597054 0.9978014165170114 0.039845097212597054 0.9978014165170114 0.039845097212597054 0.002198583482988423 -0.039845097212597054
5882.059448007167 0.0020419204441443507 -0.038122211867765904 0.9979580795558556 0.038122211867765904 0.9979580795558556 0.038122211867765904 0.0020419204441443507 -0.038122211867765904
6151.41160438433 0.0018976170085848454 -0.03647365991059305 0.9981023829914152 0.03647365991059305 0.9981023829914152 0.03647365991059305 0.0018976170085848454 -0.03647365991059305
6433.097975467465 0.0017646229329202436 -0.03489629733167811 0.9982353770670797 0.03489629733167811 0.9982353770670797 0.03489629733167811 0.0017646229329202436 -0.03489629733167811
6727.683371482931 0.0016419757207981368 -0.03338709970627381 0.9983580242792017 0.03338709970627381 0.9983580242792017 0.03338709970627381 0.0016419757207981368 -0.03338709970627381
7035.758466532445 0.001528794267587736 -0.03194315897347729 0.9984712057324121 0.03194315897347729 0.9984712057324121 0.03194315897347729 0.001528794267587736 -0.03194315897347729
7357.940982955574 0.0014242729354004319 -0.030561680254030495 0.9985757270645997 0.030561680254030495 0.9985757270645997 0.030561680254030495 0.0014242729354004319 -0.030561680254030495
7694.876929926739 0.001327676016102705 -0.029239978714470326 0.9986723239838973 0.029239978714470326 0.9986723239838973 0.029239978714470326 0.001327676016102705 -0.029239978714470326
8047.241898770236 0.0012383325428033474 -0.027975476481443388 0.9987616674571965 0.027975476481443388 0.9987616674571965 0.027975476481443388 0.0012383325428033474 -0.027975476481443388
8415.742417590522 0.001155631413571385 -0.026765699606167606 0.9988443685864286 0.026765699606167606 0.9988443685864286 0.026765699606167606 0.001155631413571385 -0.026765699606167606
8801.117367933934 0.001079016794940114 -0.025608275075473686 0.9989209832050597 0.025608275075473686 0.9989209832050597 0.025608275075473686 0.001079016794940114 -0.025608275075473686
9204.139466322391 0.0010079837770798712 -0.024500927862802686 0.9989920162229201 0.024500927862802686 0.9989920162229201 0.024500927862802686 0.0010079837770798712 -0.024500927862802686
9625.61681362972 9.420742573035237E-4 -0.023441478010182388 0.9990579257426965 0.023441478010182388 0.9990579257426965 0.023441478010182388 9.420742573035237E-4 -0.023441478010182388
10066.394515407255 8.808730336546839E-4 -0.022427837730737157 0.9991191269663454 0.022427837730737157 0.9991191269663454 0.022427837730737157 8.808730336546839E-4 -0.022427837730737157
10527.356376407623 8.240040955043572E-4 -0.021458008520830955 0.9991759959044958 0.021458008520830955 0.9991759959044958 0.021458008520830955 8.240040955043572E-4 -0.021458008520830955
11009.426672704432 7.711271030863794E-4 -0.02053007827156242 0.9992288728969136 0.02053007827156242 0.9992288728969136 0.02053007827156242 7.711271030863794E-4 -0.02053007827156242
11513.572004961125 7.21934052454556E-4 -0.019642218370991314 0.9992780659475453 0.019642218370991314 0.9992780659475453 0.019642218370991314 7.21934052454556E-4 -0.019642218370991314
12040.803236564994 6.761461261747862E-4 -0.01879268079105808 0.999323853873825 0.01879268079105808 0.999323853873825 0.01879268079105808 6.761461261747862E-4 -0.01879268079105808
12592.177520512549 6.335107329457415E-4 -0.01797979515645486 0.9993664892670542 0.01797979515645486 0.9993664892670542 0.01797979515645486 6.335107329457415E-4 -0.01797979515645486
13168.800419110281 5.937987411137099E-4 -0.01720196579644529 0.9994062012588864 0.01720196579644529 0.9994062012588864 0.01720196579644529 5.937987411137099E-4 -0.01720196579644529
