!Murata Part Number: GRM155C71C105ME11
!These Parameters are Measured in Series Mode Connection
!       o--ll--o
!Port1            Port2
!       o------o
!Operation Temp=25[degC], DC Bias Voltage=0[V]
!Freq. Start=100[Hz] Stop=6[GHz], 401[Steps]
!Data Generated on Oct 1, 2021
# Hz S RI R 50
!Freq.(Hz) S11(Real) S11(Imag) S21(Real) S21(Imag) S12(Real) S12(Imag) S22(Real) S22(Imag)
100.0 0.9972346575529301 -0.04702033911321534 0.0027653424470701197 0.04702033911321534 0.0027653424470701197 0.04702033911321534 0.9972346575529301 -0.04702033911321534
104.57921513303334 0.9969912812819304 -0.04913925839877264 0.003008718718069582 0.04913925839877264 0.003008718718069582 0.04913925839877264 0.9969912812819304 -0.04913925839877264
109.3681223784127 0.9967272496913747 -0.051351639016299126 0.0032727503086252834 0.051351639016299126 0.0032727503086252834 0.051351639016299126 0.9967272496913747 -0.051351639016299126
114.3763239890794 0.9964408622135099 -0.053661458379338056 0.003559137786490066 0.053661458379338056 0.003559137786490066 0.053661458379338056 0.9964408622135099 -0.053661458379338056
119.61386192579457 0.996130272875993 -0.056072856234576474 0.0038697271240069556 0.056072856234576474 0.0038697271240069556 0.056072856234576474 0.996130272875993 -0.056072856234576474
125.09123799230618 0.9957934756400589 -0.058590139933425975 0.004206524359941072 0.058590139933425975 0.004206524359941072 0.058590139933425975 0.9957934756400589 -0.058590139933425975
130.8194348925486 0.9954282881388092 -0.06121778924035697 0.004571711861190718 0.06121778924035697 0.004571711861190718 0.06121778924035697 0.9954282881388092 -0.06121778924035697
136.8099382520969 0.9950323337238406 -0.06396046049452478 0.004967666276159499 0.06396046049452478 0.004967666276159499 0.06396046049452478 0.9950323337238406 -0.06396046049452478
143.0747596480305 0.9946030217447975 -0.06682298992237158 0.005396978255202486 0.06682298992237158 0.005396978255202486 0.06682298992237158 0.9946030217447975 -0.06682298992237158
149.6264606933842 0.9941375260050027 -0.06981039588291006 0.0058624739949974395 0.06981039588291006 0.0058624739949974395 0.06981039588291006 0.9941375260050027 -0.06981039588291006
156.47817822447783 0.9936327613560085 -0.07292787981457384 0.0063672386439915475 0.07292787981457384 0.0063672386439915475 0.07292787981457384 0.9936327613560085 -0.07292787981457384
163.643650641628 0.9930853584136187 -0.07618082564274642 0.006914641586381402 0.07618082564274642 0.006914641586381402 0.07618082564274642 0.9930853584136187 -0.07618082564274642
171.13724545605763 0.9924916363965111 -0.0795747973997896 0.007508363603488841 0.0795747973997896 0.007508363603488841 0.0795747973997896 0.9924916363965111 -0.0795747973997896
178.97398809823787 0.991847574105228 -0.08311553480360233 0.008152425894772029 0.08311553480360233 0.008152425894772029 0.08311553480360233 0.991847574105228 -0.08311553480360233
187.1695920454257 0.9911487790734357 -0.08680894653511136 0.008851220926564358 0.08680894653511136 0.008851220926564358 0.08680894653511136 0.9911487790734357 -0.08680894653511136
195.74049032880657 0.9903904549350246 -0.09066110094806261 0.009609545064975293 0.09066110094806261 0.009609545064975293 0.09066110094806261 0.9903904549350246 -0.09066110094806261
204.70386848341695 0.9895673670603384 -0.09467821393442329 0.010432632939661467 0.09467821393442329 0.010432632939661467 0.09467821393442329 0.9895673670603384 -0.09467821393442329
214.0776990069143 0.9886738065237565 -0.0988666336541202 0.011326193476243569 0.0988666336541202 0.011326193476243569 0.0988666336541202 0.9886738065237565 -0.0988666336541202
223.88077739628844 0.9877035524746721 -0.10323282181753826 0.01229644752532794 0.10323282181753826 0.01229644752532794 0.10323282181753826 0.9877035524746721 -0.10323282181753826
234.132759834772 0.986649832996724 -0.10778333118244389 0.01335016700327584 0.10778333118244389 0.01335016700327584 0.10778333118244389 0.986649832996724 -0.10778333118244389
244.85420260451448 0.985505284558366 -0.11252477889361899 0.01449471544163409 0.11252477889361899 0.01449471544163409 0.11252477889361899 0.985505284558366 -0.11252477889361899
256.06660330404856 0.9842619101840586 -0.11746381525395039 0.01573808981594138 0.11746381525395039 0.01573808981594138 0.11746381525395039 0.9842619101840586 -0.11746381525395039
267.792443953192 0.9829110365120898 -0.12260708747111483 0.017088963487910214 0.12260708747111483 0.017088963487910214 0.12260708747111483 0.9829110365120898 -0.12260708747111483
280.0552360718164 0.9814432699546376 -0.12796119787604715 0.01855673004536245 0.12796119787604715 0.01855673004536245 0.12796119787604715 0.9814432699546376 -0.12796119787604715
292.87956782286926 0.9798484522403734 -0.13353265606032744 0.020151547759626676 0.13353265606032744 0.020151547759626676 0.13353265606032744 0.9798484522403734 -0.13353265606032744
306.2911533141767 0.9781156157014127 -0.1393278243322373 0.021884384298587384 0.1393278243322373 0.021884384298587384 0.1393278243322373 0.9781156157014127 -0.1393278243322373
320.3168841578819 0.9762329387662152 -0.1453528558486829 0.023767061233784727 0.1453528558486829 0.023767061233784727 0.1453528558486829 0.9762329387662152 -0.1453528558486829
334.9848833909005 0.974187702239105 -0.15161362474603834 0.02581229776089497 0.15161362474603834 0.02581229776089497 0.15161362474603834 0.974187702239105 -0.15161362474603834
350.32456186451077 0.9719662470859882 -0.15811564757115837 0.028033752914011906 0.15811564757115837 0.028033752914011906 0.15811564757115837 0.9719662470859882 -0.15811564757115837
366.36667721614316 0.9695539346046765 -0.16486399530864748 0.03044606539532343 0.16486399530864748 0.03044606539532343 0.16486399530864748 0.9695539346046765 -0.16486399530864748
383.1433955416162 0.9669351100364904 -0.17186319531663705 0.03306488996350974 0.17186319531663705 0.03306488996350974 0.17186319531663705 0.9669351100364904 -0.17186319531663705
400.68835589147574 0.964093070872392 -0.17911712252588888 0.03590692912760793 0.17911712252588888 0.03590692912760793 0.17911712252588888 0.964093070872392 -0.17911712252588888
419.03673772076064 0.9610100413198911 -0.18662887933149175 0.038989958680108794 0.18662887933149175 0.038989958680108794 0.18662887933149175 0.9610100413198911 -0.18662887933149175
438.225331427439 0.9576671546234397 -0.19440066371858392 0.0423328453765603 0.19440066371858392 0.0423328453765603 0.19440066371858392 0.9576671546234397 -0.19440066371858392
458.2926121209498 0.9540444451669883 -0.20243362531955666 0.04595555483301175 0.20243362531955666 0.04595555483301175 0.20243362531955666 0.9540444451669883 -0.20243362531955666
479.2788167687661 0.9501208525272856 -0.21072770930634602 0.049879147472714415 0.21072770930634602 0.049879147472714415 0.21072770930634602 0.9501208525272856 -0.21072770930634602
501.22602487566456 0.945874239883276 -0.2192814882839237 0.05412576011672396 0.2192814882839237 0.05412576011672396 0.2192814882839237 0.945874239883276 -0.2192814882839237
524.1782428574726 0.9412814294115717 -0.22809198267579153 0.05871857058842839 0.22809198267579153 0.05871857058842839 0.22809198267579153 0.9412814294115717 -0.22809198267579153
548.1814922784702 0.9363182574993789 -0.23715447048424854 0.06368174250062103 0.23715447048424854 0.06368174250062103 0.23715447048424854 0.9363182574993789 -0.23715447048424854
573.2839021293739 0.9309596527711774 -0.24646228777126028 0.06904034722882262 0.24646228777126028 0.06904034722882262 0.24646228777126028 0.9309596527711774 -0.24646228777126028
599.5358053309263 0.9251797400383661 -0.25600662174191163 0.07482025996163398 0.25600662174191163 0.07482025996163398 0.25600662174191163 0.9251797400383661 -0.25600662174191163
626.9898396565933 0.9189519733243485 -0.2657762989212057 0.08104802667565153 0.2657762989212057 0.08104802667565153 0.2657762989212057 0.9189519733243485 -0.2657762989212057
655.7010532767296 0.9122493010714756 -0.2757575715927329 0.0877506989285245 0.2757575715927329 0.0877506989285245 0.2757575715927329 0.9122493010714756 -0.2757575715927329
685.7270151358366 0.9050443664797106 -0.28593390640692806 0.0949556335202893 0.28593390640692806 0.0949556335202893 0.28593390640692806 0.9050443664797106 -0.28593390640692806
717.1279303842347 0.897309745637543 -0.29628577985512 0.1026902543624571 0.29628577985512 0.1026902543624571 0.29628577985512 0.897309745637543 -0.29628577985512
749.9667610955984 0.889018225660994 -0.30679048612577664 0.11098177433900608 0.30679048612577664 0.11098177433900608 0.30679048612577664 0.889018225660994 -0.30679048612577664
784.3093525124082 0.8801431244345493 -0.31742196368776965 0.11985687556545067 0.31742196368776965 0.11985687556545067 0.31742196368776965 0.8801431244345493 -0.31742196368776965
820.2245650724522 0.8706586527282522 -0.32815064775189845 0.1293413472717478 0.32815064775189845 0.1293413472717478 0.32815064775189845 0.8706586527282522 -0.32815064775189845
857.7844124811068 0.8605403184309156 -0.3389433565089632 0.13945968156908436 0.3389433565089632 0.13945968156908436 0.3389433565089632 0.8605403184309156 -0.3389433565089632
897.0642061062428 0.8497653713780993 -0.34976321968541185 0.15023462862190065 0.34976321968541185 0.15023462862190065 0.34976321968541185 0.8497653713780993 -0.34976321968541185
938.1427059852851 0.8383132857597222 -0.3605696584431784 0.16168671424027767 0.3605696584431784 0.16168671424027767 0.3605696584431784 0.8383132857597222 -0.3605696584431784
981.102278747212 0.8261662753699093 -0.37131842591822595 0.17383372463009059 0.37131842591822595 0.17383372463009059 0.37131842591822595 0.8261662753699093 -0.37131842591822595
1026.0290627661395 0.813309835027368 -0.3819617176747929 0.18669016497263208 0.3819617176747929 0.18669016497263208 0.3819617176747929 0.813309835027368 -0.3819617176747929
1073.0131408776467 0.7997332993809327 -0.39244836097598046 0.20026670061906732 0.39244836097598046 0.20026670061906732 0.39244836097598046 0.7997332993809327 -0.39244836097598046
1122.1487210041523 0.7854304080748394 -0.4027240909597882 0.21456959192516054 0.4027240909597882 0.21456959192516054 0.4027240909597882 0.7854304080748394 -0.4027240909597882
1173.5343250515148 0.7703998639592744 -0.4127319204882263 0.22960013604072552 0.4127319204882263 0.22960013604072552 0.4127319204882263 0.7703998639592744 -0.4127319204882263
1227.2729864556143 0.7546458687994746 -0.4224126085393243 0.24535413120052538 0.4224126085393243 0.24535413120052538 0.4224126085393243 0.7546458687994746 -0.4224126085393243
1283.4724567750195 0.7381786188972234 -0.4317052294889403 0.26182138110277664 0.4317052294889403 0.26182138110277664 0.4317052294889403 0.7381786188972234 -0.4317052294889403
1342.245421743976 0.7210147413579513 -0.44054784246173934 0.2789852586420488 0.44054784246173934 0.2789852586420488 0.44054784246173934 0.7210147413579513 -0.44054784246173934
1403.7097272189235 0.7031776506057801 -0.448878256141595 0.2968223493942198 0.448878256141595 0.2968223493942198 0.448878256141595 0.7031776506057801 -0.448878256141595
1467.9886154715937 0.684697804373622 -0.45663488010000386 0.3153021956263779 0.45663488010000386 0.3153021956263779 0.45663488010000386 0.684697804373622 -0.45663488010000386
1535.2109723024755 0.6656128389799663 -0.4637576489733158 0.3343871610200338 0.4637576489733158 0.3343871610200338 0.4637576489733158 0.6656128389799663 -0.4637576489733158
1605.5115854701387 0.645967565428142 -0.47018900091599125 0.3540324345718579 0.47018900091599125 0.3540324345718579 0.47018900091599125 0.645967565428142 -0.47018900091599125
1679.0314149545911 0.6258138108558553 -0.47587488697042984 0.37418618914414487 0.47587488697042984 0.37418618914414487 0.47587488697042984 0.6258138108558553 -0.47587488697042984
1755.9178755965756 0.605210094170466 -0.48076578367735173 0.39478990582953405 0.48076578367735173 0.39478990582953405 0.48076578367735173 0.605210094170466 -0.48076578367735173
1836.3251326795319 0.5842211302696757 -0.48481767779397655 0.41577886973032435 0.48481767779397655 0.41577886973032435 0.48481767779397655 0.5842211302696757 -0.48481767779397655
1920.4144110468878 0.5629171638835762 -0.48799298978119043 0.4370828361164238 0.48799298978119043 0.4370828361164238 0.48799298978119043 0.5629171638835762 -0.48799298978119043
2008.3543183745 0.5413731414668803 -0.4902614021136087 0.4586268585331197 0.4902614021136087 0.4586268585331197 0.4902614021136087 0.5413731414668803 -0.4902614021136087
2100.321183246434 0.5196677372842503 -0.4916005597157675 0.4803322627157496 0.4916005597157675 0.4803322627157496 0.4916005597157675 0.5196677372842503 -0.4916005597157675
2196.4994087119585 0.49788225734134534 -0.49199661305744 0.5021177426586547 0.49199661305744 0.5021177426586547 0.49199661305744 0.49788225734134534 -0.49199661305744
2297.0818420326846 0.47609945155020705 -0.49144457960838156 0.5239005484497928 0.49144457960838156 0.5239005484497928 0.49144457960838156 0.47609945155020705 -0.49144457960838156
2402.270161361206 0.45440226992549243 -0.48994850623356345 0.5455977300745076 0.48994850623356345 0.5455977300745076 0.48994850623356345 0.45440226992549243 -0.48994850623356345
2512.2752801266033 0.4328726022113575 -0.4875214233067901 0.5671273977886426 0.4875214233067901 0.5671273977886426 0.4875214233067901 0.4328726022113575 -0.4875214233067901
2627.3177699376165 0.4115900417970645 -0.48418509029444756 0.5884099582029355 0.48418509029444756 0.5884099582029355 0.48418509029444756 0.4115900417970645 -0.48418509029444756
2747.6283028514745 0.39063071393184934 -0.47996954168311934 0.6093692860681508 0.47996954168311934 0.6093692860681508 0.47996954168311934 0.39063071393184934 -0.47996954168311934
2873.4481138951564 0.3700662051377521 -0.47491245074167754 0.6299337948622479 0.47491245074167754 0.6299337948622479 0.47491245074167754 0.3700662051377521 -0.47491245074167754
3005.0294847665045 0.3499626255834257 -0.4690583361120683 0.6500373744165744 0.4690583361120683 0.6500373744165744 0.4690583361120683 0.3499626255834257 -0.4690583361120683
3142.6362496850466 0.3303798294340819 -0.4624576421137605 0.6696201705659182 0.4624576421137605 0.6696201705659182 0.4624576421137605 0.3303798294340819 -0.4624576421137605
3286.544324406816 0.3113708103672199 -0.45516572758194257 0.68862918963278 0.45516572758194257 0.68862918963278 0.45516572758194257 0.3113708103672199 -0.45516572758194257
3437.0422594639017 0.2929812811370896 -0.44724179987997775 0.7070187188629102 0.44724179987997775 0.7070187188629102 0.44724179987997775 0.2929812811370896 -0.44724179987997775
3594.431818738024 0.2752494378772495 -0.4387478304603696 0.7247505621227507 0.4387478304603696 0.7247505621227507 0.4387478304603696 0.2752494378772495 -0.4387478304603696
3759.0285845282415 0.25820590228368523 -0.4297474861915199 0.7417940977163148 0.4297474861915199 0.7417940977163148 0.4297474861915199 0.25820590228368523 -0.4297474861915199
3931.162590326006 0.24187382834833243 -0.420305106947699 0.7581261716516675 0.420305106947699 0.7581261716516675 0.420305106947699 0.24187382834833243 -0.420305106947699
4111.17898256636 0.22626915520792695 -0.41048475508964205 0.7737308447920732 0.41048475508964205 0.7737308447920732 0.41048475508964205 0.22626915520792695 -0.41048475508964205
4299.438712682125 0.2114009840859454 -0.4003493568911543 0.7885990159140547 0.4003493568911543 0.7885990159140547 0.4003493568911543 0.2114009840859454 -0.4003493568911543
4496.31926084876 0.19727205524997266 -0.38995995013034873 0.8027279447500272 0.38995995013034873 0.8027279447500272 0.38995995013034873 0.19727205524997266 -0.38995995013034873
4702.215392871039 0.1838793002818567 -0.3793750463521013 0.8161206997181434 0.3793750463521013 0.8161206997181434 0.3793750463521013 0.1838793002818567 -0.3793750463521013
4917.539951729213 0.17121444557553803 -0.3686501110368163 0.8287855544244619 0.3686501110368163 0.8287855544244619 0.3686501110368163 0.17121444557553803 -0.3686501110368163
5142.724685371758 0.15926464459498504 -0.35783716030869367 0.840735355405015 0.35783716030869367 0.840735355405015 0.35783716030869367 0.15926464459498504 -0.35783716030869367
5378.221112414543 0.14801311877590817 -0.3469844690245026 0.8519868812240919 0.3469844690245026 0.8519868812240919 0.3469844690245026 0.14801311877590817 -0.3469844690245026
5624.501427482224 0.13743978977628188 -0.3361363821595767 0.8625602102237183 0.3361363821595767 0.8625602102237183 0.3361363821595767 0.13743978977628188 -0.3361363821595767
5882.059448007167 0.12752188883158472 -0.3253332193405661 0.8724781111684151 0.3253332193405661 0.8724781111684151 0.3253332193405661 0.12752188883158472 -0.3253332193405661
6151.41160438433 0.11823453204687447 -0.31461126110086957 0.8817654679531255 0.31461126110086957 0.8817654679531255 0.31461126110086957 0.11823453204687447 -0.31461126110086957
6433.097975467465 0.10955125339862092 -0.30400280485543796 0.8904487466013788 0.30400280485543796 0.8904487466013788 0.30400280485543796 0.10955125339862092 -0.30400280485543796
6727.683371482931 0.1014444899087298 -0.2935362785876636 0.8985555100912701 0.2935362785876636 0.8985555100912701 0.2935362785876636 0.1014444899087298 -0.2935362785876636
7035.758466532445 0.09388601581770922 -0.2832364006868447 0.9061139841822908 0.2832364006868447 0.9061139841822908 0.2832364006868447 0.09388601581770922 -0.2832364006868447
7357.940982955574 0.08684732458652165 -0.27312437514881777 0.9131526754134784 0.27312437514881777 0.9131526754134784 0.27312437514881777 0.08684732458652165 -0.27312437514881777
7694.876929926739 0.08029995919012375 -0.26321811234470954 0.9197000408098762 0.26321811234470954 0.9197000408098762 0.26321811234470954 0.08029995919012375 -0.26321811234470954
8047.241898770236 0.07421579244525145 -0.2535324666792352 0.9257842075547484 0.2535324666792352 0.9257842075547484 0.2535324666792352 0.07421579244525145 -0.2535324666792352
8415.742417590522 0.06856726007109469 -0.24407948362419185 0.9314327399289052 0.24407948362419185 0.9314327399289052 0.24407948362419185 0.06856726007109469 -0.24407948362419185
8801.117367933934 0.06332754985361122 -0.23486864976639837 0.9366724501463889 0.23486864976639837 0.9366724501463889 0.23486864976639837 0.06332754985361122 -0.23486864976639837
9204.139466322391 0.05847075071561732 -0.2259071406105045 0.9415292492843828 0.2259071406105045 0.9415292492843828 0.2259071406105045 0.05847075071561732 -0.2259071406105045
9625.61681362972 0.05397196572860282 -0.21720006189849858 0.9460280342713971 0.21720006189849858 0.9460280342713971 0.21720006189849858 0.05397196572860282 -0.21720006189849858
10066.394515407255 0.04980739317864568 -0.20875068113379422 0.9501926068213544 0.20875068113379422 0.9501926068213544 0.20875068113379422 0.04980739317864568 -0.20875068113379422
10527.356376407623 0.04595437975339845 -0.20056064682190808 0.9540456202466014 0.20056064682190808 0.9540456202466014 0.20056064682190808 0.04595437975339845 -0.20056064682190808
11009.426672704432 0.04239144978001972 -0.1926301936617815 0.9576085502199804 0.1926301936617815 0.9576085502199804 0.1926301936617815 0.04239144978001972 -0.1926301936617815
11513.572004961125 0.039098314239751165 -0.18495833254564997 0.9609016857602487 0.18495833254564997 0.9609016857602487 0.18495833254564997 0.039098314239751165 -0.18495833254564997
12040.803236564994 0.036055863033198084 -0.17754302475719802 0.9639441369668017 0.17754302475719802 0.9639441369668017 0.17754302475719802 0.036055863033198084 -0.17754302475719802
12592.177520512549 0.033246143686595814 -0.17038134020458226 0.9667538563134044 0.17038134020458226 0.9667538563134044 0.17038134020458226 0.033246143686595814 -0.17038134020458226
13168.800419110281 0.03065232938544946 -0.16346959989381993 0.9693476706145505 0.16346959989381993 0.9693476706145505 0.16346959989381993 0.03065232938544946 -0.16346959989381993
13771.82812074114 0.02825867890750091 -0.15680350314564212 0.9717413210924993 0.15680350314564212 0.9717413210924993 0.15680350314564212 0.02825867890750091 -0.15680350314564212
