!Murata Part Number: GCM21BR71H224KA37
!These Parameters are Measured in Series Mode Connection
!       o--ll--o
!Port1            Port2
!       o------o
!Operation Temp=25[degC], DC Bias Voltage=0[V]
!Freq. Start=100[Hz] Stop=6[GHz], 401[Steps]
!Data Generated on Nov 6, 2018
# Hz S RI R 50
!Freq.(Hz) S11(Real) S11(Imag) S21(Real) S21(Imag) S12(Real) S12(Imag) S22(Real) S22(Imag)
100.0 0.9997465551310517 -0.013806251212135459 2.5344486894833844E-4 0.013806251212135459 2.5344486894833844E-4 0.013806251212135459 0.9997465551310517 -0.013806251212135459
104.57921513303334 0.9997263075086367 -0.014436442551324397 2.736924913633121E-4 0.014436442551324397 2.736924913633121E-4 0.014436442551324397 0.9997263075086367 -0.014436442551324397
109.3681223784127 0.9997042634979705 -0.015095417927897837 2.95736502029556E-4 0.015095417927897837 2.95736502029556E-4 0.015095417927897837 0.9997042634979705 -0.015095417927897837
114.3763239890794 0.9996802547483846 -0.015784483691388334 3.197452516154814E-4 0.015784483691388334 3.197452516154814E-4 0.015784483691388334 0.9996802547483846 -0.015784483691388334
119.61386192579457 0.9996540978890915 -0.016505004161720276 3.459021109084774E-4 0.016505004161720276 3.459021109084774E-4 0.016505004161720276 0.9996540978890915 -0.016505004161720276
125.09123799230618 0.9996255932476394 -0.017258404137088398 3.7440675236060256E-4 0.017258404137088398 3.7440675236060256E-4 0.017258404137088398 0.9996255932476394 -0.017258404137088398
130.8194348925486 0.9995945234543036 -0.01804617150582416 4.0547654569646777E-4 0.01804617150582416 4.0547654569646777E-4 0.01804617150582416 0.9995945234543036 -0.01804617150582416
136.8099382520969 0.999560651922235 -0.018869859966221182 4.3934807776503627E-4 0.018869859966221182 4.3934807776503627E-4 0.018869859966221182 0.999560651922235 -0.018869859966221182
143.0747596480305 0.9995237211920066 -0.019731091858572625 4.762788079933792E-4 0.019731091858572625 4.762788079933792E-4 0.019731091858572625 0.9995237211920066 -0.019731091858572625
149.6264606933842 0.9994834511278126 -0.02063156111391569 5.165488721875001E-4 0.02063156111391569 5.165488721875001E-4 0.02063156111391569 0.9994834511278126 -0.02063156111391569
156.47817822447783 0.999439536950956 -0.021573036324146404 5.604630490439633E-4 0.021573036324146404 5.604630490439633E-4 0.021573036324146404 0.999439536950956 -0.021573036324146404
163.643650641628 0.9993916470943953 -0.02255736393822465 6.083529056045862E-4 0.02255736393822465 6.083529056045862E-4 0.02255736393822465 0.9993916470943953 -0.02255736393822465
171.13724545605763 0.9993394208599814 -0.0235864715890856 6.605791400186934E-4 0.0235864715890856 6.605791400186934E-4 0.0235864715890856 0.9993394208599814 -0.0235864715890856
178.97398809823787 0.9992824658576198 -0.02466237155555653 7.175341423803131E-4 0.02466237155555653 7.175341423803131E-4 0.02466237155555653 0.9992824658576198 -0.02466237155555653
187.1695920454257 0.9992203552029217 -0.02578716436298438 7.79644797078318E-4 0.02578716436298438 7.79644797078318E-4 0.02578716436298438 0.9992203552029217 -0.02578716436298438
195.74049032880657 0.9991526244469796 -0.02696304252534244 8.473755530203337E-4 0.02696304252534244 8.473755530203337E-4 0.02696304252534244 0.9991526244469796 -0.02696304252534244
204.70386848341695 0.9990787682087644 -0.02819229443023753 9.21231791235545E-4 0.02819229443023753 9.21231791235545E-4 0.02819229443023753 0.9990787682087644 -0.02819229443023753
214.0776990069143 0.998998236477321 -0.029477308366411627 0.0010017635226789656 0.029477308366411627 0.0010017635226789656 0.029477308366411627 0.998998236477321 -0.029477308366411627
223.88077739628844 0.9989104305475157 -0.030820576690968993 0.0010895694524843274 0.030820576690968993 0.0010895694524843274 0.030820576690968993 0.9989104305475157 -0.030820576690968993
234.132759834772 0.998814698549639 -0.03222470013061118 0.0011853014503610004 0.03222470013061118 0.0011853014503610004 0.03222470013061118 0.998814698549639 -0.03222470013061118
244.85420260451448 0.9987103305297945 -0.03369239220760599 0.001289669470205407 0.03369239220760599 0.001289669470205407 0.03369239220760599 0.9987103305297945 -0.03369239220760599
256.06660330404856 0.9985965530348057 -0.035226483777049795 0.001403446965194275 0.035226483777049795 0.001403446965194275 0.035226483777049795 0.9985965530348057 -0.035226483777049795
267.792443953192 0.9984725231524585 -0.03682992765723494 0.0015274768475415184 0.03682992765723494 0.0015274768475415184 0.03682992765723494 0.9984725231524585 -0.03682992765723494
280.0552360718164 0.9983373219553602 -0.038505803329668416 0.0016626780446398054 0.038505803329668416 0.0016626780446398054 0.038505803329668416 0.9983373219553602 -0.038505803329668416
292.87956782286926 0.9981899472945974 -0.04025732167958932 0.0018100527054025154 0.04025732167958932 0.0018100527054025154 0.04025732167958932 0.9981899472945974 -0.04025732167958932
306.2911533141767 0.9980293058877623 -0.042087829741814714 0.0019706941122378495 0.042087829741814714 0.0019706941122378495 0.042087829741814714 0.9980293058877623 -0.042087829741814714
320.3168841578819 0.9978542046447646 -0.04400081541052016 0.0021457953552353535 0.04400081541052016 0.0021457953552353535 0.04400081541052016 0.9978542046447646 -0.04400081541052016
334.9848833909005 0.9976633411741115 -0.04599991206524689 0.0023366588258884567 0.04599991206524689 0.0023366588258884567 0.04599991206524689 0.9976633411741115 -0.04599991206524689
350.32456186451077 0.9974552934118727 -0.048088903059098555 0.0025447065881273262 0.048088903059098555 0.0025447065881273262 0.048088903059098555 0.9974552934118727 -0.048088903059098555
366.36667721614316 0.9972285083152493 -0.05027172600878385 0.0027714916847506347 0.05027172600878385 0.0027714916847506347 0.05027172600878385 0.9972285083152493 -0.05027172600878385
383.1433955416162 0.9969812895622936 -0.05255247681984028 0.0030187104377063473 0.05255247681984028 0.0030187104377063473 0.05255247681984028 0.9969812895622936 -0.05255247681984028
400.68835589147574 0.996711784198731 -0.054935413373922035 0.0032882158012689957 0.054935413373922035 0.0032882158012689957 0.054935413373922035 0.996711784198731 -0.054935413373922035
419.03673772076064 0.9964179681718384 -0.057424958798254176 0.0035820318281615453 0.057424958798254176 0.0035820318281615453 0.057424958798254176 0.9964179681718384 -0.057424958798254176
438.225331427439 0.9960976306898114 -0.06002570422995633 0.0039023693101886835 0.06002570422995633 0.0039023693101886835 0.06002570422995633 0.9960976306898114 -0.06002570422995633
458.2926121209498 0.995748357342977 -0.06274241097957638 0.004251642657023099 0.06274241097957638 0.004251642657023099 0.06274241097957638 0.995748357342977 -0.06274241097957638
479.2788167687661 0.9953675119206468 -0.06558001198844463 0.004632488079353122 0.06558001198844463 0.004632488079353122 0.06558001198844463 0.9953675119206468 -0.06558001198844463
501.22602487566456 0.9949522168545172 -0.06854361246295052 0.005047783145482804 0.06854361246295052 0.005047783145482804 0.06854361246295052 0.9949522168545172 -0.06854361246295052
524.1782428574726 0.9944993322166201 -0.07163848955515302 0.005500667783379875 0.07163848955515302 0.005500667783379875 0.07163848955515302 0.9944993322166201 -0.07163848955515302
548.1814922784702 0.994005433197311 -0.07487009094290346 0.005994566802688877 0.07487009094290346 0.005994566802688877 0.07487009094290346 0.994005433197311 -0.07487009094290346
573.2839021293739 0.9934667859871358 -0.07824403214359048 0.006533214012864215 0.07824403214359048 0.006533214012864215 0.07824403214359048 0.9934667859871358 -0.07824403214359048
599.5358053309263 0.9928793219862477 -0.08176609237349762 0.007120678013752309 0.08176609237349762 0.007120678013752309 0.08176609237349762 0.9928793219862477 -0.08176609237349762
626.9898396565933 0.9922386102669732 -0.08544220873947456 0.007761389733026715 0.08544220873947456 0.007761389733026715 0.08544220873947456 0.9922386102669732 -0.08544220873947456
655.7010532767296 0.9915398282198226 -0.08927846852112227 0.008460171780177453 0.08927846852112227 0.008460171780177453 0.08927846852112227 0.9915398282198226 -0.08927846852112227
685.7270151358366 0.9907777303214286 -0.0932810992700344 0.009222269678571484 0.0932810992700344 0.009222269678571484 0.0932810992700344 0.9907777303214286 -0.0932810992700344
717.1279303842347 0.9899466149752933 -0.0974564564179426 0.01005338502470654 0.0974564564179426 0.01005338502470654 0.0974564564179426 0.9899466149752933 -0.0974564564179426
749.9667610955984 0.9890402893935786 -0.10181100804807491 0.010959710606421378 0.10181100804807491 0.010959710606421378 0.10181100804807491 0.9890402893935786 -0.10181100804807491
784.3093525124082 0.988052032511288 -0.10635131644390734 0.01194796748871205 0.10635131644390734 0.01194796748871205 0.10635131644390734 0.988052032511288 -0.10635131644390734
820.2245650724522 0.9869745559539037 -0.11108401598709473 0.01302544404609629 0.11108401598709473 0.01302544404609629 0.11108401598709473 0.9869745559539037 -0.11108401598709473
857.7844124811068 0.9857999631167418 -0.11601578693210834 0.01420003688325816 0.11601578693210834 0.01420003688325816 0.11601578693210834 0.9857999631167418 -0.11601578693210834
897.0642061062428 0.9845197064600006 -0.12115332453948514 0.015480293539999445 0.12115332453948514 0.015480293539999445 0.12115332453948514 0.9845197064600006 -0.12115332453948514
938.1427059852851 0.9831245431787747 -0.12650330300323753 0.0168754568212253 0.12650330300323753 0.0168754568212253 0.12650330300323753 0.9831245431787747 -0.12650330300323753
981.102278747212 0.9816044894734097 -0.13207233356168915 0.018395510526590143 0.13207233356168915 0.018395510526590143 0.13207233356168915 0.9816044894734097 -0.13207233356168915
1026.0290627661395 0.9799487737238092 -0.13786691613580307 0.02005122627619083 0.13786691613580307 0.02005122627619083 0.13786691613580307 0.9799487737238092 -0.13786691613580307
1073.0131408776467 0.9781457889631325 -0.14389338379626793 0.021854211036867476 0.14389338379626793 0.021854211036867476 0.14389338379626793 0.9781457889631325 -0.14389338379626793
1122.1487210041523 0.9761830451533049 -0.15015783932185112 0.023816954846695094 0.15015783932185112 0.023816954846695094 0.15015783932185112 0.9761830451533049 -0.15015783932185112
1173.5343250515148 0.9740471218885246 -0.15666608307891058 0.02595287811147553 0.15666608307891058 0.02595287811147553 0.15666608307891058 0.9740471218885246 -0.15666608307891058
1227.2729864556143 0.97172362229522 -0.16342353142810082 0.02827637770478001 0.16342353142810082 0.02827637770478001 0.16342353142810082 0.97172362229522 -0.16342353142810082
1283.4724567750195 0.9691971290593209 -0.17043512485248186 0.030802870940679093 0.17043512485248186 0.030802870940679093 0.17043512485248186 0.9691971290593209 -0.17043512485248186
1342.245421743976 0.9664511636958234 -0.17770522500546787 0.0335488363041767 0.17770522500546787 0.0335488363041767 0.17770522500546787 0.9664511636958234 -0.17770522500546787
1403.7097272189235 0.9634681503827573 -0.1852374999022803 0.03653184961724266 0.1852374999022803 0.03653184961724266 0.1852374999022803 0.9634681503827573 -0.1852374999022803
1467.9886154715937 0.9602293859126353 -0.193034796530774 0.03977061408736472 0.193034796530774 0.03977061408736472 0.193034796530774 0.9602293859126353 -0.193034796530774
1535.2109723024755 0.9567150175694216 -0.20109900024384433 0.04328498243057843 0.20109900024384433 0.04328498243057843 0.20109900024384433 0.9567150175694216 -0.20109900024384433
1605.5115854701387 0.9529040310170875 -0.2094308804245735 0.0470959689829124 0.2094308804245735 0.0470959689829124 0.2094308804245735 0.9529040310170875 -0.2094308804245735
1679.0314149545911 0.9487742505844527 -0.21802992209663966 0.0512257494155473 0.21802992209663966 0.0512257494155473 0.21802992209663966 0.9487742505844527 -0.21802992209663966
1755.9178755965756 0.9443023546457281 -0.2268941433974934 0.05569764535427188 0.2268941433974934 0.05569764535427188 0.2268941433974934 0.9443023546457281 -0.2268941433974934
1836.3251326795319 0.939463909119679 -0.2360198991527186 0.06053609088032102 0.2360198991527186 0.06053609088032102 0.2360198991527186 0.939463909119679 -0.2360198991527186
1920.4144110468878 0.9342334224317254 -0.2454016712000482 0.06576657756827468 0.2454016712000482 0.06576657756827468 0.2454016712000482 0.9342334224317254 -0.2454016712000482
2008.3543183745 0.9285844255873436 -0.2550318466240565 0.07141557441265652 0.2550318466240565 0.07141557441265652 0.2550318466240565 0.9285844255873436 -0.2550318466240565
2100.321183246434 0.9224895812712526 -0.26490048569019387 0.07751041872874748 0.26490048569019387 0.07751041872874748 0.26490048569019387 0.9224895812712526 -0.26490048569019387
2196.4994087119585 0.9159208260884788 -0.2749950820200265 0.08407917391152117 0.2749950820200265 0.08407917391152117 0.2749950820200265 0.9159208260884788 -0.2749950820200265
2297.0818420326846 0.9088495501673318 -0.28530031843473896 0.09115044983266814 0.28530031843473896 0.09115044983266814 0.28530031843473896 0.9088495501673318 -0.28530031843473896
2402.270161361206 0.9012468183107702 -0.295797822911298 0.09875318168922964 0.295797822911298 0.09875318168922964 0.295797822911298 0.9012468183107702 -0.295797822911298
2512.2752801266033 0.8930836366655508 -0.3064659302363793 0.10691636333444926 0.3064659302363793 0.10691636333444926 0.3064659302363793 0.8930836366655508 -0.3064659302363793
2627.3177699376165 0.884331268427137 -0.3172794561863047 0.11566873157286288 0.3172794561863047 0.11566873157286288 0.3172794561863047 0.884331268427137 -0.3172794561863047
2747.6283028514745 0.8749616013593727 -0.3282094923709473 0.12503839864062713 0.3282094923709473 0.12503839864062713 0.3282094923709473 0.8749616013593727 -0.3282094923709473
2873.4481138951564 0.8649475688294757 -0.33922323120190095 0.13505243117052437 0.33922323120190095 0.13505243117052437 0.33922323120190095 0.8649475688294757 -0.33922323120190095
3005.0294847665045 0.8542636245954729 -0.3502838317062097 0.14573637540452722 0.3502838317062097 0.14573637540452722 0.3502838317062097 0.8542636245954729 -0.3502838317062097
3142.6362496850466 0.8428862697019861 -0.3613503380115027 0.1571137302980139 0.3613503380115027 0.1571137302980139 0.3613503380115027 0.8428862697019861 -0.3613503380115027
3286.544324406816 0.8307946275288856 -0.3723776631611443 0.1692053724711144 0.3723776631611443 0.1692053724711144 0.3723776631611443 0.8307946275288856 -0.3723776631611443
3437.0422594639017 0.8179710603120399 -0.383316651346598 0.18202893968796013 0.383316651346598 0.18202893968796013 0.383316651346598 0.8179710603120399 -0.383316651346598
3594.431818738024 0.8044018173694995 -0.3941142315254243 0.19559818263050063 0.3941142315254243 0.19559818263050063 0.3941142315254243 0.8044018173694995 -0.3941142315254243
3759.0285845282415 0.7900777019177821 -0.40471367458277185 0.20992229808221785 0.40471367458277185 0.20992229808221785 0.40471367458277185 0.7900777019177821 -0.40471367458277185
3931.162590326006 0.774994739899053 -0.41505496455936264 0.22500526010094704 0.41505496455936264 0.22500526010094704 0.41505496455936264 0.774994739899053 -0.41505496455936264
4111.17898256636 0.7591548308599209 -0.4250752919053899 0.2408451691400792 0.4250752919053899 0.2408451691400792 0.4250752919053899 0.7591548308599209 -0.4250752919053899
4299.438712682125 0.7425663578731275 -0.43470967316979237 0.25743364212687236 0.43470967316979237 0.25743364212687236 0.43470967316979237 0.7425663578731275 -0.43470967316979237
4496.31926084876 0.7252447310592288 -0.4438916970061834 0.2747552689407711 0.4438916970061834 0.2747552689407711 0.4438916970061834 0.7252447310592288 -0.4438916970061834
4702.215392871039 0.7072128377512947 -0.4525543909620008 0.2927871622487052 0.4525543909620008 0.2927871622487052 0.4525543909620008 0.7072128377512947 -0.4525543909620008
4917.539951729213 0.6885013720516724 -0.46063119740439556 0.3114986279483278 0.46063119740439556 0.3114986279483278 0.46063119740439556 0.6885013720516724 -0.46063119740439556
5142.724685371758 0.6691490177193985 -0.4680570404150165 0.3308509822806015 0.4680570404150165 0.3308509822806015 0.4680570404150165 0.6691490177193985 -0.4680570404150165
5378.221112414543 0.6492024611912256 -0.4747694589425187 0.35079753880877435 0.4747694589425187 0.35079753880877435 0.4747694589425187 0.6492024611912256 -0.4747694589425187
5624.501427482224 0.628716216161601 -0.4807097754003446 0.37128378383839905 0.4807097754003446 0.37128378383839905 0.4807097754003446 0.628716216161601 -0.4807097754003446
5882.059448007167 0.6077522474715736 -0.4858242637473016 0.3922477525284265 0.4858242637473016 0.3922477525284265 0.4858242637473016 0.6077522474715736 -0.4858242637473016
6151.41160438433 0.586379389868219 -0.49006527739892797 0.4136206101317811 0.49006527739892797 0.4136206101317811 0.49006527739892797 0.586379389868219 -0.49006527739892797
6433.097975467465 0.5646725661156924 -0.49339229554391156 0.4353274338843076 0.49339229554391156 0.4353274338843076 0.49339229554391156 0.5646725661156924 -0.49339229554391156
6727.683371482931 0.5427118184387173 -0.49577284692646706 0.45728818156128276 0.49577284692646706 0.45728818156128276 0.49577284692646706 0.5427118184387173 -0.49577284692646706
7035.758466532445 0.5205811767192817 -0.49718327308477683 0.4794188232807182 0.49718327308477683 0.4794188232807182 0.49718327308477683 0.5205811767192817 -0.49718327308477683
7357.940982955574 0.4983673955510074 -0.4976092983888652 0.5016326044489927 0.4976092983888652 0.5016326044489927 0.4976092983888652 0.4983673955510074 -0.4976092983888652
7694.876929926739 0.4761585994989082 -0.49704638176221777 0.5238414005010917 0.49704638176221777 0.5238414005010917 0.49704638176221777 0.4761585994989082 -0.49704638176221777
8047.241898770236 0.4540428811173323 -0.49549983425428623 0.5459571188826677 0.49549983425428623 0.5459571188826677 0.49549983425428623 0.4540428811173323 -0.49549983425428623
8415.742417590522 0.43210689900282434 -0.4929846970360104 0.5678931009971756 0.4929846970360104 0.5678931009971756 0.4929846970360104 0.43210689900282434 -0.4929846970360104
8801.117367933934 0.4104345231661705 -0.489525385183024 0.5895654768338295 0.489525385183024 0.5895654768338295 0.489525385183024 0.4104345231661705 -0.489525385183024
9204.139466322391 0.3891055722996402 -0.48515511301672404 0.6108944277003598 0.48515511301672404 0.6108944277003598 0.48515511301672404 0.3891055722996402 -0.48515511301672404
9625.61681362972 0.3681946823280272 -0.47991512605820624 0.6318053176719727 0.47991512605820624 0.6318053176719727 0.47991512605820624 0.3681946823280272 -0.47991512605820624
10066.394515407255 0.34777033840893634 -0.47385377219609814 0.6522296615910638 0.47385377219609814 0.6522296615910638 0.47385377219609814 0.34777033840893634 -0.47385377219609814
10527.356376407623 0.32789409388623453 -0.46702545003282486 0.6721059061137655 0.46702545003282486 0.6721059061137655 0.46702545003282486 0.32789409388623453 -0.46702545003282486
11009.426672704432 0.3086199902833488 -0.45948947532034334 0.6913800097166513 0.45948947532034334 0.6913800097166513 0.45948947532034334 0.3086199902833488 -0.45948947532034334
11513.572004961125 0.2899941829442035 -0.45130890690875425 0.7100058170557966 0.45130890690875425 0.7100058170557966 0.45130890690875425 0.2899941829442035 -0.45130890690875425
12040.803236564994 0.27205476802572265 -0.44254937189198573 0.7279452319742774 0.44254937189198573 0.7279452319742774 0.44254937189198573 0.27205476802572265 -0.44254937189198573
12592.177520512549 0.254831798741159 -0.4332779259875589 0.7451682012588411 0.4332779259875589 0.7451682012588411 0.4332779259875589 0.254831798741159 -0.4332779259875589
13168.800419110281 0.23834747242384036 -0.42356198008524265 0.7616525275761595 0.42356198008524265 0.7616525275761595 0.42356198008524265 0.23834747242384036 -0.42356198008524265
