!Murata Part Number: GQM1555G2D200JB01
!These Parameters are Measured in Series Mode Connection
!       o--ll--o
!Port1            Port2
!       o------o
!Operation Temp=25[degC], DC Bias Voltage=0[V]
!Freq. Start=100[MHz] Stop=20[GHz], 401[Steps]
!Data Generated on Oct 1, 2024
# Hz S RI R 50
!Freq.(Hz) S11(Real) S11(Imag) S21(Real) S21(Imag) S12(Real) S12(Imag) S22(Real) S22(Imag)
1.0E8 0.3868750303419443 -0.48652649837549794 0.6131249696580557 0.48652649837549794 0.6131249696580557 0.48652649837549794 0.3868750303419443 -0.48652649837549794
1.4975E8 0.2189979099487272 -0.41280411359688524 0.7810020900512726 0.41280411359688524 0.7810020900512726 0.41280411359688524 0.2189979099487272 -0.41280411359688524
1.995E8 0.1358686486263429 -0.34162843183646663 0.8641313513736568 0.34162843183646663 0.8641313513736568 0.34162843183646663 0.1358686486263429 -0.34162843183646663
2.4925E8 0.09099759377709465 -0.28632410833067895 0.9090024062229053 0.28632410833067895 0.9090024062229053 0.28632410833067895 0.09099759377709465 -0.28632410833067895
2.99E8 0.06458279393607066 -0.2442413056344264 0.9354172060639292 0.2442413056344264 0.9354172060639292 0.2442413056344264 0.06458279393607066 -0.2442413056344264
3.4875E8 0.04788985460808616 -0.21171558377116498 0.9521101453919139 0.21171558377116498 0.9521101453919139 0.21171558377116498 0.04788985460808616 -0.21171558377116498
3.985E8 0.0367302418561255 -0.186004188302262 0.9632697581438747 0.186004188302262 0.9632697581438747 0.186004188302262 0.0367302418561255 -0.186004188302262
4.4825E8 0.028927702258220528 -0.16522457326559462 0.9710722977417794 0.16522457326559462 0.9710722977417794 0.16522457326559462 0.028927702258220528 -0.16522457326559462
4.98E8 0.023271202362889865 -0.14809212241277325 0.9767287976371102 0.14809212241277325 0.9767287976371102 0.14809212241277325 0.023271202362889865 -0.14809212241277325
5.4775E8 0.019047010384367062 -0.13371662247758978 0.9809529896156329 0.13371662247758978 0.9809529896156329 0.13371662247758978 0.019047010384367062 -0.13371662247758978
5.975E8 0.015813775268042393 -0.1214680357098517 0.9841862247319576 0.1214680357098517 0.9841862247319576 0.1214680357098517 0.015813775268042393 -0.1214680357098517
6.4725E8 0.013287290135033193 -0.11089068379597121 0.986712709864967 0.11089068379597121 0.986712709864967 0.11089068379597121 0.013287290135033193 -0.11089068379597121
6.97E8 0.011278115742771868 -0.10164814565935477 0.9887218842572283 0.10164814565935477 0.9887218842572283 0.10164814565935477 0.011278115742771868 -0.10164814565935477
7.4675E8 0.009656179579175757 -0.09348730528342776 0.9903438204208244 0.09348730528342776 0.9903438204208244 0.09348730528342776 0.009656179579175757 -0.09348730528342776
7.965E8 0.008329844190678328 -0.0862144267785345 0.9916701558093215 0.0862144267785345 0.9916701558093215 0.0862144267785345 0.008329844190678328 -0.0862144267785345
8.4625E8 0.0072330810235212125 -0.07967890592289677 0.9927669189764788 0.07967890592289677 0.9927669189764788 0.07967890592289677 0.0072330810235212125 -0.07967890592289677
8.96E8 0.006317361034809785 -0.07376201565713439 0.9936826389651905 0.07376201565713439 0.9936826389651905 0.07376201565713439 0.006317361034809785 -0.07376201565713439
9.4575E8 0.0055463837434193055 -0.06836896474610887 0.9944536162565806 0.06836896474610887 0.9944536162565806 0.06836896474610887 0.0055463837434193055 -0.06836896474610887
9.955E8 0.0048925659729858 -0.06342319685112265 0.9951074340270141 0.06342319685112265 0.9951074340270141 0.06342319685112265 0.0048925659729858 -0.06342319685112265
1.04525E9 0.004334650858485256 -0.05886223226622839 0.9956653491415147 0.05886223226622839 0.9956653491415147 0.05886223226622839 0.004334650858485256 -0.05886223226622839
1.095E9 0.0038560472217173784 -0.054634590038616516 0.9961439527782827 0.054634590038616516 0.9961439527782827 0.054634590038616516 0.0038560472217173784 -0.054634590038616516
1.14475E9 0.003443655449176416 -0.05069747875913569 0.9965563445508238 0.05069747875913569 0.9965563445508238 0.05069747875913569 0.003443655449176416 -0.05069747875913569
1.1945E9 0.0030870237933514986 -0.047015042318211006 0.9969129762066484 0.047015042318211006 0.9969129762066484 0.047015042318211006 0.0030870237933514986 -0.047015042318211006
1.24425E9 0.0027777330965371087 -0.04355701181937729 0.9972222669034629 0.04355701181937729 0.9972222669034629 0.04355701181937729 0.0027777330965371087 -0.04355701181937729
1.294E9 0.00250894199638605 -0.04029765851549766 0.9974910580036139 0.04029765851549766 0.9974910580036139 0.04029765851549766 0.00250894199638605 -0.04029765851549766
1.34375E9 0.0022750465639944438 -0.03721497247426337 0.9977249534360055 0.03721497247426337 0.9977249534360055 0.03721497247426337 0.0022750465639944438 -0.03721497247426337
1.3935E9 0.0020714226597163925 -0.03429001236427738 0.9979285773402836 0.03429001236427738 0.9979285773402836 0.03429001236427738 0.0020714226597163925 -0.03429001236427738
1.44325E9 0.001894228839872382 -0.03150638628448011 0.9981057711601276 0.03150638628448011 0.9981057711601276 0.03150638628448011 0.001894228839872382 -0.03150638628448011
1.493E9 0.0017402541085016496 -0.028849833897631884 0.9982597458914985 0.028849833897631884 0.9982597458914985 0.028849833897631884 0.0017402541085016496 -0.028849833897631884
1.54275E9 0.0016067992447595704 -0.02630788757047668 0.9983932007552404 0.02630788757047668 0.9983932007552404 0.02630788757047668 0.0016067992447595704 -0.02630788757047668
1.5925E9 0.0014915835244985486 -0.023869595639981395 0.9985084164755015 0.023869595639981395 0.9985084164755015 0.023869595639981395 0.0014915835244985486 -0.023869595639981395
1.64225E9 0.0013926708312392464 -0.021525294908940496 0.9986073291687606 0.021525294908940496 0.9986073291687606 0.021525294908940496 0.0013926708312392464 -0.021525294908940496
1.692E9 0.0013084107042845264 -0.019266422433020014 0.9986915892957154 0.019266422433020014 0.9986915892957154 0.019266422433020014 0.0013084107042845264 -0.019266422433020014
1.74175E9 0.0012373909914253113 -0.01708535887900958 0.9987626090085747 0.01708535887900958 0.9987626090085747 0.01708535887900958 0.0012373909914253113 -0.01708535887900958
1.7915E9 0.0011783995896526194 -0.014975297410673384 0.9988216004103474 0.014975297410673384 0.9988216004103474 0.014975297410673384 0.0011783995896526194 -0.014975297410673384
1.84125E9 0.0011303933577756263 -0.012930133336467916 0.9988696066422244 0.012930133336467916 0.9988696066422244 0.012930133336467916 0.0011303933577756263 -0.012930133336467916
1.891E9 0.0010924727308845618 -0.010944370734797168 0.9989075272691155 0.010944370734797168 0.9989075272691155 0.010944370734797168 0.0010924727308845618 -0.010944370734797168
1.94075E9 0.0010638609008680666 -0.009013043031583172 0.9989361390991319 0.009013043031583172 0.9989361390991319 0.009013043031583172 0.0010638609008680666 -0.009013043031583172
1.9905E9 0.001043886679855738 -0.007131645096006095 0.9989561133201441 0.007131645096006095 0.9989561133201441 0.007131645096006095 0.001043886679855738 -0.007131645096006095
2.04025E9 0.0010319703560339561 -0.005296074883346652 0.998968029643966 0.005296074883346652 0.998968029643966 0.005296074883346652 0.0010319703560339561 -0.005296074883346652
2.09E9 0.001027611999289788 -0.003502583018701185 0.9989723880007103 0.003502583018701185 0.9989723880007103 0.003502583018701185 0.001027611999289788 -0.003502583018701185
2.13975E9 0.0010303817888596474 -0.0017477290042137124 0.9989696182111404 0.0017477290042137124 0.9989696182111404 0.0017477290042137124 0.0010303817888596474 -0.0017477290042137124
2.1895E9 0.0010399120248848715 -2.8342962167886794E-5 0.998960087975115 2.8342962167886794E-5 0.998960087975115 2.8342962167886794E-5 0.0010399120248848715 -2.8342962167886794E-5
2.23925E9 0.0010558905566524393 0.0016585079904729012 0.9989441094433475 -0.0016585079904729012 0.9989441094433475 -0.0016585079904729012 0.0010558905566524393 0.0016585079904729012
2.289E9 0.0010780554169336504 0.0033155494940088916 0.9989219445830664 -0.0033155494940088916 0.9989219445830664 -0.0033155494940088916 0.0010780554169336504 0.0033155494940088916
2.33875E9 0.001106190497724031 0.0049453264652469155 0.9988938095022759 -0.0049453264652469155 0.9988938095022759 -0.0049453264652469155 0.001106190497724031 0.0049453264652469155
2.3885E9 0.00114012214052987 0.006550226931448715 0.99885987785947 -0.006550226931448715 0.99885987785947 -0.006550226931448715 0.00114012214052987 0.006550226931448715
2.43825E9 0.0011797165462613965 0.008132503652363817 0.9988202834537386 -0.008132503652363817 0.9988202834537386 -0.008132503652363817 0.0011797165462613965 0.008132503652363817
2.488E9 0.0012248779374951127 0.009694293945814933 0.9987751220625048 -0.009694293945814933 0.9987751220625048 -0.009694293945814933 0.0012248779374951127 0.009694293945814933
2.53775E9 0.0012755474308000204 0.011237638088070758 0.9987244525692002 -0.011237638088070758 0.9987244525692002 -0.011237638088070758 0.0012755474308000204 0.011237638088070758
2.5875E9 0.001331702600259305 0.012764496627940493 0.9986682973997408 -0.012764496627940493 0.9986682973997408 -0.012764496627940493 0.001331702600259305 0.012764496627940493
2.63725E9 0.0013933577364619032 0.014276766931992231 0.9986066422635379 -0.014276766931992231 0.9986066422635379 -0.014276766931992231 0.0013933577364619032 0.014276766931992231
2.687E9 0.0014605648293033126 0.015776299266894618 0.9985394351706965 -0.015776299266894618 0.9985394351706965 -0.015776299266894618 0.0014605648293033126 0.015776299266894618
2.73675E9 0.001533415329245793 0.017264912723468796 0.9984665846707541 -0.017264912723468796 0.9984665846707541 -0.017264912723468796 0.001533415329245793 0.017264912723468796
2.7865E9 0.001612042771782777 0.018744411295983452 0.9983879572282174 -0.018744411295983452 0.9983879572282174 -0.018744411295983452 0.001612042771782777 0.018744411295983452
2.83625E9 0.001696626385615733 0.02021660045045863 0.9983033736143844 -0.02021660045045863 0.9983033736143844 -0.02021660045045863 0.001696626385615733 0.02021660045045863
2.886E9 0.0017873958488904458 0.021683304548835287 0.9982126041511095 -0.021683304548835287 0.9982126041511095 -0.021683304548835287 0.0017873958488904458 0.021683304548835287
2.93575E9 0.0018846374129197904 0.023146385544183995 0.9981153625870802 -0.023146385544183995 0.9981153625870802 -0.023146385544183995 0.0018846374129197904 0.023146385544183995
2.9855E9 0.0019887016834035953 0.024607763429041245 0.9980112983165966 -0.024607763429041245 0.9980112983165966 -0.024607763429041245 0.0019887016834035953 0.024607763429041245
3.03525E9 0.0021000134410809916 0.026069439009158632 0.997899986558919 -0.026069439009158632 0.997899986558919 -0.026069439009158632 0.0021000134410809916 0.026069439009158632
3.085E9 0.0022190840051318638 0.027533519694869776 0.9977809159948682 -0.027533519694869776 0.9977809159948682 -0.027533519694869776 0.0022190840051318638 0.027533519694869776
3.13475E9 0.0023465268049093647 0.029002249160732105 0.9976534731950907 -0.029002249160732105 0.9976534731950907 -0.029002249160732105 0.0023465268049093647 0.029002249160732105
3.1845E9 0.0024830770450236257 0.03047804193314651 0.9975169229549763 -0.03047804193314651 0.9975169229549763 -0.03047804193314651 0.0024830770450236257 0.03047804193314651
3.23425E9 0.0026296166489072413 0.03196352424184889 0.9973703833510927 -0.03196352424184889 0.9973703833510927 -0.03196352424184889 0.0026296166489072413 0.03196352424184889
3.284E9 0.0027872060810918043 0.03346158283731609 0.9972127939189083 -0.03346158283731609 0.9972127939189083 -0.03346158283731609 0.0027872060810918043 0.03346158283731609
3.33375E9 0.002957125229260566 0.0349754239638174 0.9970428747707394 -0.0349754239638174 0.9970428747707394 -0.0349754239638174 0.002957125229260566 0.0349754239638174
3.3835E9 0.0031409263497645485 0.036508645331013036 0.9968590736502354 -0.036508645331013036 0.9968590736502354 -0.036508645331013036 0.0031409263497645485 0.036508645331013036
3.43325E9 0.0033405032602652324 0.03806532480703919 0.9966594967397346 -0.03806532480703919 0.9966594967397346 -0.03806532480703919 0.0033405032602652324 0.03806532480703919
3.483E9 0.0035581826787411774 0.03965013074894348 0.9964418173212588 -0.03965013074894348 0.9964418173212588 -0.03965013074894348 0.0035581826787411774 0.03965013074894348
3.53275E9 0.00379684613856223 0.04126846051274651 0.9962031538614378 -0.04126846051274651 0.9962031538614378 -0.04126846051274651 0.00379684613856223 0.04126846051274651
3.5825E9 0.004060094699767602 0.04292661591383549 0.9959399053002324 -0.04292661591383549 0.9959399053002324 -0.04292661591383549 0.004060094699767602 0.04292661591383549
3.63225E9 0.0043524744492464355 0.04463202747189434 0.9956475255507535 -0.04463202747189434 0.9956475255507535 -0.04463202747189434 0.0043524744492464355 0.04463202747189434
3.682E9 0.0046797897318060075 0.04639354348792411 0.9953202102681942 -0.04639354348792411 0.9953202102681942 -0.04639354348792411 0.0046797897318060075 0.04639354348792411
3.73175E9 0.005049545197442178 0.048221805768242476 0.9949504548025578 -0.048221805768242476 0.9949504548025578 -0.048221805768242476 0.005049545197442178 0.048221805768242476
3.7815E9 0.005471580570208289 0.05012974159239419 0.9945284194297916 -0.05012974159239419 0.9945284194297916 -0.05012974159239419 0.005471580570208289 0.05012974159239419
3.83125E9 0.005958999696677646 0.05213321167619941 0.9940410003033221 -0.05213321167619941 0.9940410003033221 -0.05213321167619941 0.005958999696677646 0.05213321167619941
3.881E9 0.006529559072434747 0.054251866138742326 0.9934704409275651 -0.054251866138742326 0.9934704409275651 -0.054251866138742326 0.006529559072434747 0.054251866138742326
3.93075E9 0.007207791424429987 0.05651027241457133 0.99279220857557 -0.05651027241457133 0.99279220857557 -0.05651027241457133 0.007207791424429987 0.05651027241457133
3.9805E9 0.008028336696794506 0.058939381741068386 0.9919716633032053 -0.058939381741068386 0.9919716633032053 -0.058939381741068386 0.008028336696794506 0.058939381741068386
4.03025E9 0.009041313738676837 0.0615783666832026 0.9909586862613232 -0.0615783666832026 0.9909586862613232 -0.0615783666832026 0.009041313738676837 0.0615783666832026
4.08E9 0.010321247347481948 0.06447670987509133 0.9896787526525181 -0.06447670987509133 0.9896787526525181 -0.06447670987509133 0.010321247347481948 0.06447670987509133
4.12975E9 0.011982385414189122 0.06769591586199723 0.9880176145858109 -0.06769591586199723 0.9880176145858109 -0.06769591586199723 0.011982385414189122 0.06769591586199723
4.1795E9 0.01420584267488464 0.07130864446061713 0.9857941573251157 -0.07130864446061713 0.9857941573251157 -0.07130864446061713 0.01420584267488464 0.07130864446061713
4.22925E9 0.017289091665669044 0.07538824694119163 0.9827109083343308 -0.07538824694119163 0.9827109083343308 -0.07538824694119163 0.017289091665669044 0.07538824694119163
4.279E9 0.021737404901745073 0.07996672396344011 0.9782625950982548 -0.07996672396344011 0.9782625950982548 -0.07996672396344011 0.021737404901745073 0.07996672396344011
4.32875E9 0.028426649616122276 0.08489197046208492 0.9715733503838777 -0.08489197046208492 0.9715733503838777 -0.08489197046208492 0.028426649616122276 0.08489197046208492
4.3785E9 0.0388309271194748 0.0893714577896559 0.9611690728805252 -0.0893714577896559 0.9611690728805252 -0.0893714577896559 0.0388309271194748 0.0893714577896559
4.42825E9 0.05491891425361536 0.09065432434105075 0.9450810857463848 -0.09065432434105075 0.9450810857463848 -0.09065432434105075 0.05491891425361536 0.09065432434105075
4.478E9 0.07637340443832248 0.08161339978953844 0.9236265955616775 -0.08161339978953844 0.9236265955616775 -0.08161339978953844 0.07637340443832248 0.08161339978953844
4.52775E9 0.09127789669612367 0.054514755372173804 0.9087221033038765 -0.054514755372173804 0.9087221033038765 -0.054514755372173804 0.09127789669612367 0.054514755372173804
4.5775E9 0.08172581384908262 0.022983635967505054 0.9182741861509172 -0.022983635967505054 0.9182741861509172 -0.022983635967505054 0.08172581384908262 0.022983635967505054
4.62725E9 0.05836953348570804 0.009350428785449975 0.9416304665142919 -0.009350428785449975 0.9416304665142919 -0.009350428785449975 0.05836953348570804 0.009350428785449975
4.677E9 0.03926068787657825 0.010164207079172064 0.9607393121234219 -0.010164207079172064 0.9607393121234219 -0.010164207079172064 0.03926068787657825 0.010164207079172064
4.72675E9 0.02728335320004055 0.015785046802273866 0.9727166467999594 -0.015785046802273866 0.9727166467999594 -0.015785046802273866 0.02728335320004055 0.015785046802273866
4.7765E9 0.020114850823094582 0.021996315333214368 0.9798851491769054 -0.021996315333214368 0.9798851491769054 -0.021996315333214368 0.020114850823094582 0.021996315333214368
4.82625E9 0.015746198941803433 0.027641910793754512 0.9842538010581966 -0.027641910793754512 0.9842538010581966 -0.027641910793754512 0.015746198941803433 0.027641910793754512
4.876E9 0.01300068718475499 0.032550997687773746 0.9869993128152451 -0.032550997687773746 0.9869993128152451 -0.032550997687773746 0.01300068718475499 0.032550997687773746
4.92575E9 0.011228104892648052 0.036807087965529464 0.988771895107352 -0.036807087965529464 0.988771895107352 -0.036807087965529464 0.011228104892648052 0.036807087965529464
4.9755E9 0.010063628063686735 0.04053565210111669 0.9899363719363133 -0.04053565210111669 0.9899363719363133 -0.04053565210111669 0.010063628063686735 0.04053565210111669
5.02525E9 0.009295378058129302 0.04384948919676233 0.9907046219418707 -0.04384948919676233 0.9907046219418707 -0.04384948919676233 0.009295378058129302 0.04384948919676233
5.075E9 0.008795613163105008 0.04683901625602011 0.9912043868368952 -0.04683901625602011 0.9912043868368952 -0.04683901625602011 0.008795613163105008 0.04683901625602011
5.12475E9 0.008484582139736027 0.049574306474552715 0.991515417860264 -0.049574306474552715 0.991515417860264 -0.049574306474552715 0.008484582139736027 0.049574306474552715
5.1745E9 0.008310951949728368 0.052109350444304425 0.9916890480502718 -0.052109350444304425 0.9916890480502718 -0.052109350444304425 0.008310951949728368 0.052109350444304425
5.22425E9 0.008240833587029154 0.05448599307354378 0.9917591664129708 -0.05448599307354378 0.9917591664129708 -0.05448599307354378 0.008240833587029154 0.05448599307354378
5.274E9 0.008251414513476425 0.05673703957279708 0.9917485854865236 -0.05673703957279708 0.9917485854865236 -0.05673703957279708 0.008251414513476425 0.05673703957279708
5.32375E9 0.008327145756418188 0.05888858204640555 0.9916728542435819 -0.05888858204640555 0.9916728542435819 -0.05888858204640555 0.008327145756418188 0.05888858204640555
5.3735E9 0.008457394523213448 0.060961714238059614 0.9915426054767863 -0.060961714238059614 0.9915426054767863 -0.060961714238059614 0.008457394523213448 0.060961714238059614
5.42325E9 0.008634965280831878 0.06297379442097463 0.9913650347191683 -0.06297379442097463 0.9913650347191683 -0.06297379442097463 0.008634965280831878 0.06297379442097463
5.473E9 0.008855151914681744 0.06493938221500614 0.9911448480853181 -0.06493938221500614 0.9911448480853181 -0.06493938221500614 0.008855151914681744 0.06493938221500614
5.52275E9 0.00911512505640246 0.06687094187457247 0.9908848749435977 -0.06687094187457247 0.9908848749435977 -0.06687094187457247 0.00911512505640246 0.06687094187457247
5.5725E9 0.009413538214264465 0.06877937847788491 0.9905864617857355 -0.06877937847788491 0.9905864617857355 -0.06877937847788491 0.009413538214264465 0.06877937847788491
5.62225E9 0.009750282495776476 0.07067445438405662 0.9902497175042234 -0.07067445438405662 0.9902497175042234 -0.07067445438405662 0.009750282495776476 0.07067445438405662
5.672E9 0.010126347412694437 0.07256511980013784 0.9898736525873055 -0.07256511980013784 0.9898736525873055 -0.07256511980013784 0.010126347412694437 0.07256511980013784
