!Murata Part Number: GCM32ED70E107ME36
!These Parameters are Measured in Series Mode Connection
!       o--ll--o
!Port1            Port2
!       o------o
!Operation Temp=25[degC], DC Bias Voltage=0[V]
!Freq. Start=100[Hz] Stop=6[GHz], 401[Steps]
!Data Generated on Aug 1, 2022
# Hz S RI R 50
!Freq.(Hz) S11(Real) S11(Imag) S21(Real) S21(Imag) S12(Real) S12(Imag) S22(Real) S22(Imag)
100.0 0.0446842931993067 -0.20064798178412696 0.9553157068006934 0.20064798178412696 0.9553157068006934 0.20064798178412696 0.0446842931993067 -0.20064798178412696
104.57921513303334 0.0411711509064744 -0.19267041334552404 0.9588288490935255 0.19267041334552404 0.9588288490935255 0.19267041334552404 0.0411711509064744 -0.19267041334552404
109.3681223784127 0.03792645585708508 -0.1849562726758193 0.962073544142915 0.1849562726758193 0.962073544142915 0.1849562726758193 0.03792645585708508 -0.1849562726758193
114.3763239890794 0.03493101660330664 -0.17750313501289222 0.9650689833966934 0.17750313501289222 0.9650689833966934 0.17750313501289222 0.03493101660330664 -0.17750313501289222
119.61386192579457 0.03216682140666005 -0.17030771607032263 0.9678331785933402 0.17030771607032263 0.9678331785933402 0.17030771607032263 0.03216682140666005 -0.17030771607032263
125.09123799230618 0.0296170013371182 -0.16336601154526983 0.9703829986628819 0.16336601154526983 0.9703829986628819 0.16336601154526983 0.0296170013371182 -0.16336601154526983
130.8194348925486 0.027265786349041914 -0.15667342127180373 0.9727342136509578 0.15667342127180373 0.9727342136509578 0.15667342127180373 0.027265786349041914 -0.15667342127180373
136.8099382520969 0.025098456456750823 -0.150224858921971 0.9749015435432492 0.150224858921971 0.9749015435432492 0.150224858921971 0.025098456456750823 -0.150224858921971
143.0747596480305 0.02310128980870262 -0.14401484828953764 0.9768987101912974 0.14401484828953764 0.9768987101912974 0.14401484828953764 0.02310128980870262 -0.14401484828953764
149.6264606933842 0.02126150915344863 -0.13803760727188716 0.9787384908465512 0.13803760727188716 0.9787384908465512 0.13803760727188716 0.02126150915344863 -0.13803760727188716
156.47817822447783 0.019567227907416936 -0.13228712070087542 0.9804327720925832 0.13228712070087542 0.9804327720925832 0.13228712070087542 0.019567227907416936 -0.13228712070087542
163.643650641628 0.018007396777816508 -0.12675720317060857 0.9819926032221834 0.12675720317060857 0.9819926032221834 0.12675720317060857 0.018007396777816508 -0.12675720317060857
171.13724545605763 0.016571751666125727 -0.1214415529762352 0.9834282483338742 0.1214415529762352 0.9834282483338742 0.1214415529762352 0.016571751666125727 -0.1214415529762352
178.97398809823787 0.015250763380121702 -0.11633379821996861 0.9847492366198782 0.11633379821996861 0.9847492366198782 0.11633379821996861 0.015250763380121702 -0.11633379821996861
187.1695920454257 0.014035589515441853 -0.11142753606544267 0.9859644104845583 0.11142753606544267 0.9859644104845583 0.11142753606544267 0.014035589515441853 -0.11142753606544267
195.74049032880657 0.012918028730353727 -0.10671636603540928 0.9870819712696463 0.10671636603540928 0.9870819712696463 0.10671636603540928 0.012918028730353727 -0.10671636603540928
204.70386848341695 0.011890477527889508 -0.10219391815624443 0.9881095224721106 0.10219391815624443 0.9881095224721106 0.10219391815624443 0.011890477527889508 -0.10219391815624443
214.0776990069143 0.010945889575171256 -0.09785387666041236 0.9890541104248289 0.09785387666041236 0.9890541104248289 0.09785387666041236 0.010945889575171256 -0.09785387666041236
223.88077739628844 0.010077737527492008 -0.09368999986865514 0.9899222624725083 0.09368999986865514 0.9899222624725083 0.09368999986865514 0.010077737527492008 -0.09368999986865514
234.132759834772 0.00927997728114465 -0.08969613678997411 0.9907200227188553 0.08969613678997411 0.9907200227188553 0.08969613678997411 0.00927997728114465 -0.08969613678997411
244.85420260451448 0.008547014550682047 -0.08586624090126475 0.9914529854493179 0.08586624090126475 0.9914529854493179 0.08586624090126475 0.008547014550682047 -0.08586624090126475
256.06660330404856 0.007873673649980394 -0.08219438150076405 0.9921263263500194 0.08219438150076405 0.9921263263500194 0.08219438150076405 0.007873673649980394 -0.08219438150076405
267.792443953192 0.007255168349188387 -0.07867475297058872 0.9927448316508115 0.07867475297058872 0.9927448316508115 0.07867475297058872 0.007255168349188387 -0.07867475297058872
280.0552360718164 0.006687074678787758 -0.07530168223337613 0.9933129253212122 0.07530168223337613 0.9933129253212122 0.07530168223337613 0.006687074678787758 -0.07530168223337613
292.87956782286926 0.00616530555540415 -0.07206963464578554 0.993834694444596 0.07206963464578554 0.993834694444596 0.07206963464578554 0.00616530555540415 -0.07206963464578554
306.2911533141767 0.005686087109967112 -0.06897321853654609 0.9943139128900328 0.06897321853654609 0.9943139128900328 0.06897321853654609 0.005686087109967112 -0.06897321853654609
320.3168841578819 0.0052459366060074505 -0.06600718856786861 0.9947540633939923 0.06600718856786861 0.9947540633939923 0.06600718856786861 0.0052459366060074505 -0.06600718856786861
334.9848833909005 0.004841641843353787 -0.06316644807536584 0.9951583581566461 0.06316644807536584 0.9951583581566461 0.06316644807536584 0.004841641843353787 -0.06316644807536584
350.32456186451077 0.00447024194961684 -0.06044605052216762 0.9955297580503831 0.06044605052216762 0.9955297580503831 0.06044605052216762 0.00447024194961684 -0.06044605052216762
366.36667721614316 0.004129009468258763 -0.05784120018676404 0.9958709905317412 0.05784120018676404 0.9958709905317412 0.05784120018676404 0.004129009468258763 -0.05784120018676404
383.1433955416162 0.0038154336575724184 -0.05534725219046468 0.9961845663424276 0.05534725219046468 0.9961845663424276 0.05534725219046468 0.0038154336575724184 -0.05534725219046468
400.68835589147574 0.003527204919535069 -0.05295971195853768 0.9964727950804652 0.05295971195853768 0.9964727950804652 0.05295971195853768 0.003527204919535069 -0.05295971195853768
419.03673772076064 0.003262200281363417 -0.05067423419854124 0.9967377997186366 0.05067423419854124 0.9967377997186366 0.05067423419854124 0.003262200281363417 -0.05067423419854124
438.225331427439 0.0030184698558706744 -0.048486621469651214 0.9969815301441294 0.048486621469651214 0.9969815301441294 0.048486621469651214 0.0030184698558706744 -0.048486621469651214
458.2926121209498 0.0027942242096490886 -0.04639282240762252 0.9972057757903509 0.04639282240762252 0.9972057757903509 0.04639282240762252 0.0027942242096490886 -0.04639282240762252
479.2788167687661 0.002587822570929774 -0.04438892966121445 0.9974121774290703 0.04438892966121445 0.9974121774290703 0.04438892966121445 0.002587822570929774 -0.04438892966121445
501.22602487566456 0.0023977618119578686 -0.04247117758738875 0.997602238188042 0.04247117758738875 0.997602238188042 0.04247117758738875 0.0023977618119578686 -0.04247117758738875
524.1782428574726 0.002222666144087458 -0.04063593974437738 0.9977773338559127 0.04063593974437738 0.9977773338559127 0.04063593974437738 0.002222666144087458 -0.04063593974437738
548.1814922784702 0.0020612774677194155 -0.03887972621392444 0.9979387225322807 0.03887972621392444 0.9979387225322807 0.03887972621392444 0.0020612774677194155 -0.03887972621392444
573.2839021293739 0.0019124463237789066 -0.037199180776804744 0.998087553676221 0.037199180776804744 0.998087553676221 0.037199180776804744 0.0019124463237789066 -0.037199180776804744
599.5358053309263 0.0017751233986757534 -0.03559107795931987 0.9982248766013242 0.03559107795931987 0.9982248766013242 0.03559107795931987 0.0017751233986757534 -0.03559107795931987
626.9898396565933 0.0016483515405371228 -0.03405231996309235 0.9983516484594631 0.03405231996309235 0.9983516484594631 0.03405231996309235 0.0016483515405371228 -0.03405231996309235
655.7010532767296 0.0015312582507833118 -0.03257993348631811 0.9984687417492167 0.03257993348631811 0.9984687417492167 0.03257993348631811 0.0015312582507833118 -0.03257993348631811
685.7270151358366 0.0014230486215893621 -0.031171066441843302 0.9985769513784104 0.031171066441843302 0.9985769513784104 0.031171066441843302 0.0014230486215893621 -0.031171066441843302
717.1279303842347 0.0013229986961339655 -0.029822984576069928 0.9986770013038662 0.029822984576069928 0.9986770013038662 0.029822984576069928 0.0013229986961339655 -0.029822984576069928
749.9667610955984 0.0012304492344498556 -0.028533067992736878 0.9987695507655501 0.028533067992736878 0.9987695507655501 0.028533067992736878 0.0012304492344498556 -0.028533067992736878
784.3093525124082 0.0011447998728300458 -0.02729880758693094 0.9988552001271702 0.02729880758693094 0.9988552001271702 0.02729880758693094 0.0011447998728300458 -0.02729880758693094
820.2245650724522 0.001065503668828946 -0.026117801397018622 0.998934496331171 0.026117801397018622 0.998934496331171 0.026117801397018622 0.001065503668828946 -0.026117801397018622
857.7844124811068 9.920620267207508E-4 -0.02498775088523855 0.9990079379732792 0.02498775088523855 0.9990079379732792 0.02498775088523855 9.920620267207508E-4 -0.02498775088523855
897.0642061062428 9.240199997353823E-4 -0.023906457161082837 0.9990759800002647 0.023906457161082837 0.9990759800002647 0.023906457161082837 9.240199997353823E-4 -0.023906457161082837
938.1427059852851 8.609619654949263E-4 -0.02287181716494197 0.9991390380345052 0.02287181716494197 0.9991390380345052 0.02287181716494197 8.609619654949263E-4 -0.02287181716494197
981.102278747212 8.025076699436671E-4 -0.021881819832429834 0.9991974923300563 0.021881819832429834 0.9991974923300563 0.021881819832429834 8.025076699436671E-4 -0.021881819832429834
1026.0290627661395 7.483086329221064E-4 -0.020934542262044244 0.9992516913670778 0.020934542262044244 0.9992516913670778 0.020934542262044244 7.483086329221064E-4 -0.020934542262044244
1073.0131408776467 6.980449056694843E-4 -0.020028145910140405 0.9993019550943304 0.020028145910140405 0.9993019550943304 0.020028145910140405 6.980449056694843E-4 -0.020028145910140405
1122.1487210041523 6.514221672762487E-4 -0.019160872837487488 0.9993485778327237 0.019160872837487488 0.9993485778327237 0.019160872837487488 6.514221672762487E-4 -0.019160872837487488
1173.5343250515148 6.081691437745861E-4 -0.018331042030935725 0.9993918308562255 0.018331042030935725 0.9993918308562255 0.018331042030935725 6.081691437745861E-4 -0.018331042030935725
1227.2729864556143 5.680353304468673E-4 -0.017537045822026295 0.9994319646695532 0.017537045822026295 0.9994319646695532 0.017537045822026295 5.680353304468673E-4 -0.017537045822026295
1283.4724567750195 5.307889952876301E-4 -0.016777346421889123 0.9994692110047126 0.016777346421889123 0.9994692110047126 0.016777346421889123 5.307889952876301E-4 -0.016777346421889123
1342.245421743976 4.962154395415769E-4 -0.016050472588699106 0.9995037845604585 0.016050472588699106 0.9995037845604585 0.016050472588699106 4.962154395415769E-4 -0.016050472588699106
1403.7097272189235 4.6411548994815E-4 -0.015355016440526134 0.9995358845100517 0.015355016440526134 0.9995358845100517 0.015355016440526134 4.6411548994815E-4 -0.015355016440526134
1467.9886154715937 4.343041967702379E-4 -0.014689630422838707 0.9995656958032296 0.014689630422838707 0.9995656958032296 0.014689630422838707 4.343041967702379E-4 -0.014689630422838707
1535.2109723024755 4.066097118274024E-4 -0.014053024436400548 0.9995933902881725 0.014053024436400548 0.9995933902881725 0.014053024436400548 4.066097118274024E-4 -0.014053024436400548
1605.5115854701387 3.8087232150517555E-4 -0.013443963127991261 0.9996191276784948 0.013443963127991261 0.9996191276784948 0.013443963127991261 3.8087232150517555E-4 -0.013443963127991261
1679.0314149545911 3.569436109574773E-4 -0.012861263343394476 0.9996430563890424 0.012861263343394476 0.9996430563890424 0.012861263343394476 3.569436109574773E-4 -0.012861263343394476
1755.9178755965756 3.3468573733593616E-4 -0.012303791739497324 0.9996653142626639 0.012303791739497324 0.9996653142626639 0.012303791739497324 3.3468573733593616E-4 -0.012303791739497324
1836.3251326795319 3.139707917498536E-4 -0.011770462550155724 0.9996860292082501 0.011770462550155724 0.9996860292082501 0.011770462550155724 3.139707917498536E-4 -0.011770462550155724
1920.4144110468878 2.946802316815355E-4 -0.01126023549869483 0.9997053197683184 0.01126023549869483 0.9997053197683184 0.01126023549869483 2.946802316815355E-4 -0.01126023549869483
2008.3543183745 2.767043676732204E-4 -0.010772113848504301 0.9997232956323266 0.010772113848504301 0.9997232956323266 0.010772113848504301 2.767043676732204E-4 -0.010772113848504301
2100.321183246434 2.59941890206819E-4 -0.010305142582114953 0.999740058109793 0.010305142582114953 0.999740058109793 0.010305142582114953 2.59941890206819E-4 -0.010305142582114953
2196.4994087119585 2.442994247805045E-4 -0.009858406698367132 0.9997557005752197 0.009858406698367132 0.9997557005752197 0.009858406698367132 2.442994247805045E-4 -0.009858406698367132
2297.0818420326846 2.2969110522774594E-4 -0.00943102961676803 0.9997703088947723 0.00943102961676803 0.9997703088947723 0.00943102961676803 2.2969110522774594E-4 -0.00943102961676803
2402.270161361206 2.1603815731558996E-4 -0.009022171677862581 0.9997839618426845 0.009022171677862581 0.9997839618426845 0.009022171677862581 2.1603815731558996E-4 -0.009022171677862581
2512.2752801266033 2.0326848659364284E-4 -0.008631028728397296 0.9997967315134064 0.008631028728397296 0.9997967315134064 0.008631028728397296 2.0326848659364284E-4 -0.008631028728397296
2627.3177699376165 1.913162663337642E-4 -0.008256830780238701 0.9998086837336663 0.008256830780238701 0.9998086837336663 0.008256830780238701 1.913162663337642E-4 -0.008256830780238701
2747.6283028514745 1.8012152318507842E-4 -0.007898840732419013 0.9998198784768151 0.007898840732419013 0.9998198784768151 0.007898840732419013 1.8012152318507842E-4 -0.007898840732419013
2873.4481138951564 1.696297198412619E-4 -0.00755635314632671 0.9998303702801589 0.00755635314632671 0.9998303702801589 0.00755635314632671 1.696297198412619E-4 -0.00755635314632671
3005.0294847665045 1.5979133553866082E-4 -0.007228693064934333 0.9998402086644615 0.007228693064934333 0.9998402086644615 0.007228693064934333 1.5979133553866082E-4 -0.007228693064934333
3142.6362496850466 1.5056144652914074E-4 -0.006915214868046567 0.9998494385534709 0.006915214868046567 0.9998494385534709 0.006915214868046567 1.5056144652914074E-4 -0.006915214868046567
3286.544324406816 1.4189930975337312E-4 -0.006615301156827096 0.9998581006902466 0.006615301156827096 0.9998581006902466 0.006615301156827096 1.4189930975337312E-4 -0.006615301156827096
3437.0422594639017 1.3376795373614252E-4 -0.006328361662277107 0.9998662320462638 0.006328361662277107 0.9998662320462638 0.006328361662277107 1.3376795373614252E-4 -0.006328361662277107
3594.431818738024 1.2613378120439976E-4 -0.006053832173828819 0.9998738662187956 0.006053832173828819 0.9998738662187956 0.006053832173828819 1.2613378120439976E-4 -0.006053832173828819
3759.0285845282415 1.1896618807782705E-4 -0.005791173485711972 0.9998810338119221 0.005791173485711972 0.9998810338119221 0.005791173485711972 1.1896618807782705E-4 -0.005791173485711972
3931.162590326006 1.1223720330831521E-4 -0.005539870360172724 0.9998877627966918 0.005539870360172724 0.9998877627966918 0.005539870360172724 1.1223720330831521E-4 -0.005539870360172724
4111.17898256636 1.059211535787891E-4 -0.005299430507899604 0.9998940788464212 0.005299430507899604 0.9998940788464212 0.005299430507899604 1.059211535787891E-4 -0.005299430507899604
4299.438712682125 9.999435616316988E-5 -0.00506938358707696 0.9999000056438371 0.00506938358707696 0.9999000056438371 0.00506938358707696 9.999435616316988E-5 -0.00506938358707696
4496.31926084876 9.443484236342005E-5 -0.004849280223297187 0.9999055651576366 0.004849280223297187 0.9999055651576366 0.004849280223297187 9.443484236342005E-5 -0.004849280223297187
4702.215392871039 8.922211295116613E-5 -0.004638691053093965 0.9999107778870489 0.004638691053093965 0.9999107778870489 0.004638691053093965 8.922211295116613E-5 -0.004638691053093965
4917.539951729213 8.433692602669253E-5 -0.004437205794106792 0.9999156630739733 0.004437205794106792 0.9999156630739733 0.004437205794106792 8.433692602669253E-5 -0.004437205794106792
5142.724685371758 7.976111673820693E-5 -0.004244432344871652 0.999920238883262 0.004244432344871652 0.999920238883262 0.004244432344871652 7.976111673820693E-5 -0.004244432344871652
5378.221112414543 7.547744743895886E-5 -0.004059995916988684 0.9999245225525609 0.004059995916988684 0.9999245225525609 0.004059995916988684 7.547744743895886E-5 -0.004059995916988684
5624.501427482224 7.146948614347577E-5 -0.003883538201994596 0.9999285305138564 0.003883538201994596 0.9999285305138564 0.003883538201994596 7.146948614347577E-5 -0.003883538201994596
5882.059448007167 6.772151060393763E-5 -0.003714716574719672 0.9999322784893961 0.003714716574719672 0.9999322784893961 0.003714716574719672 6.772151060393763E-5 -0.003714716574719672
6151.41160438433 6.421843497341372E-5 -0.0035532033342928187 0.9999357815650267 0.0035532033342928187 0.9999357815650267 0.0035532033342928187 6.421843497341372E-5 -0.0035532033342928187
6433.097975467465 6.094575584884982E-5 -0.0033986849833248073 0.9999390542441511 0.0033986849833248073 0.9999390542441511 0.0033986849833248073 6.094575584884982E-5 -0.0033986849833248073
6727.683371482931 5.788951447556496E-5 -0.003250861545193901 0.9999421104855244 0.003250861545193901 0.9999421104855244 0.003250861545193901 5.788951447556496E-5 -0.003250861545193901
7035.758466532445 5.503627202028179E-5 -0.003109445918813498 0.9999449637279799 0.003109445918813498 0.9999449637279799 0.003109445918813498 5.503627202028179E-5 -0.003109445918813498
7357.940982955574 5.237309505027724E-5 -0.002974163269801541 0.9999476269049498 0.002974163269801541 0.9999476269049498 0.002974163269801541 5.237309505027724E-5 -0.002974163269801541
7694.876929926739 4.9887548659674705E-5 -0.0028447504566091303 0.9999501124513402 0.0028447504566091303 0.9999501124513402 0.0028447504566091303 4.9887548659674705E-5 -0.0028447504566091303
8047.241898770236 4.7567695029229774E-5 -0.002720955489904463 0.9999524323049709 0.002720955489904463 0.9999524323049709 0.002720955489904463 4.7567695029229774E-5 -0.002720955489904463
8415.742417590522 4.5402095565691553E-5 -0.002602537023343893 0.9999545979044342 0.002602537023343893 0.9999545979044342 0.002602537023343893 4.5402095565691553E-5 -0.002602537023343893
8801.117367933934 4.337981511817666E-5 -0.0024892638737850957 0.9999566201848817 0.0024892638737850957 0.9999566201848817 0.0024892638737850957 4.337981511817666E-5 -0.0024892638737850957
9204.139466322391 4.1490427094464935E-5 -0.002380914568994373 0.9999585095729056 0.002380914568994373 0.9999585095729056 0.002380914568994373 4.1490427094464935E-5 -0.002380914568994373
9625.61681362972 3.9724018587490015E-5 -0.0022772769209562405 0.9999602759814123 0.0022772769209562405 0.9999602759814123 0.0022772769209562405 3.9724018587490015E-5 -0.0022772769209562405
10066.394515407255 3.807119486422644E-5 -0.002178147622992431 0.9999619288051357 0.002178147622992431 0.9999619288051357 0.002178147622992431 3.807119486422644E-5 -0.002178147622992431
10527.356376407623 3.6523082762630634E-5 -0.002083331869024212 0.9999634769172374 0.002083331869024212 0.9999634769172374 0.002083331869024212 3.6523082762630634E-5 -0.002083331869024212
11009.426672704432 3.50713326878258E-5 -0.0019926429934524616 0.999964928667312 0.0019926429934524616 0.999964928667312 0.0019926429934524616 3.50713326878258E-5 -0.0019926429934524616
11513.572004961125 3.370811899974254E-5 -0.0019059021302720589 0.9999662918810002 0.0019059021302720589 0.9999662918810002 0.0019059021302720589 3.370811899974254E-5 -0.0019059021302720589
