!Generated from: C:\Users\nkfzm\OneDrive - University of Missouri\Desktop\Research\PowerSI\Board 7.1\b7_1.spd
! Port1_ic_port_1::pwr
! Port2_decap_port_1::pwr
!
!Layout Workbench Version: 24.1.0.10141.541387   000
!Computer Host Name: RS29JQCX3
!
!TouchstoneFormatFlag = 1
! GNDNET gnd
! NETSLIST 
!
#	Hz	Z	RI	R	1
10000	0.0624984200507023	-103351.763959854	0.059920955146589	-103351.764070135	0.0599209551465835	-103351.764070135	0.0624971913149835	-103351.763959911
13335.2143216332	-0.0207469701358431	-77503.040384492	-0.0233236088147293	-77503.0405318362	-0.0233236088147348	-77503.0405318363	-0.0207481664652398	-77503.0403846478
17782.7941003892	-0.00470542413067432	-58119.0095475384	-0.00728294531253115	-58119.0097437835	-0.0072829453125367	-58119.0097437835	-0.00470664159319956	-58119.0095476676
23713.7370566166	0.00299494065574557	-43583.0763261612	0.000416259870797409	-43583.0765876658	0.000416259870800184	-43583.0765876658	0.00299371079216515	-43583.0763262913
31622.7766016838	0.00575928959429817	-32682.6857411726	0.00317906166190374	-32682.6860897696	0.00317906166188986	-32682.6860897696	0.00575805405973184	-32682.685741331
42169.6503428582	0.00543924036237875	-24508.5571972651	0.00285687904648391	-24508.5576621004	0.00285687904648946	-24508.5576621004	0.00543800357565849	-24508.5571974808
56234.1325190349	0.00316045287045985	-18378.8302611535	0.000574941368430837	-18378.8308811283	0.000574941368430837	-18378.8308811283	0.00315921582020318	-18378.8302614579
74989.4209332456	0.000119244452198575	-13782.1834048117	-0.00247151891357711	-13782.1842317613	-0.00247151891356878	-13782.1842317613	0.000118002919555216	-13782.1834052366
100000	-0.00137850596194089	-10335.1803322406	-0.00397955500391345	-10335.1814348425	-0.00397955500391067	-10335.1814348425	-0.00137976126851902	-10335.1803328093
133352.143216332	0.00165076859704183	-7750.2872142309	-0.000972958163275583	-7750.28868250404	-0.000972958163278359	-7750.28868250403	0.00164949149001892	-7750.28721495324
177827.941003892	0.00483024943052912	-5811.89208906426	0.00216092352848252	-5811.89404237619	0.00216092352848252	-5811.89404237619	0.00482893261564421	-5811.89208999435
237137.370566166	0.00191207928229298	-4358.3055005571	-0.000810927207725576	-4358.30810306511	-0.000810927207728351	-4358.30810306511	0.00191069294213086	-4358.30550183638
316227.766016838	0.00202774721626831	-3268.26702324274	-0.000720859958247555	-3268.2704895095	-0.000720859958250331	-3268.2704895095	0.00202634435982618	-3268.26702495334
421696.503428582	0.00198924680941404	-2450.85302832829	-0.000770370013511434	-2450.85764588062	-0.00077037001351421	-2450.85764588062	0.00198785017512804	-2450.85303062014
562341.325190349	0.00198950216905025	-1837.87849405148	-0.00078620486762826	-1837.88464313327	-0.000786204867625484	-1837.88464313327	0.00198811027949941	-1837.87849711894
749894.209332456	0.00199264863560977	-1378.21186117921	-0.000805437590056801	-1378.22004643539	-0.000805437590054026	-1378.22004643539	0.00199125989028548	-1378.21186528178
1000000	0.00201391451859212	-1033.50959172354	-0.000812973554834007	-1033.52048721997	-0.000812973554839558	-1033.52048721997	0.00201252544340669	-1033.50959720404
1500000	0.00207953146861839	-688.999728978614	-0.000804640699098025	-689.016033761731	-0.000804640699098025	-689.016033761731	0.00207813523933897	-688.999737210414
2000000	0.00213622677327496	-516.742826649673	-0.000808953753109187	-516.764532652904	-0.000808953753095309	-516.764532652904	0.00213481711436592	-516.742837631284
2500000	0.00219162176799681	-413.387107639459	-0.000820333045720156	-413.414208263312	-0.000820333045714605	-413.414208263312	0.00219019316010094	-413.38712136941
3000000	0.00224998496934636	-344.481980663559	-0.000835182029321202	-344.514469718529	-0.000835182029321202	-344.514469718529	0.00224853235999412	-344.481997139982
3500000	0.00231239127284899	-295.262907761774	-0.000852540264673074	-295.300779074339	-0.000852540264667523	-295.300779074339	0.00231090998260575	-295.26292698245
4000000	0.00237893766947828	-258.347620384399	-0.000872150837449848	-258.390867634919	-0.000872150837463725	-258.390867634919	0.00237742335986446	-258.347642346808
4500000	0.00244943196404668	-229.634858393919	-0.000893889558842287	-229.683475058423	-0.00089388955883396	-229.683475058423	0.00244788063185064	-229.63488309528
5000000	0.0025235861457612	-206.663865779446	-0.000917630015709325	-206.717845124474	-0.000917630015698223	-206.717845124474	0.00252199412691112	-206.663893216758
5500000	0.00260107286095546	-187.868706925775	-0.00094322137378644	-187.928042032586	-0.00094322137378644	-187.928042032586	0.00259943683536268	-187.868737095855
6000000	0.00268154509611984	-172.205424758814	-0.000970492102822518	-172.270108564372	-0.000970492102825293	-172.270108564372	0.00267986209000481	-172.205457658336
6500000	0.0027646463409553	-158.95127975078	-0.000999257728637182	-159.021305097963	-0.000999257728648284	-159.021305097963	0.002762913725321	-158.951315376315
7000000	0.00285001838219168	-147.590029353667	-0.00102932771330055	-147.665389045713	-0.00102932771330333	-147.665389045713	0.00284823386699495	-147.590067701721
7500000	0.0029373083533818	-137.743095660843	-0.0010605107821221	-137.823782516544	-0.0010605107821221	-137.823782516544	0.00293546997787997	-137.743136727889
8000000	0.00302617524049198	-129.126545196978	-0.00109261889233159	-129.212552104145	-0.00109261889232604	-129.212552104145	0.00302428136014776	-129.12658897949
8500000	0.00311629579179129	-121.523252312782	-0.00112547008248864	-121.614572278311	-0.00112547008248032	-121.614572278311	0.00311434506250208	-121.523298807263
9000000	0.00320736985419678	-114.764341449042	-0.00115889032167582	-114.860967644639	-0.00115889032166194	-114.860967644639	0.00320536121462822	-114.764390652048
9500000	0.0032991252992165	-108.716489738484	-0.00119271436056778	-108.818415541836	-0.00119271436055668	-108.818415541836	0.00329705795186763	-108.716541646645
10000000	0.00339132284217225	-103.273038825923	-0.00122678548255817	-103.380257857955	-0.00122678548256649	-103.380257857955	0.00338919623387168	-103.273093435959
11000000	0.0035762817230528	-93.8696677698074	-0.00129507443786536	-93.9874552724038	-0.00129507443786814	-93.9874552724038	0.00357403581347782	-93.8697277741773
12000000	0.00376115488872619	-86.0322472010569	-0.00136260004380273	-86.1605815422432	-0.00136260004380273	-86.1605815422432	0.00375878991903389	-86.0323125879526
13000000	0.0039448091250005	-79.3994024370593	-0.00142864074996196	-79.5382659238874	-0.00142864074995641	-79.5382659238874	0.00394232655319404	-79.3994731954247
14000000	0.00411864385264915	-73.7130060171424	-0.00149744337568092	-73.8623855174901	-0.00149744337567814	-73.8623855174901	0.00411604535696108	-73.7130821365838
15000000	0.00428830612876907	-68.7838175820324	-0.00156297742383016	-68.9436743989962	-0.00156297742382738	-68.9436743989962	0.00428559412301022	-68.7838990586525
16000000	0.00442964565832704	-64.4698025545712	-0.00162718558270047	-64.6401378151658	-0.00162718558270047	-64.6401378151658	0.00442681971023762	-64.4698893782283
17000000	0.00459147113826552	-60.6624231240995	-0.00168837247912779	-60.843224485595	-0.00168837247912224	-60.843224485595	0.00458853876632026	-60.6625152887268
18000000	0.00474827604031169	-57.2772398622469	-0.0017475880381923	-57.4684967571978	-0.00174758803818675	-57.4684967571978	0.00474524084401462	-57.2773373625313
19000000	0.00489971256803223	-54.2475899325478	-0.0018047653337655	-54.4492941809399	-0.0018047653337655	-54.4492941809399	0.00489657808009358	-54.2476927638478
20000000	0.00504598187701655	-51.5201433259892	-0.00185995154819985	-51.7322880221585	-0.0018599515482054	-51.7322880221585	0.00504275157676704	-51.5202514843687
22000000	0.00532403447459362	-46.8070216527505	-0.00196469992993498	-47.0400308461624	-0.00196469992993498	-47.0400308461624	0.00532062250867826	-46.8071404558552
24000000	0.0055845640629909	-42.8768802692274	-0.00206262233320154	-43.1307381472335	-0.00206262233319876	-43.1307381472335	0.00558098259076378	-42.8770097076196
26000000	0.00582973848085866	-39.5490302502766	-0.00215455996515901	-39.8237267992835	-0.00215455996515623	-39.8237267992835	0.00582599814715201	-39.5491703173592
28000000	0.00606162799992316	-36.6944079275582	-0.00224133439705454	-36.989937537072	-0.00224133439704899	-36.989937537072	0.00605773795143427	-36.6945586187606
30000000	0.00628211733594841	-34.2183665710309	-0.00232370668127035	-34.5347269517553	-0.00232370668126758	-34.5347269517553	0.00627808535654806	-34.2185278832208
32000000	0.00649286290060613	-32.0499211397381	-0.00240235408973111	-32.3871125112905	-0.00240235408973111	-32.3871125112905	0.00648869559028709	-32.0500930708056
34000000	0.00669528272657094	-30.134788973919	-0.0024778600389519	-30.4928134699682	-0.00247786003894912	-30.4928134699682	0.00669098568497895	-30.1349715224892
36000000	0.0068905668714786	-28.4307502400289	-0.00255071371451365	-28.8096114838571	-0.00255071371451088	-28.8096114838571	0.00688614486723527	-28.4309434052642
38000000	0.00707969929333585	-26.9044734898453	-0.00262131642426722	-27.3041763005273	-0.00262131642426444	-27.3041763005273	0.00707515641200085	-26.9046772713126
40000000	0.00726348506132901	-25.5292935482263	-0.00268999212373333	-25.9498437445524	-0.00268999212373056	-25.9498437445524	0.00725882483069706	-25.529507945807
42000000	0.00744257890709782	-24.2836242894495	-0.00275700000930412	-24.7250285650134	-0.00275700000930551	-24.7250285650134	0.00743780440130293	-24.2838493032808
44000000	0.00761751264919119	-23.1498042937793	-0.00282254757108108	-23.6120701422205	-0.00282254757107969	-23.6120701422205	0.00761262657412443	-23.1500399242154
46000000	0.00778872009391945	-22.1132436389585	-0.00288680298751037	-22.5963793131781	-0.00288680298751037	-22.5963793131781	0.00778372485703838	-22.1134898865461
48000000	0.00795655875137496	-21.1617839959355	-0.00294990617582536	-21.6657984891691	-0.00294990617582536	-21.6657984891691	0.0079514565181682	-21.1620408613991
50000000	0.00812132819056344	-20.2852123036565	-0.00301197816100912	-20.8101153436097	-0.00301197816101051	-20.8101153436097	0.00811612093035985	-20.2854797878897
52000000	0.00828326910542743	-19.4748866846727	-0.0030731135463688	-20.0206887109765	-0.00307311354636602	-20.0206887109765	0.00827795862685665	-19.4751647887366
54000000	0.00844259859911767	-18.723445496893	-0.00313339061737	-19.2901576548924	-0.00313339061736723	-19.2901576548924	0.00843718657250192	-18.7237342220116
56000000	0.00859949025671242	-18.0245786924367	-0.00319287791990946	-18.6122128342522	-0.00319287791990946	-18.6122128342522	0.00859397824033437	-18.0248780399987
58000000	0.00875409427777557	-17.3728465189407	-0.00325163359338604	-17.9814152035351	-0.00325163359338465	-17.9814152035351	0.00874848373445952	-17.3731564905
60000000	0.00890654216855885	-16.7635344700452	-0.00330970782496942	-17.393050963749	-0.00330970782496942	-17.393050963749	0.00890083447867007	-16.7638550673216
62000000	0.00905695046492933	-16.1925363102043	-0.00336714469582333	-16.8430145872632	-0.00336714469582056	-16.8430145872632	0.00905114693651177	-16.1928675350835
64000000	0.00920542367135319	-15.6562590324974	-0.0034239835675437	-16.3277137754143	-0.00342398356754509	-16.3277137754143	0.00919952554824105	-15.6566008870315
66000000	0.00935205657111582	-15.1515450969394	-0.00348026012212399	-15.8439916965088	-0.00348026012212538	-15.8439916965088	0.00934606503915497	-15.1518975833467
68000000	0.00949693603493479	-14.6756083914997	-0.00353600714096819	-15.389062946518	-0.00353600714096819	-15.389062946518	0.00949085222709672	-14.6759715121641
70000000	0.00964014243252792	-14.2259811712587	-0.0035912550881298	-14.9604604879386	-0.0035912550881298	-14.9604604879386	0.00963396743297179	-14.2263549287294
72000000	0.00978175073110196	-13.8004698410435	-0.00364603254666904	-14.5559914321872	-0.00364603254666973	-14.5559914321872	0.00977548557841434	-13.8008542380338
74000000	0.00992183134834387	-13.3971179084341	-0.00370036654510075	-14.1736999924327	-0.00370036654509937	-14.1736999924327	0.00991547703833237	-13.3975129478205
76000000	0.0100604508142838	-13.014174786273	-0.00375428280184331	-13.8118362860009	-0.00375428280184262	-13.8118362860009	0.0100540083022529	-13.0145804710936
78000000	0.0101976722847029	-12.6500693947582	-0.00380780590856639	-13.46882993643	-0.00380780590856639	-13.46882993643	0.0101911424873924	-12.6504857282121
80000000	0.0103335559402375	-12.3033877231894	-0.00386095946824858	-13.1432676352386	-0.00386095946824788	-13.1432676352386	0.0103269397375601	-12.3038147086345
82000000	0.0104681592977829	-11.9728536753239	-0.00391376619972503	-12.8338739873586	-0.00391376619972572	-12.8338739873586	0.0104614575343984	-11.973291316276
84000000	0.0106015374553084	-11.6573126510748	-0.00396624801766721	-12.5394950929554	-0.00396624801766721	-12.5394950929554	0.0105947509419474	-11.6577609512061
86000000	0.0107337432860198	-11.3557174190995	-0.00401842609457012	-12.2590844201764	-0.00401842609457082	-12.2590844201764	0.01072687280083	-11.356176382237
88000000	0.0108648275949211	-11.0671159158183	-0.00407032090976034	-11.9916906043601	-0.00407032090975964	-11.9916906043601	0.010857873884676	-11.0675855459425
90000000	0.010994839247061	-10.7906406711989	-0.00412195228903026	-11.7364468740363	-0.00412195228903095	-11.7364468740363	0.0109878030282347	-10.7911209724427
92000000	0.0111238252750293	-10.5254996137556	-0.00417333943768805	-11.4925618561576	-0.00417333943768805	-11.4925618561576	0.0111167072349615	-10.5259905904028
94000000	0.0112518309712643	-10.2709680493507	-0.0042245009689329	-11.2593115551479	-0.00422450096893359	-11.2593115551479	0.0112446317691653	-10.271469705835
96000000	0.0113788999693505	-10.0263816426193	-0.0042754549290723	-11.0360323345823	-0.00427545492907161	-11.0360323345823	0.0113716202373236	-10.026893983523
98000000	0.0115050743173653	-9.79113025778812	-0.00432621882055853	-10.8221147582669	-0.00432621882055784	-10.8221147582669	0.0114977146613744	-9.79165328784119
100000000	0.0116303945455497	-9.5646525385741	-0.00437680962359285	-10.6169981704005	-0.00437680962359216	-10.6169981704005	0.011622955546322	-9.56518626265344
102000000	0.0117548997298017	-9.34643112572245	-0.0044272438167979	-10.4201659133758	-0.0044272438167986	-10.4201659133758	0.011747381943835	-9.3469755488509
104000000	0.0118786275524412	-9.13598842634899	-0.00447753739729953	-10.2311410973837	-0.00447753739730022	-10.2311410973837	0.0118710315127425	-9.13654355369454
106000000	0.0120016143604629	-8.93288286220832	-0.00452770590038537	-10.0494828489389	-0.00452770590038537	-10.0494828489389	0.0119939405775239	-8.93344869908355
108000000	0.0121238952223424	-8.73670553480614	-0.00457776441892127	-9.87478297624691	-0.00457776441892127	-9.87478297624691	0.0121161441848552	-8.73728208666759
110000000	0.0122455039832634	-8.54707725430362	-0.00462772762254253	-9.70666299835681	-0.00462772762254184	-9.70666299835682	0.0122376761590076	-8.54766452675132
112000000	0.0123664733192023	-8.36364588674061	-0.00467760977665051	-9.54477149262804	-0.00467760977665016	-9.54477149262804	0.0123585691556929	-8.36424388551767
114000000	0.0124868347896569	-8.18608398048691	-0.00472742476120627	-9.38878172141898	-0.00472742476120558	-9.38878172141898	0.0124788547149507	-8.18669271147915
116000000	0.0126066188893905	-8.01408663822199	-0.00477718608928382	-9.23838950429838	-0.00477718608928417	-9.23838950429837	0.0125985633127493	-8.0147061074577
118000000	0.012725855098758	-7.84736960531334	-0.00482690692536099	-9.09331130664927	-0.00482690692536134	-9.09331130664927	0.0127177244113232	-7.84799981896309
120000000	0.0128445719328248	-7.68566754934744	-0.00487660010328531	-8.95328251941988	-0.00487660010328496	-8.95328251941988	0.012836366508253	-7.68630851372391
122000000	0.0129627969890894	-7.52873250887796	-0.00492627814388628	-8.81805590808616	-0.00492627814388663	-8.81805590808615	0.0129545171841616	-7.52938423043591
124000000	0.0130805569938188	-7.37633249228659	-0.0049759532721929	-8.68740021172169	-0.0049759532721929	-8.68740021172169	0.013072203149039	-7.37699497762284
126000000	0.0131978778468197	-7.22825021007725	-0.00502563743420698	-8.56109887549612	-0.00502563743420767	-8.56109887549612	0.0131894502869212	-7.22892346593069
128000000	0.0133147846647284	-7.08428192600976	-0.00507534231322868	-8.43894890200845	-0.00507534231322937	-8.43894890200845	0.0133062836992305	-7.08496595926152
130000000	0.013431301822649	-6.94423641427501	-0.00512507934567856	-8.32075980865763	-0.00512507934567787	-8.32075980865763	0.0134227277463889	-6.94493123194855
132000000	0.0135474529942847	-6.80793401146469	-0.0051748597364152	-8.20635267980398	-0.00517485973641589	-8.20635267980398	0.0135388060878313	-6.80863962072602
134000000	0.0136632611902908	-6.67520575343195	-0.00522469447353964	-8.0955593038182	-0.00522469447353999	-8.0955593038182	0.0136545417204287	-6.6759221615899
136000000	0.0137787487951492	-6.54589258830409	-0.0052745943426552	-7.98822138627929	-0.00527459434265451	-7.98822138627929	0.0137699570153322	-6.54661980281055
138000000	0.0138939376023498	-6.41984465792168	-0.00532456994060751	-7.88418983159648	-0.00532456994060786	-7.88418983159648	0.0138850737530633	-6.42058268637198
140000000	0.014008848847983	-6.29692064086155	-0.00537463168868678	-7.78332408621268	-0.00537463168868678	-7.78332408621268	0.0139999131571242	-6.2976694909948
142000000	0.014123503242764	-6.17698715097182	-0.00542478984530206	-7.68549153731819	-0.00542478984530206	-7.68549153731819	0.014114495926066	-6.17774683067134
144000000	0.01423792100257	-6.05991818602195	-0.00547505451814791	-7.59056696167788	-0.00547505451814791	-7.59056696167788	0.0142288422639022	-6.06068870331569
146000000	0.0143521218774246	-5.94559462166219	-0.00552543567584884	-7.49843201976661	-0.00552543567584884	-7.49843201976661	0.0143429719091457	-5.94637598472325
148000000	0.0144661251791883	-5.83390374640625	-0.00557594315912825	-7.40897479092705	-0.00557594315912825	-7.40897479092705	0.0144569041623934	-5.83469596355336
150000000	0.0145799498075982	-5.72473883380827	-0.00562658669149198	-7.32208934572121	-0.00562658669149198	-7.32208934572121	0.0145706579125257	-5.72554191350636
152000000	0.0146936142753462	-5.61799874840826	-0.00567737588945579	-7.23767535205015	-0.00567737588945596	-7.23767535205015	0.0146842516615574	-5.61881269926903
154000000	0.0148071367315962	-5.51358758237584	-0.00572832027233555	-7.15563771197208	-0.00572832027233555	-7.15563771197208	0.0147977035483032	-5.51441241315841
156000000	0.0149205349844557	-5.41141432009742	-0.00577942927161568	-7.07588622646404	-0.0057794292716155	-7.07588622646404	0.0149110313707295	-5.41225003970892
158000000	0.0150338265222339	-5.31139252823043	-0.0058307122399159	-6.99833528565124	-0.00583071223991573	-6.99833528565124	0.015024252607271	-5.31223914572672
160000000	0.0151470285336984	-5.21344006899632	-0.00588217845958628	-6.92290358227579	-0.00588217845958663	-6.92290358227579	0.0151373844370221	-5.21429759358265
162000000	0.0152601579271983	-5.11747883470371	-0.00593383715093449	-6.84951384639661	-0.00593383715093449	-6.84951384639661	0.0152504437588897	-5.1183472757355
164000000	0.0153732313489221	-5.02343450168934	-0.00598569748012645	-6.77809259950821	-0.00598569748012628	-6.77809259950821	0.0153634472098197	-5.02431386867291
166000000	0.0154862652002305	-4.93123630203902	-0.00603776856675769	-6.70856992644084	-0.00603776856675769	-6.70856992644085	0.0154764111821233	-4.93212660463238
168000000	0.0155992756541086	-4.84081681160661	-0.00609005949113763	-6.64087926356021	-0.00609005949113763	-6.64087926356021	0.015589351839896	-4.84171805962028
170000000	0.0157122786708404	-4.75211175298891	-0.00614257930128918	-6.57495720192474	-0.00614257930128936	-6.57495720192474	0.0157022851347301	-4.75302395638677
172000000	0.0158252900129604	-4.66505981223878	-0.00619533701969443	-6.51074330418296	-0.00619533701969443	-6.51074330418296	0.0158152268206379	-4.66598298113896
