!Generated from: C:\Users\nkfzm\OneDrive - University of Missouri\Desktop\Research\PowerDC\b8\b8.spd
! Port1_ic_port_1::pwr
! Port2_decap_port_1::pwr
!
!Layout Workbench Version: 24.1.0.10141.541387   000
!Computer Host Name: RS29JQCX3
!
!TouchstoneFormatFlag = 1
! GNDNET gnd
! NETSLIST 
!
#	Hz	Z	RI	R	1
10000	-35.4585784282176	-969990.895631223	-35.4601422383169	-969990.895680042	-35.4601422383169	-969990.895680042	-35.4585616420198	-969990.895631318
13335.2143216332	12.0354999389419	-727388.178842543	12.0339360324542	-727388.178907689	12.0339360324542	-727388.17890769	12.0355167355783	-727388.178842709
17782.7941003892	2.608210684583	-545464.976220577	2.60664673653045	-545464.976307379	2.60664673653045	-545464.976307379	2.60822747410017	-545464.976220702
23713.7370566166	-1.17947165073996	-409041.428267984	-1.18103569454813	-409041.428383688	-1.18103569454814	-409041.428383688	-1.17945486545455	-409041.42826809
31622.7766016838	-2.22018551194967	-306737.986084982	-2.22174975503935	-306737.986239243	-2.22174975503935	-306737.986239243	-2.22016872864893	-306737.986085086
42169.6503428582	-2.04450721851732	-230021.114034599	-2.046071849912	-230021.11424029	-2.04607184991199	-230021.11424029	-2.04449043554467	-230021.11403472
56234.1325190349	-1.44119965227272	-172491.518568337	-1.44276500539266	-172491.51884261	-1.44276500539267	-172491.51884261	-1.44118286858719	-172491.518568491
74989.4209332456	-0.798500808621513	-129350.380228652	-0.800067453263464	-129350.380594348	-0.800067453263459	-129350.380594348	-0.798484023864626	-129350.380228858
100000	-0.289858225880613	-96999.0760459296	-0.291427104129502	-96999.0765334344	-0.29142710412951	-96999.0765334344	-0.289841440425065	-96999.0760462056
133352.143216332	0.0261194745944937	-72739.0101175927	0.0245468615557631	-72739.0107672684	0.0245468615557687	-72739.0107672684	0.0261362596808673	-72739.0101179608
177827.941003892	0.150898104861144	-54546.5189721028	0.149319461583469	-54546.5198374842	0.149319461583466	-54546.5198374842	0.150914888021977	-54546.5189725908
237137.370566166	0.113729258295547	-40904.084416	0.11214122979441	-40904.0855680668	0.112141229794402	-40904.0855680668	0.113746038895812	-40904.084416649
316227.766016838	-0.00735136593572883	-30673.7954112427	-0.00895323415992799	-30673.7969445535	-0.00895323415992522	-30673.7969445535	-0.00733457634743695	-30673.7954121134
421696.503428582	0.073544959090141	-23002.173303964	0.0719266855891326	-23002.1753445228	0.0719266855891243	-23002.1753445228	0.0735617622478785	-23002.1733051065
562341.325190349	0.000764024947844111	-17249.1479999583	-0.000872660072526177	-17249.150707383	-0.000872660072528952	-17249.1507073831	0.0007808435817519	-17249.1480015083
749894.209332456	-0.00623074109837862	-12935.0539753691	-0.00789433321137234	-12935.0575643745	-0.00789433321137234	-12935.0575643745	-0.00621387839154219	-12935.0539774367
1000000	-0.000377243151944429	-9699.91725022529	-0.00207503425713185	-9699.92200925476	-0.00207503425713462	-9699.92200925476	-0.00036032772562089	-9699.91725298351
1500000	0.00116888329763087	-6466.60442939078	-0.000591011728307	-6466.6115150315	-0.000591011728301449	-6466.6115150315	0.00118594540960415	-6466.60443354406
2000000	0.00133037114108947	-4849.94962726832	-0.000488088865871483	-4849.95902924441	-0.000488088865860381	-4849.95902924441	0.00134764470745008	-4849.94963283089
2500000	0.00138732609941405	-3879.95660190852	-0.000489490628127753	-3879.96831326982	-0.0004894906281111	-3879.96831326982	0.00140487154765001	-3879.95660889926
3000000	0.00142677522007306	-3233.29409574343	-0.000509721758312764	-3233.30811086701	-0.000509721758309989	-3233.30811086701	0.00144464868513383	-3233.29410418625
3500000	0.00146808200016391	-2771.3918170837	-0.000530105339102693	-2771.40813092136	-0.00053010533911102	-2771.40813092136	0.00148633600794423	-2771.39182700671
4000000	0.00151514927990704	-2424.96467589216	-0.000547007161408319	-2424.98328365427	-0.000547007161402768	-2424.98328365427	0.00153383291535136	-2424.96468732701
4500000	0.00156686319711108	-2155.5209659734	-0.000561587084096926	-2155.54186298776	-0.000561587084102477	-2155.54186298776	0.00158602202503799	-2155.52097895476
5000000	0.00162109697882384	-1939.96566385074	-0.000575892087098517	-1939.98884550002	-0.000575892087090191	-1939.98884550002	0.00164077289320497	-1939.96567841585
5500000	0.00167611310416538	-1763.60193482371	-0.000591506267161312	-1763.62739652155	-0.000591506267161312	-1763.62739652155	0.00169634418777653	-1763.60195101192
6000000	0.00173089958769024	-1616.63188764607	-0.000609244868232661	-1616.659624833	-0.000609244868213232	-1616.659624833	0.00175172001584956	-1616.63190549838
6500000	0.00178511974339157	-1492.27236586538	-0.000629223356368724	-1492.30237401526	-0.000629223356354847	-1492.30237401526	0.00180655974512112	-1492.27238542398
7000000	0.00183894980456123	-1385.67825718526	-0.000651032173995536	-1385.71053181701	-0.000651032173973332	-1385.71053181701	0.00186103568309837	-1385.6782784931
7500000	0.00189290531614761	-1293.29647903431	-0.000673918807320151	-1293.33101572606	-0.000673918807325702	-1293.33101572606	0.00191565952660511	-1293.29650213469
8000000	0.00194768604505624	-1212.46221949317	-0.000696948780420925	-1212.49901389689	-0.000696948780415374	-1212.49901389689	0.00197112732369109	-1212.4622444293
8500000	0.00200404209988736	-1141.13768137908	-0.000719143632468833	-1141.17672923489	-0.000719143632466057	-1141.17672923489	0.00202818563891372	-1141.13770819377
9000000	0.00206265308954345	-1077.73791159787	-0.000739604471899913	-1077.77920874723	-0.000739604471888811	-1077.77920874723	0.00208751075068125	-1077.73794033321
9500000	0.00212401044387411	-1021.0116317141	-0.000757631228376354	-1021.05517411193	-0.000757631228387456	-1021.05517411193	0.00214959100366952	-1021.01166241115
10000000	0.00218829317215341	-969.957819298102	-0.000772847477056859	-970.003603023959	-0.000772847477054084	-970.003603023958	0.00221460259164086	-969.957851996709
11000000	0.00232398497817532	-881.773528461259	-0.000795762232061459	-881.82378363679	-0.000795762232050357	-881.82378363679	0.00235176017239491	-881.773565276792
12000000	0.00246009326832219	-808.286095269874	-0.000816602053629878	-808.340808023941	-0.000816602053607673	-808.340808023942	0.00248933141765995	-808.286136343956
13000000	0.00257694963870791	-746.103927236075	-0.000853759968000301	-746.163085343746	-0.000853759967989198	-746.163085343746	0.00260763482042015	-746.103972699023
14000000	0.00264777427727292	-692.804420618639	-0.000932714101745113	-692.868014331651	-0.000932714101739562	-692.86801433165	0.00267987931494573	-692.804470592701
15000000	0.00260355845222993	-646.610994050025	-0.00112004728248516	-646.679017276331	-0.00112004728247961	-646.679017276331	0.00263705039995898	-646.611048654101
16000000	0.00243225583736184	-606.191544862334	-0.00142127727749131	-606.263991076509	-0.00142127727751351	-606.263991076509	0.00246712276019967	-606.191604186353
17000000	0.00276842211786033	-570.527055650625	-0.0012074964993114	-570.603906437456	-0.0012074964993003	-570.603906437456	0.00280459271078948	-570.527119715666
18000000	0.00303661045153447	-538.824636609736	-0.00106762760575529	-538.905883022647	-0.00106762760576917	-538.905883022647	0.00307400743443098	-538.824705515901
19000000	0.00315871202710427	-510.459044165359	-0.00107356120337965	-510.544684573613	-0.00107356120338242	-510.544684573613	0.00319731360214071	-510.459117980118
20000000	0.00325386408444317	-484.929746048295	-0.00110293207426782	-485.019777531218	-0.00110293207427059	-485.019777531218	0.0032936376686693	-484.929824818529
22000000	0.00342065673594738	-440.832850211809	-0.00117341812754801	-440.931652934736	-0.00117341812754801	-440.931652934736	0.00346266006501783	-440.832939016541
24000000	0.00357407656492448	-404.084370957258	-0.00124252733357533	-404.19193166937	-0.00124252733357255	-404.19193166937	0.00361816074869459	-404.084469929838
26000000	0.00372284695626668	-372.988516529997	-0.0013032045262984	-373.10482471083	-0.00130320452630117	-373.10482471083	0.00376887923016767	-372.988625769685
28000000	0.00386800486433525	-346.334014441014	-0.00135614816572371	-346.459061913039	-0.00135614816572927	-346.459061913039	0.00391587124161374	-346.334134022615
30000000	0.00400864404124512	-323.232596982904	-0.00140387371445616	-323.36637729277	-0.00140387371445061	-323.36637729277	0.00405824783490383	-323.232726964718
32000000	0.00414411546906246	-303.018062038417	-0.00144843756827995	-303.160569950488	-0.00144843756826885	-303.160569950488	0.0041953748008805	-303.01820246766
34000000	0.00427436272953663	-285.180960232508	-0.00149108554775013	-285.332191359122	-0.00149108554776123	-285.332191359122	0.00432720803332509	-285.181111148892
36000000	0.00439975016861549	-269.325052885064	-0.00153243738881259	-269.485003427763	-0.00153243738882092	-269.485003427763	0.00445412198001871	-269.325214323166
38000000	0.00452084232022421	-255.137519913945	-0.00157273224851706	-255.306186487097	-0.00157273224851151	-255.306186487097	0.00457668941137856	-255.137691904785
40000000	0.004638242152466	-242.368105264908	-0.00161201914376241	-242.545484778487	-0.00161201914375964	-242.545484778487	0.00469551999233431	-242.368287836992
42000000	0.00475249368397379	-230.814220737308	-0.00165028252196719	-231.000310321387	-0.00165028252196164	-231.000310321387	0.00481116318139518	-230.814413917333
44000000	0.0048640322713317	-220.310112378165	-0.00168751769221986	-220.504909336392	-0.00168751769221709	-220.504909336392	0.00492405875427704	-220.310316191482
46000000	0.00497316566274997	-210.718853024466	-0.00172377227436182	-210.922354807417	-0.00172377227436737	-210.922354807417	0.0050345180509892	-210.719067495392
48000000	0.00508007324954152	-201.926336707489	-0.00175916612437654	-202.13854089939	-0.00175916612436822	-202.13854089939	0.00514272338382471	-201.926561859514
50000000	0.00518481520623837	-193.83671440111	-0.00179389824896126	-194.057618715346	-0.00179389824896681	-194.057618715346	0.0052487373041421	-193.836950257026
52000000	0.00528758177424371	-186.368883039929	-0.00182796494597182	-186.598485272713	-0.00182796494596349	-186.598485272713	0.0053527520460811	-186.369129621774
54000000	0.00538856985670411	-179.453754890093	-0.00186135891272754	-179.692052970996	-0.00186135891271921	-179.692052970996	0.00545496608107821	-179.454012219319
56000000	0.00548787416563556	-173.03211184976	-0.00189413328124666	-173.279103802638	-0.00189413328124111	-173.279103802638	0.00555547548395652	-173.032379947158
58000000	0.00558557981817365	-167.052903823136	-0.0019263297981853	-167.308587764516	-0.00192632979818252	-167.308587764516	0.00565436652925633	-167.053182708834
60000000	0.00568176355880412	-161.471887386542	-0.00195798207366926	-161.736261524269	-0.00195798207366371	-161.736261524269	0.00575171695782195	-161.472177080015
62000000	0.00577649489872933	-156.250527938434	-0.00198911791463308	-156.523590570291	-0.00198911791463308	-156.523590570291	0.00584759715054617	-156.2508284585
64000000	0.00586983713882494	-151.355107696265	-0.00201976098598011	-151.636857208423	-0.00201976098597179	-151.636857208423	0.00594207117831091	-151.355419061096
66000000	0.005961848265576	-146.755995875748	-0.00204993198048287	-147.04643074097	-0.00204993198048842	-147.04643074097	0.00603519771882055	-146.756318102873
68000000	0.00605258171363643	-142.427047662005	-0.00207964944045902	-142.726166437611	-0.00207964944045069	-142.726166437611	0.00612703083502364	-142.427380768322
70000000	0.00614208701215646	-138.345106214239	-0.00210893032221993	-138.65290753984	-0.0021089303222227	-138.65290753984	0.00621762063408859	-138.345450216028
72000000	0.00623041031849181	-134.489587669623	-0.00213779038645279	-134.806070264671	-0.00213779038646666	-134.806070264671	0.0063070138101029	-134.489942582563
74000000	0.00631759486136307	-130.84213344385	-0.00216624445912861	-131.167296105046	-0.00216624445912583	-131.167296105046	0.0063952540946266	-130.842499283037
76000000	0.00640368130354063	-127.386317431587	-0.00219430660570452	-127.720159030197	-0.00219430660569064	-127.720159030197	0.00648238262471734	-127.386694211553
78000000	0.00648870803636736	-124.107398253	-0.00222199024758341	-124.44991773212	-0.00222199024757508	-124.44991773212	0.00656843824139719	-124.107785987735
80000000	0.0065727114216263	-120.992108663288	-0.00224930823619074	-121.343305035096	-0.00224930823618796	-121.343305035096	0.00665345773463166	-120.992507366263
82000000	0.00665572598833319	-118.028475780322	-0.00227627290154964	-118.38834812335	-0.00227627290155519	-118.38834812335	0.0067374760424288	-118.028885464508
84000000	0.00673778459404917	-115.205666994024	-0.00230289608402212	-115.574214450487	-0.00230289608402212	-115.574214450487	0.00682052641388375	-115.20608767192
86000000	0.00681891855848216	-112.513857376765	-0.00232918915542002	-112.891079149953	-0.00232918915541447	-112.891079149953	0.00690264054404865	-112.514289060417
88000000	0.00689915777324634	-109.944115174133	-0.00235516303576377	-110.330010525894	-0.0023551630357721	-110.330010525895	0.00698384868486057	-109.944557875156
90000000	0.00697853079737742	-107.488302563596	-0.00238082820426533	-107.882870811917	-0.00238082820425978	-107.882870811917	0.00706417974124796	-107.488756293195
92000000	0.00705706493587255	-105.138989357664	-0.00240619471219006	-105.542229874362	-0.00240619471219006	-105.542229874362	0.00714366135061151	-105.139454126659
94000000	0.00713478631096387	-102.889377723672	-0.00243127219302641	-103.301289932196	-0.00243127219303196	-103.301289932196	0.00722231995439193	-102.889853542511
96000000	0.00721171992326963	-100.733236313562	-0.00245606987479274	-101.153819686911	-0.00245606987478719	-101.153819686911	0.00730018085986217	-100.733723192347
98000000	0.00728788970721927	-98.6648424594098	-0.00248059659273547	-99.0940965181664	-0.00248059659273825	-99.0940965181664	0.00737726829604102	-98.6653404079123
100000000	0.00736331858267603	-96.6789313054753	-0.00250486080194401	-97.1168556159511	-0.00250486080193568	-97.1168556159511	0.00745360546557383	-96.6794403331514
102000000	0.00743802850171893	-94.7706509247093	-0.00252887059143392	-95.2172450972021	-0.00252887059143392	-95.2172450972021	0.00752921459210021	-94.7711710407186
104000000	0.00751204049275755	-92.9355226141198	-0.00255263369879077	-93.3907863012774	-0.00255263369877967	-93.3907863012774	0.00760411696458518	-92.9360538273401
106000000	0.0075853747024679	-91.169405684997	-0.00257615752463081	-91.6333385802827	-0.00257615752462526	-91.6333385802826	0.007678332979838	-91.1699480040385
108000000	0.00765805043551337	-89.46846616533	-0.00259944914770827	-89.9410680015856	-0.00259944914771104	-89.9410680015856	0.00775188218242184	-89.4690195985493
110000000	0.0077300861927615	-87.8291489165012	-0.00262251533963143	-88.3104194646024	-0.00262251533963143	-88.3104194646024	0.00782478330339509	-87.8297134720138
112000000	0.00780149970766586	-86.2481527374749	-0.00264536257983117	-86.7380918050722	-0.00264536257982562	-86.7380918050722	0.00789705429696252	-86.2487284231669
114000000	0.0078723079814047	-84.7224080895935	-0.00266799706994114	-85.2210155199355	-0.00266799706993281	-85.2210155199354	0.00796871237615515	-84.7229949131334
116000000	0.00794252731673439	-83.2490571257035	-0.00269042474805026	-83.7563327965351	-0.00269042474804748	-83.7563327965351	0.00803977404689737	-83.2496550945522
118000000	0.00801217335076043	-81.825435750215	-0.00271265130202258	-82.3413795727476	-0.00271265130202258	-82.3413795727476	0.00811025514117769	-81.8260448716357
120000000	0.00808126108579887	-80.4490574731537	-0.00273468218313366	-80.9736693911006	-0.00273468218313366	-80.9736693911006	0.0081801708483209	-80.4496777542211
122000000	0.00814980491983808	-79.1175988523376	-0.002756522618233	-79.6508788410109	-0.00275652261823855	-79.6508788410109	0.00824953574577181	-79.1182302999463
124000000	0.00821781867527682	-77.8288863443729	-0.00277817762183996	-78.3708344098379	-0.00277817762184274	-78.3708344098379	0.00831836382823581	-77.8295289652461
126000000	0.00828531562679924	-76.5808844079371	-0.00279965200749022	-77.1315005862185	-0.00279965200749577	-77.1315005862185	0.00838666853568426	-76.5815382086328
128000000	0.00835230852764546	-75.3716847223755	-0.00282095039851604	-75.9309690787138	-0.00282095039852159	-75.9309690787138	0.00845446278027184	-75.372349709295
130000000	0.00841880963515229	-74.1994964015063	-0.00284207723819652	-74.7674490296582	-0.00284207723819374	-74.7674490296582	0.00852175897186336	-74.2001725808996
132000000	0.00848483073483952	-73.0626370970764	-0.0028630367993332	-73.6392581186586	-0.00286303679932487	-73.6392581186586	0.00858856904267791	-73.0633244750493
134000000	0.00855038316361356	-71.9595248989247	-0.00288383319324015	-72.5448144627954	-0.0028838331932457	-72.5448144627954	0.00865490447062578	-71.9602234814441
136000000	0.00861547783178318	-70.8886709498344	-0.00290447037806785	-71.4826292315113	-0.0029044703780623	-71.4826292315113	0.00872077630159895	-70.8893807427339
138000000	0.00868012524359862	-69.8486727025726	-0.00292495216709376	-70.4512999036848	-0.00292495216709654	-70.4512999036848	0.0087861951703988	-69.8493937115576
140000000	0.00874433551762976	-68.8382077548973	-0.00294528223572788	-69.4495041026674	-0.00294528223572788	-69.4495041026674	0.00885117132120861	-68.8389399855499
142000000	0.00880811840514861	-67.85602820555	-0.00296546412885124	-68.4759939523051	-0.00296546412885124	-68.4759939523051	0.00891571462631746	-67.8567716633336
144000000	0.00887148330828702	-66.9009554805809	-0.00298550126714148	-67.5295909032909	-0.00298550126713593	-67.5295909032909	0.00897983460445839	-66.9017101708444
146000000	0.0089344392967261	-65.9718755849085	-0.00300539695337332	-66.6091809847483	-0.00300539695337887	-66.6091809847483	0.00904354043778643	-65.9726415128906
148000000	0.00899699512397767	-65.0677347388869	-0.00302515437798911	-65.7137104408226	-0.00302515437799467	-65.7137104408226	0.00910684098820447	-65.0685119097197
150000000	0.00905915924224454	-64.1875353639486	-0.00304477662473601	-64.842181716344	-0.00304477662473046	-64.842181716344	0.00916974481256216	-64.1883237826613
152000000	0.00912093981692563	-63.3303323851682	-0.00306426667555093	-63.9936497594128	-0.00306426667554816	-63.9936497594128	0.00923226017734702	-63.3311320566908
154000000	0.00918234474016622	-62.4952298219401	-0.00308362741537338	-63.1672186120945	-0.00308362741537338	-63.1672186120945	0.00929439507230123	-62.4960407511064
156000000	0.00924338164362548	-61.68137764091	-0.00310286163661411	-62.3620382633695	-0.00310286163661411	-62.3620382633695	0.00935615722341687	-61.682199832461
158000000	0.00930405791052524	-60.8879688479249	-0.00312197204344056	-61.5773017410991	-0.00312197204343778	-61.5773017410991	0.00941755410513168	-60.8888023065114
160000000	0.00936438068704359	-60.1142367980862	-0.00314096125574037	-60.8122424220942	-0.00314096125574592	-60.8122424220942	0.00947859295188369	-60.1150815282722
162000000	0.00942435689340049	-59.3594527050589	-0.00315983181257695	-60.0661315414382	-0.00315983181257418	-60.0661315414382	0.00953928076928012	-59.3603087113236
164000000	0.00948399323350835	-58.6229233326253	-0.00317858617620848	-59.338275884055	-0.00317858617620848	-59.338275884055	0.0095996243439922	-58.6237906193663
166000000	0.00954329620510841	-57.9039888531148	-0.0031972267350272	-58.6280156431508	-0.0031972267350272	-58.6280156431508	0.00965963025383876	-57.9048674246504
168000000	0.00960227210869413	-57.202020858803	-0.00321575580674027	-57.9347224316255	-0.00321575580674027	-57.9347224316255	0.00971930487697892	-57.2029107193743
170000000	0.00966092705589061	-56.5164205136825	-0.00323417564157269	-57.257797433854	-0.00323417564157547	-57.257797433854	0.00977865440038861	-56.5173216674559
172000000	0.00971926697794223	-55.8466168341791	-0.00325248842482362	-56.596669686414	-0.00325248842482917	-56.596669686414	0.00983768482827607	-55.8475292852484
