!Generated from: C:\Users\nkfzm\OneDrive - University of Missouri\Desktop\Research\PowerSI\Board 3 - GPG\Board 3 - GPG - simple.spd
! Port1_ic_port::pwr
! Port2_decap_port1_1::pwr
! Port3_decap_port2_1::pwr
!
!Layout Workbench Version: 24.1.0.10141.541387   000
!Computer Host Name: RS29JQCX3
!
!TouchstoneFormatFlag = 1
! GNDNET gnd
! NETSLIST 
!
#	Hz	Z	RI	R	1
10000	-0.0916684052794714	-43114.2764499063	-0.093121868560489	-43114.2764928177	-0.0931219839374609	-43114.2764928163
			-0.0931218685604779	-43114.2764928177	-0.091851009989169	-43114.2764362143	-0.092673284004402	-43114.2764728497
			-0.0931219839374581	-43114.2764928163	-0.0926732840044103	-43114.2764728497	-0.0918499408974871	-43114.2764361503
13335.2143216332	-0.0725125256257314	-32331.2071472361	-0.0740026820829964	-32331.2072153469	-0.0739923978151341	-32331.2072352897
			-0.0740026820829964	-32331.2072153469	-0.0727687449500941	-32331.2071508494	-0.0735807253196608	-32331.2072196482
			-0.0739923978151258	-32331.2072352897	-0.0735807253196552	-32331.2072196482	-0.0727469387569624	-32331.2071906853
17782.7941003892	0.0416024698166789	-24244.9414298916	0.0401485999145579	-24244.9415061636	0.0401484845735017	-24244.9415061616
			0.0401485999145385	-24244.9415061636	0.0414197038620973	-24244.9414055131	0.0405971909291147	-24244.9414706565
			0.0401484845735017	-24244.9415061616	0.0405971909291314	-24244.9414706565	0.0414207720767057	-24244.9414054
23713.7370566166	0.0103240112083763	-18181.1414551317	0.00886968767913887	-18181.1415567877	0.00886957240339159	-18181.1415567848
			0.0088696876791694	-18181.1415567877	0.0101410707383648	-18181.1414225758	0.00931828606791363	-18181.1415094384
			0.00886957240338881	-18181.1415567848	0.00931828606788032	-18181.1415094384	0.010142138006014	-18181.1414224247
31622.7766016838	0.0109121611069657	-13633.9485102918	0.00950412120956645	-13633.9486720732	0.00950219460387203	-13633.9486683751
			0.00950412120955813	-13633.9486720732	0.0108230748485039	-13633.9485201052	0.00999802353047197	-13633.9486322012
			0.00950219460385537	-13633.9486683751	0.00999802353046919	-13633.9486322012	0.0108205445048082	-13633.9485125017
42169.6503428582	0.004623533180248	-10224.0162429032	0.0032075484964228	-10224.016418515	0.00320579722488112	-10224.0164174663
			0.00320754849642557	-10224.016418515	0.00452111764721042	-10224.0161760134	0.00369539241838468	-10224.0163293251
			0.00320579722487835	-10224.0164174663	0.0036953924183819	-10224.0163293251	0.00451891752340228	-10224.0161736406
56234.1325190349	0.000601170268441087	-7666.92375717052	-0.000857512905103053	-7666.92399711661	-0.000857627515632453	-7666.92399710982
			-0.000857512905108604	-7666.92399711662	0.000416807403899599	-7666.92367903235	-0.000408836384471756	-7666.9238848302
			-0.00085762751564078	-7666.92399710983	-0.000408836384466205	-7666.9238848302	0.00041786486051909	-7666.92367867113
74989.4209332456	0.00063817776621844	-5749.37913763729	-0.00083431706672521	-5749.37946219123	-0.000834016700540507	-5749.3794622222
			-0.00083431706672521	-5749.37946219123	0.000430844029580824	-5749.37904161548	-0.000397160666107399	-5749.37931592721
			-0.000834016700532181	-5749.3794622222	-0.000397160666099072	-5749.37931592721	0.000432721217460963	-5749.37904121587
100000	0.00105818286492698	-4311.42722263816	-0.000404179748095257	-4311.42765275197	-0.000404291653494093	-4311.42765274141
			-0.000404179748103584	-4311.42765275197	0.000877813700475572	-4311.42708799375	4.4750543895522e-05	-4311.42745310387
			-0.000404291653494093	-4311.42765274141	4.47505439010731e-05	-4311.42745310387	0.00087884887435552	-4311.42708733804
133352.143216332	0.000764890809401564	-3233.11442361769	-0.000700018894617127	-3233.11499958308	-0.000700127983951915	-3233.11499957063
			-0.000700018894628229	-3233.11499958308	0.000590545963324862	-3233.11424776154	-0.000250791171138576	-3233.11473337322
			-0.000700127983957466	-3233.11499957063	-0.0002507911711358	-3233.11473337322	0.000591561426091514	-3233.11424686876
177827.941003892	0.00114533266530326	-2424.49358799369	-0.000324203695278857	-2424.49436127428	-0.000324308586335809	-2424.49436126002
			-0.000324203695287184	-2424.49436127428	0.000981166457866833	-2424.49336165513	0.000125545155166273	-2424.49400631187
			-0.000324308586344135	-2424.49436126002	0.000125545155160722	-2424.49400631187	0.000982159771578672	-2424.49336042637
237137.370566166	0.00127579781839804	-1818.11331244229	-0.000204921557891979	-1818.11435388723	-0.000205020307150749	-1818.11435387184
			-0.000204921557894755	-1818.11435388723	0.00112549850054267	-1818.11302746747	0.00024574118905607	-1818.11388058994
			-0.000205020307147974	-1818.11435387184	0.000245741189050519	-1818.11388058994	0.00112648583141806	-1818.11302575688
316227.766016838	0.00125573715442084	-1363.39218996866	-0.000238044450215358	-1363.39358229178	-0.000238142902078686	-1363.39358227074
			-0.000238044450223684	-1363.39358229178	0.00109476371364103	-1363.39180326024	0.000215295331104648	-1363.39295274705
			-0.000238142902078686	-1363.39358227074	0.000215295331112975	-1363.39295274705	0.00109580585358204	-1363.39180127799
421696.503428582	0.00126478008346254	-1022.39929470476	-0.00024639740738297	-1022.40114582349	-0.000246495647249212	-1022.40114579518
			-0.000246397407374643	-1022.40114582349	0.00109334404864159	-1022.39876612738	0.000210829161634285	-1022.40030869891
			-0.000246495647232559	-1022.40114579518	0.000210829161639836	-1022.40030869891	0.00109441397185273	-1022.39876372207
562341.325190349	0.00125124230616613	-766.690469538728	-0.000280642313499335	-766.692925452483	-0.000280746061401271	-766.692925370324
			-0.000280642313491009	-766.692925452483	0.00107212522192646	-766.689751733865	0.000181549571423578	-766.691813906172
			-0.00028074606139572	-766.692925370324	0.000181549571423578	-766.691813906172	0.0010732024362331	-766.689748615466
749894.209332456	0.00130139093840465	-574.935686723611	-0.000252671262795934	-574.938940123153	-0.000252769725961333	-574.938940073154
			-0.000252671262793158	-574.938940123153	0.00111977412995123	-574.934712960739	0.000217153971895923	-574.937461702838
			-0.000252769725955782	-574.938940073154	0.000217153971901474	-574.937461702838	0.00112086909699882	-574.934709049696
1000000	0.00132702724256195	-431.139537494851	-0.000251435340931083	-431.143850824184	-0.000251539304232939	-431.143850781321
			-0.00025143534093941	-431.143850824184	0.00114640328781335	-431.138228018943	0.000227746827252684	-431.141886343528
			-0.000251539304230164	-431.143850781321	0.000227746827263786	-431.141886343528	0.00114749503365985	-431.138222946918
1500000	0.00135688218869667	-287.423668224815	-0.000263745898140821	-287.430096091644	-0.00026385129657247	-287.430096001529
			-0.000263745898143597	-287.430096091644	0.00118050909757028	-287.421697223277	0.000231237890349623	-287.42716444264
			-0.000263851296578022	-287.430096001529	0.000231237890349623	-287.42716444264	0.00118161946023043	-287.421689674504
2000000	0.001389827829959	-215.564935005711	-0.000271078157126903	-215.573473779128	-0.000271181179856139	-215.5734736442
			-0.000271078157126903	-215.573473779128	0.0012179251588279	-215.562307260846	0.000238945087374653	-215.569577089428
			-0.000271181179850588	-215.5734736442	0.000238945087374653	-215.569577089428	0.00121906378892644	-215.562297224101
2500000	0.00142426599134271	-172.449060786659	-0.000278487407490147	-172.459707465215	-0.000278591031652176	-172.459707293362
			-0.000278487407490147	-172.459707465215	0.00125594354353498	-172.445778606345	0.000246967638053985	-172.454847230369
			-0.000278591031654951	-172.459707293362	0.000246967638045659	-172.454847230369	0.00125710654583777	-172.445766089961
3000000	0.0014606377651355	-143.704616531429	-0.00028678283460204	-143.717367993555	-0.000286889185624473	-143.717367787466
			-0.000286782834615917	-143.717367993555	0.0012946449532758	-143.700681202298	0.000254726830151153	-143.711545601137
			-0.000286889185632799	-143.717367787466	0.000254726830151153	-143.711545601137	0.00129583136652123	-143.7006662086
3500000	0.00149961354056483	-123.172418699777	-0.000295662411858855	-123.187271595661	-0.000295772311512121	-123.187271355544
			-0.000295662411864406	-123.187271595661	0.00133470589313844	-123.167830927113	0.00026259118123817	-123.180488367679
			-0.000295772311517672	-123.187271355544	0.000262591181235394	-123.180488367679	0.00133591781128484	-123.167813456157
4000000	0.00154144058681083	-107.77287589583	-0.000304895288152918	-107.789826682884	-0.00030500883282103	-107.789826408142
			-0.000304895288144591	-107.789826682884	0.00137648398261248	-107.767636043713	0.000270810458669057	-107.782083902105
			-0.000305008832812703	-107.789826408142	0.000270810458671833	-107.782083902105	0.00137772486435705	-107.76761609554
4500000	0.00158608025362938	-95.7951041906345	-0.000314391413019921	-95.8141491792799	-0.000314508403020941	-95.8141488691939
			-0.000314391413022697	-95.8141491792799	0.00142005480905372	-95.789212410728	0.000279465417621361	-95.8054481078825
			-0.000314508403029268	-95.8141488691939	0.00027946541761581	-95.8054481078825	0.00142132840004472	-95.7891899860301
5000000	0.00163335596580216	-86.2125733013213	-0.000324134461379688	-86.2337086896407	-0.000324254637057431	-86.2337083436021
			-0.000324134461376913	-86.2337086896406	0.00146533636992963	-86.2060295967934	0.000288542543352976	-86.2240505788024
			-0.000324254637054655	-86.2337083436021	0.000288542543358528	-86.2240505788024	0.00146664618489445	-86.2060046969573
5500000	0.00168303298553885	-78.3720367118432	-0.000334134491300486	-78.3952586110487	-0.00033425765151307	-78.3952582286153
			-0.00033413449129216	-78.3952586110487	0.00151217173504359	-78.3648409671868	0.000297987496863938	-78.3846447039063
			-0.00033425765151307	-78.3952582286153	0.000297987496852836	-78.3846447039063	0.00151352084976075	-78.3648135941607
6000000	0.00173485474140034	-71.8379967510354	-0.000344405276495041	-71.8633012061961	-0.000344531335694231	-71.8633007870784
			-0.000344405276486714	-71.8633012061961	0.0015603745928211	-71.8301487460601	0.000307732970916685	-71.851732736932
			-0.000344531335685905	-71.8633007870784	0.000307732970916685	-71.851732736932	0.00156176558213927	-71.8301189021993
6500000	0.00178855798466659	-66.3089550257681	-0.000354955611450714	-66.3363380349178	-0.000355084625619506	-66.3363375789433
			-0.00035495561145904	-66.3363380349178	0.00160975306758016	-66.3004544438779	0.000317711559147393	-66.3238162260933
			-0.000355084625619506	-66.3363375789433	0.00031771155915572	-66.3238162260933	0.00161118800411364	-66.3004221318129
7000000	0.00184387873151948	-61.569555527228	-0.00036578715007507	-61.5990130605642	-0.000365919330000408	-61.599012567635
			-0.000365787150072294	-61.5990130605642	0.00166012190162823	-61.5604019633289	0.000327861028961984	-61.5855391202659
			-0.000365919330003184	-61.599012567635	0.000327861028956433	-61.585539120266	0.00166160236702018	-61.5603671858635
7500000	0.0019005546473494	-57.4618704942109	-0.000376894873746481	-57.4933985142324	-0.000377030592937921	-57.4933979842837
			-0.000376894873740929	-57.4933985142324	0.00171130846214063	-57.452063465038	0.000338125822463287	-57.4789736342866
			-0.000377030592940697	-57.4933979842836	0.000338125822460511	-57.4789736342866	0.00171283555585044	-57.45202622507
8000000	0.00195832650067562	-53.8674540761603	-0.000388268313725182	-53.9010485592645	-0.000388408115906125	-53.9010479922228
			-0.000388268313725182	-53.9010485592645	0.00176315527002924	-53.8569930345834	0.000348456409182685	-53.8856739156451
			-0.000388408115900574	-53.9010479922228	0.000348456409188236	-53.8856739156451	0.00176472959825535	-53.856953335037
8500000	0.00201693991717655	-50.695729995178	-0.000399892845079353	-50.7313869553496	-0.000400037462683356	-50.7313863510923
			-0.000399892845084904	-50.7313869553496	0.00181551999910712	-50.6846143496504	0.000358806721126315	-50.7150637119716
			-0.000400037462683356	-50.7313863510923	0.000358806721131866	-50.7150637119716	0.00181714162854341	-50.6845721934198
9000000	0.00207614817170909	-47.8762499841676	-0.000411751333240229	-47.9139654998395	-0.000411901709898577	-47.9139648581419
			-0.000411751333237453	-47.9139654998395	0.00186827228309261	-47.864479124598	0.00036912865805927	-47.8966948172253
			-0.000411901709895801	-47.9139648581419	0.00036912865805927	-47.8966948172253	0.00186994065668744	-47.8644345144681
9500000	0.00213571609780361	-45.3533969246453	-0.00042382787223405	-45.3931671704413	-0.000423985202133159	-45.3931664909139
			-0.00042382787223405	-45.3931671704412	0.00192128458890162	-45.3409702563866	0.00037936127685323	-45.3749502216628
			-0.000423985202130384	-45.3931664909139	0.000379361276856005	-45.3749502216628	0.00192299838281951	-45.3409231949384
10000000	0.00219542343943835	-43.0826770384472	-0.000436118273525188	-43.1244983246907	-0.000436284043570101	-43.1244976066824
			-0.000436118273525188	-43.1244983246907	0.001974410680744	-43.0695940279967	0.000389410683862557	-43.1053363235461
			-0.000436284043570101	-43.1244976066823	0.000389410683865332	-43.1053363235461	0.00197616758286501	-43.0695445174391
11000000	0.00231439954931079	-39.1601100673378	-0.000461571157503449	-39.2060232016306	-0.000461759468156631	-39.2060224028575
			-0.000461571157503449	-39.2060232016305	0.00208002220400683	-39.1457134090248	0.00040823358228026	-39.1849751910287
			-0.000461759468153855	-39.2060224028575	0.00040823358228026	-39.1849751910287	0.00208185300243358	-39.1456590036933
12000000	0.00243096924947839	-35.8907981741065	-0.000489441933121393	-35.9407918637071	-0.000489659169575218	-35.9407909743412
			-0.000489441933124168	-35.9407918637071	0.00218194499850555	-35.8750892054733	0.000424138729265833	-35.9178646114515
			-0.000489659169575218	-35.9407909743412	0.000424138729268608	-35.9178646114515	0.00218382610711609	-35.8750298982303
13000000	0.00254633208717214	-33.1239943772767	-0.000516636507730261	-33.1780583450066	-0.000516867272284949	-33.1780573625341
			-0.000516636507733037	-33.1780583450066	0.00228092492435272	-33.1069738232951	0.00044111395393065	-33.1532551546218
			-0.000516867272284949	-33.1780573625341	0.000441113953927874	-33.1532551546218	0.00228287757332024	-33.1069096061285
14000000	0.00266963063948744	-30.7520314742413	-0.000526912286258341	-30.8101497894436	-0.000527109601930476	-30.8101487574099
			-0.000526912286258341	-30.8101497894436	0.00238904353559721	-30.7336854373979	0.000472483350341668	-30.7834569009412
			-0.000527109601936027	-30.8101487574099	0.000472483350341668	-30.7834569009412	0.00239120373421442	-30.733616418513
15000000	0.00278210554341962	-28.6959228942067	-0.000543908089828404	-28.75809196507	-0.000544085681350448	-28.7580908753111
			-0.00054390808983118	-28.75809196507	0.00247248942178979	-28.6762586507457	0.000490089816884698	-28.7295242675334
			-0.000544085681354611	-28.7580908753111	0.000490089816886086	-28.7295242675334	0.00247478604499668	-28.6761848205208
16000000	0.00288230705922932	-26.8964520941462	-0.000564324825695628	-26.9626610169239	-0.000564530642473138	-26.9626598324388
			-0.000564324825699791	-26.9626610169239	0.0025618897555299	-26.8754666134125	0.000507224313082977	-26.932219204658
			-0.000564530642474526	-26.9626598324388	0.000507224313082977	-26.932219204658	0.00256424665599914	-26.8753878996852
17000000	0.00298461389094673	-25.3083332418233	-0.000585392382478067	-25.3785745717777	-0.000585613736402146	-25.3785732971475
			-0.000585392382478067	-25.3785745717777	0.00265254631566236	-25.2860248032266	0.000525040484480876	-25.34626073147
			-0.000585613736396595	-25.3785732971475	0.00052504048448504	-25.34626073147	0.00265498186577673	-25.2859412293893
18000000	0.00308667883485436	-23.8963396212948	-0.000605203298137402	-23.9706084053181	-0.000605433046345361	-23.9706070475065
			-0.000605203298140178	-23.9706084053181	0.00274168468579056	-23.8727083516775	0.000542874040349028	-23.9364243664862
			-0.000605433046349524	-23.9706070475065	0.000542874040349028	-23.9364243664862	0.00274420550886723	-23.8726199341236
19000000	0.00318616811686712	-22.6326622338567	-0.000624195536773342	-22.7109537426557	-0.000624432281040588	-22.7109523032915
			-0.000624195536777505	-22.7109537426557	0.00282817919187855	-22.6077076550145	0.00056021673753015	-22.6749007666659
			-0.000624432281044751	-22.7109523032915	0.00056021673753015	-22.6749007666659	0.00283078468137771	-22.6076144010542
20000000	0.00328246440290669	-21.4950538540143	-0.000642579366590124	-21.5773637710088	-0.000642823016122618	-21.5773622499394
			-0.000642579366592899	-21.5773637710088	0.00291180396410351	-21.4687752283822	0.000576963448155332	-21.5394427785575
			-0.000642823016124006	-21.5773622499394	0.00057696344815672	-21.5394427785575	0.00291449136020361	-21.4686771422529
22000000	0.00346493185087171	-19.5292793265907	-0.00067780303960735	-19.6196151567933	-0.000678060576818351	-19.619613470607
			-0.000677803039608738	-19.6196151567933	0.00307079982773961	-19.5003504473388	0.000608817764019554	-19.577960202425
			-0.000678060576815576	-19.619613470607	0.000608817764020941	-19.577960202425	0.0030736412305124	-19.5002427053174
24000000	0.00363512572276875	-17.8901367255468	-0.000710646150012262	-17.9884885767397	-0.000710916882210033	-17.9884867231664
			-0.000710646150009486	-17.9884885767397	0.00321985834533384	-17.8585567163869	0.000638839510642975	-17.9431016156069
			-0.00071091688220587	-17.9884867231664	0.000638839510642975	-17.9431016156069	0.00322284133076056	-17.8584393253461
26000000	0.00379561003942125	-16.5022495821963	-0.000741468901588327	-16.6086104383213	-0.000741750727717427	-16.6086084166766
			-0.000741468901589715	-16.6086104383213	0.0033601021751456	-16.4680171693551	0.000667200450037153	-16.5594919361581
			-0.000741750727718815	-16.6086084166766	0.000667200450035765	-16.5594919361581	0.00336322083961949	-16.4678901326015
28000000	0.00394725055380962	-15.3117772274922	-0.000770682276447776	-15.4261420753073	-0.000770975384023487	-15.4261398860618
			-0.000770682276447776	-15.4261420753073	0.00349297361088713	-15.2748912036657	0.000694187184213657	-15.3732918692741
			-0.000770975384026262	-15.4261398860618	0.000694187184213657	-15.3732918692741	0.00349622180644688	-15.2747545312458
30000000	0.00409127820998612	-14.2792361790224	-0.000798538220123102	-14.4016018062284	-0.000798842215520013	-14.4015994483566
			-0.000798538220124489	-14.4016018062284	0.00361946369200894	-14.2396958860807	0.000719906715468399	-14.3450191557506
			-0.000798842215518625	-14.4015994483566	0.000719906715469787	-14.3450191557506	0.00362283280831155	-14.2395495821054
32000000	0.00422883757063286	-13.375013965772	-0.000825206466154027	-13.5053784197574	-0.000825520739722307	-13.505375892776
			-0.000825206466152639	-13.5053784197574	0.00374044264368212	-13.3328188618289	0.00074457035329073	-13.4450620628776
			-0.00082552073972092	-13.505375892776	0.00074457035329073	-13.4450620628776	0.00374392711903204	-13.3326629297401
34000000	0.0043608736561826	-12.5764658176155	-0.000850854332434814	-12.7148280839359	-0.000851178444583739	-12.7148253873964
			-0.000850854332436896	-12.7148280839359	0.00385669958248916	-12.5316154325519	0.000768343711708003	-12.650776349225
			-0.000851178444584433	-12.7148253873964	0.000768343711708697	-12.650776349225	0.00386029465777316	-12.531449875559
36000000	0.0044881680554644	-11.865979168099	-0.000875627051512284	-12.0123389385816	-0.000875960649610735	-12.0123360720579
			-0.000875627051512284	-12.0123389385816	0.00396888766786493	-11.8184730825297	0.000791356199131288	-11.9445498143741
			-0.000875960649610735	-12.0123360720579	0.000791356199131982	-11.9445498143741	0.00397258924224458	-11.8182979035014
38000000	0.00461136449586216	-11.2296493747492	-0.00089964611181409	-11.3840068917891	-0.000899988892330561	-11.384003854865
			-0.000899646111814784	-11.3840068917891	0.00407754479404485	-11.1794871995345	0.00081371502546751	-11.3124780711745
